#H
SOURCE='PSPICE' VERSION='PSpice 16.0.0 (July 2006)'
TITLE='**** 05/18/10 12:08:24 ******* PSpice 16.0.0 (July 2006) ****** ID# 0 ********'
SUBTITLE=''
TIME='20:14:59' DATE='05/30/10' TEMPERATURE='2.700E01'
ANALYSIS='Transient Analysis' SERIALNO='61413'
ALLVALUES='NO' COMPLEXVALUES='NO' NODES='20'
SWEEPVAR='Time' SWEEPMODE='VAR_STEP'
XBEGIN='0.000E00' XEND='5.000E-08'
FORMAT='0 VOLTSorAMPS;EFLOAT : NODEorBRANCH;NODE  '
DGTLDATA='NO' 
#N 
'V(C_F_D_LSB)' 'V(C_F_D_2SB)' 'V(C_F_D_3SB)' 'V(C_F_D_4SB)' 'V(C_F_D_5SB)' 'V(C_F_D_MSB)' 'V(C_F_C1_NDPOS)' 'I(I_INY1)' 'ID(M_C_F_C1_M12)' 
'IB(M_C_F_C1_M12)' 'IS(M_C_F_C1_M12)' 'IG(M_C_F_C1_M12)' 'ID(M_C_F_C1_M2)' 'IB(M_C_F_C1_M2)' 'IS(M_C_F_C1_M2)' 'IG(M_C_F_C1_M2)' 
'ID(M_C_F_C1_M4)' 'IB(M_C_F_C1_M4)' 'IS(M_C_F_C1_M4)' 'IG(M_C_F_C1_M4)' 
#C 0.0000000000E00 20
3.300E00:1 3.300E00:2 3.300E00:3 3.300E00:4 3.300E00:5 3.229E00:6 1.731E00:7 0.000E00:8 -8.147E-04:9 1.332E-13:a 8.147E-04:b 
0.000E00:c 1.265E-04:d -2.168E-12:e -1.265E-04:f 0.000E00:10 -1.265E-04:11 1.579E-12:12 1.265E-04:13 0.000E00:14 
#C 1.0000000000E-11 20
3.300E00:1 3.300E00:2 3.300E00:3 3.300E00:4 3.300E00:5 3.229E00:6 1.731E00:7 0.000E00:8 -8.147E-04:9 -1.598E-12:a 8.147E-04:b 
2.100E-12:c 1.265E-04:d -5.278E-12:e -1.265E-04:f -1.776E-15:10 -1.265E-04:11 5.814E-13:12 1.265E-04:13 8.226E-12:14 
#C 2.0000000000E-11 20
3.300E00:1 3.300E00:2 3.300E00:3 3.300E00:4 3.300E00:5 3.229E00:6 1.731E00:7 0.000E00:8 -8.147E-04:9 -1.598E-12:a 8.147E-04:b 
2.100E-12:c 1.265E-04:d -5.278E-12:e -1.265E-04:f -1.776E-15:10 -1.265E-04:11 5.814E-13:12 1.265E-04:13 8.226E-12:14 
#C 4.0000152290E-11 20
3.300E00:1 3.300E00:2 3.300E00:3 3.300E00:4 3.300E00:5 3.229E00:6 1.731E00:7 0.000E00:8 -8.147E-04:9 1.332E-13:a 8.147E-04:b 
0.000E00:c 1.265E-04:d -2.168E-12:e -1.265E-04:f 0.000E00:10 -1.265E-04:11 1.579E-12:12 1.265E-04:13 0.000E00:14 
#C 8.0000456870E-11 20
3.300E00:1 3.300E00:2 3.300E00:3 3.300E00:4 3.300E00:5 3.229E00:6 1.731E00:7 0.000E00:8 -8.147E-04:9 1.332E-13:a 8.147E-04:b 
0.000E00:c 1.265E-04:d -2.168E-12:e -1.265E-04:f 0.000E00:10 -1.265E-04:11 1.579E-12:12 1.265E-04:13 0.000E00:14 
#C 1.6000106603E-10 20
3.300E00:1 3.300E00:2 3.300E00:3 3.300E00:4 3.300E00:5 3.229E00:6 1.731E00:7 0.000E00:8 -8.147E-04:9 1.332E-13:a 8.147E-04:b 
0.000E00:c 1.265E-04:d -2.168E-12:e -1.265E-04:f 0.000E00:10 -1.265E-04:11 1.579E-12:12 1.265E-04:13 0.000E00:14 
#C 3.2000228435E-10 20
3.300E00:1 3.300E00:2 3.300E00:3 3.300E00:4 3.300E00:5 3.229E00:6 1.731E00:7 0.000E00:8 -8.147E-04:9 1.332E-13:a 8.147E-04:b 
0.000E00:c 1.265E-04:d -2.168E-12:e -1.265E-04:f 0.000E00:10 -1.265E-04:11 1.579E-12:12 1.265E-04:13 0.000E00:14 
#C 6.4000472099E-10 20
3.300E00:1 3.300E00:2 3.300E00:3 3.300E00:4 3.300E00:5 3.229E00:6 1.731E00:7 0.000E00:8 -8.147E-04:9 1.332E-13:a 8.147E-04:b 
0.000E00:c 1.265E-04:d -2.168E-12:e -1.265E-04:f 0.000E00:10 -1.265E-04:11 1.579E-12:12 1.265E-04:13 0.000E00:14 
#C 1.2800095943E-09 20
3.300E00:1 3.300E00:2 3.300E00:3 3.300E00:4 3.300E00:5 3.229E00:6 1.731E00:7 0.000E00:8 -8.147E-04:9 1.332E-13:a 8.147E-04:b 
0.000E00:c 1.265E-04:d -2.168E-12:e -1.265E-04:f 0.000E00:10 -1.265E-04:11 1.579E-12:12 1.265E-04:13 0.000E00:14 
#C 2.0000000001E-09 20
3.300E00:1 3.300E00:2 3.300E00:3 3.300E00:4 3.300E00:5 3.229E00:6 1.731E00:7 1.333E-11:8 -8.147E-04:9 1.332E-13:a 8.147E-04:b 
0.000E00:c 1.265E-04:d -2.168E-12:e -1.265E-04:f 0.000E00:10 -1.265E-04:11 1.579E-12:12 1.265E-04:13 0.000E00:14 
#C 2.0200000001E-09 20
3.300E00:1 3.300E00:2 3.300E00:3 3.300E00:4 3.300E00:5 3.229E00:6 1.730E00:7 1.946E-03:8 -8.031E-04:9 1.812E-03:a 9.266E-04:b 
-1.936E-03:c 1.198E-04:d 3.066E-06:e -1.229E-04:f 3.109E-09:10 -1.331E-04:11 3.999E-07:12 1.278E-04:13 4.951E-06:14 
#C 2.0600003047E-09 20
3.300E00:1 3.300E00:2 3.300E00:3 3.300E00:4 3.300E00:5 3.229E00:6 1.724E00:7 3.459E-03:8 -7.957E-04:9 3.139E-03:a 1.095E-03:b 
-3.439E-03:c 1.151E-04:d 4.672E-06:e -1.198E-04:f 1.180E-08:10 -1.383E-04:11 6.092E-07:12 1.284E-04:13 9.360E-06:14 
#C 2.1400009138E-09 20
3.300E00:1 3.300E00:2 3.300E00:3 3.300E00:4 3.300E00:5 3.229E00:6 1.713E00:7 3.962E-03:8 -7.960E-04:9 3.395E-03:a 1.338E-03:b 
-3.937E-03:c 1.150E-04:d 4.674E-06:e -1.197E-04:f 1.665E-08:10 -1.383E-04:11 6.065E-07:12 1.284E-04:13 9.353E-06:14 
#C 2.2000000001E-09 20
3.300E00:1 3.300E00:2 3.300E00:3 3.300E00:4 3.300E00:5 3.229E00:6 1.704E00:7 3.995E-03:8 -8.762E-04:9 3.233E-03:a 1.425E-03:b 
-3.781E-03:c 1.156E-04:d -2.446E-07:e -1.154E-04:f 2.841E-08:10 -1.436E-04:11 -1.146E-07:12 1.257E-04:13 1.797E-05:14 
#C 2.2160001219E-09 20
3.300E00:1 3.300E00:2 3.300E00:3 3.300E00:4 3.300E00:5 3.229E00:6 1.702E00:7 3.871E-03:8 -8.941E-04:9 3.230E-03:a 1.453E-03:b 
-3.789E-03:c 1.154E-04:d 1.232E-06:e -1.166E-04:f 2.617E-08:10 -1.420E-04:11 1.011E-07:12 1.265E-04:13 1.539E-05:14 
#C 2.2480026939E-09 20
3.300E00:1 3.300E00:2 3.300E00:3 3.300E00:4 3.300E00:5 3.229E00:6 1.698E00:7 3.633E-03:8 -7.951E-04:9 2.791E-03:a 1.615E-03:b 
-3.611E-03:c 1.184E-04:d -1.119E-07:e -1.183E-04:f 2.586E-08:10 -1.401E-04:11 -3.947E-07:12 1.248E-04:13 1.571E-05:14 
#C 2.3120078378E-09 20
3.300E00:1 3.300E00:2 3.300E00:3 3.300E00:4 3.300E00:5 3.229E00:6 1.691E00:7 3.197E-03:8 -8.006E-04:9 2.247E-03:a 1.731E-03:b 
-3.177E-03:c 1.183E-04:d -1.108E-07:e -1.182E-04:f 2.842E-08:10 -1.401E-04:11 -3.960E-07:12 1.248E-04:13 1.571E-05:14 
#C 2.4400181257E-09 20
3.300E00:1 3.300E00:2 3.300E00:3 3.300E00:4 3.300E00:5 3.229E00:6 1.679E00:7 2.475E-03:8 -8.073E-04:9 1.374E-03:a 1.900E-03:b 
-2.467E-03:c 1.197E-04:d 4.075E-06:e -1.238E-04:f 3.431E-08:10 -1.320E-04:11 3.377E-07:12 1.276E-04:13 3.978E-06:14 
#C 2.6960387015E-09 20
3.300E00:1 3.300E00:2 3.300E00:3 3.300E00:4 3.300E00:5 3.229E00:6 1.667E00:7 1.483E-03:8 -7.992E-04:9 2.280E-04:a 2.067E-03:b 
-1.496E-03:c 1.241E-04:d 2.257E-07:e -1.243E-04:f 4.513E-08:10 -1.292E-04:11 2.146E-09:12 1.265E-04:13 2.620E-06:14 
#C 3.2080798530E-09 20
3.300E00:1 3.300E00:2 3.300E00:3 3.300E00:4 3.300E00:5 3.229E00:6 1.664E00:7 5.327E-04:8 -8.179E-04:9 -5.910E-04:a 1.943E-03:b 
-5.340E-04:c 1.270E-04:d -5.987E-07:e -1.264E-04:f 3.913E-08:10 -1.257E-04:11 -1.463E-07:12 1.261E-04:13 -2.244E-07:14 
#C 4.2081340336E-09 20
3.300E00:1 3.300E00:2 3.300E00:3 3.300E00:4 3.300E00:5 3.229E00:6 1.678E00:7 7.208E-05:8 -8.074E-04:9 -5.573E-04:a 1.452E-03:b 
-8.690E-05:c 1.270E-04:d -1.130E-07:e -1.269E-04:f 2.297E-08:10 -1.251E-04:11 -3.808E-08:12 1.264E-04:13 -1.280E-06:14 
#C 5.2081882143E-09 20
3.300E00:1 3.300E00:2 3.300E00:3 3.300E00:4 3.300E00:5 3.229E00:6 1.689E00:7 9.754E-06:8 -8.136E-04:9 -2.888E-04:a 1.116E-03:b 
-1.389E-05:c 1.267E-04:d -2.766E-08:e -1.267E-04:f 1.920E-08:10 -1.255E-04:11 2.664E-08:12 1.266E-04:13 -1.148E-06:14 
#C 6.2082423949E-09 20
3.300E00:1 3.300E00:2 3.300E00:3 3.300E00:4 3.300E00:5 3.229E00:6 1.695E00:7 1.320E-06:8 -8.135E-04:9 -1.206E-04:a 9.380E-04:b 
-3.932E-06:c 1.264E-04:d -1.112E-08:e -1.264E-04:f 1.911E-08:10 -1.260E-04:11 3.830E-08:12 1.267E-04:13 -7.071E-07:14 
#C 7.2082965755E-09 20
3.300E00:1 3.300E00:2 3.300E00:3 3.300E00:4 3.300E00:5 3.229E00:6 1.698E00:7 1.786E-07:8 -8.142E-04:9 -3.993E-05:a 8.551E-04:b 
-9.969E-07:c 1.263E-04:d -9.998E-09:e -1.263E-04:f 1.898E-08:10 -1.263E-04:11 2.657E-08:12 1.266E-04:13 -3.491E-07:14 
#C 8.2083507561E-09 20
3.300E00:1 3.300E00:2 3.300E00:3 3.300E00:4 3.300E00:5 3.229E00:6 1.699E00:7 2.417E-08:8 -8.145E-04:9 -1.615E-05:a 8.308E-04:b 
-2.142E-07:c 1.262E-04:d -9.239E-09:e -1.262E-04:f 1.867E-08:10 -1.265E-04:11 1.017E-08:12 1.266E-04:13 -1.365E-07:14 
#C 9.2084049367E-09 20
3.300E00:1 3.300E00:2 3.300E00:3 3.300E00:4 3.300E00:5 3.229E00:6 1.699E00:7 3.271E-09:8 -8.147E-04:9 -6.480E-06:a 8.209E-04:b 
2.687E-07:c 1.263E-04:d -9.997E-09:e -1.263E-04:f 1.898E-08:10 -1.263E-04:11 2.657E-08:12 1.266E-04:13 -3.491E-07:14 
#C 1.0208459117E-08 20
3.300E00:1 3.300E00:2 3.300E00:3 3.300E00:4 3.300E00:5 3.229E00:6 1.699E00:7 4.426E-10:8 -8.148E-04:9 -2.786E-06:a 8.169E-04:b 
7.202E-07:c 1.260E-04:d 5.350E-08:e -1.261E-04:f 1.934E-08:10 -1.268E-04:11 -4.625E-09:12 1.265E-04:13 2.446E-07:14 
#C 1.1208513298E-08 20
3.300E00:1 3.300E00:2 3.300E00:3 3.300E00:4 3.300E00:5 3.229E00:6 1.699E00:7 5.989E-11:8 -8.148E-04:9 -1.090E-06:a 8.152E-04:b 
7.000E-07:c 1.260E-04:d 5.350E-08:e -1.261E-04:f 1.934E-08:10 -1.268E-04:11 -4.625E-09:12 1.265E-04:13 2.446E-07:14 
#C 1.2208567479E-08 20
3.300E00:1 3.300E00:2 3.300E00:3 3.300E00:4 3.300E00:5 3.229E00:6 1.699E00:7 8.105E-12:8 -8.131E-04:9 -2.786E-06:a 8.151E-04:b 
7.195E-07:c 1.260E-04:d 5.350E-08:e -1.261E-04:f 1.934E-08:10 -1.268E-04:11 -4.625E-09:12 1.265E-04:13 2.446E-07:14 
#C 1.3208621659E-08 20
3.300E00:1 3.300E00:2 3.300E00:3 3.300E00:4 3.300E00:5 3.229E00:6 1.699E00:7 1.097E-12:8 -8.131E-04:9 -1.090E-06:a 8.135E-04:b 
6.994E-07:c 1.260E-04:d 5.350E-08:e -1.261E-04:f 1.934E-08:10 -1.268E-04:11 -4.625E-09:12 1.265E-04:13 2.446E-07:14 
#C 1.4208675840E-08 20
3.300E00:1 3.300E00:2 3.300E00:3 3.300E00:4 3.300E00:5 3.229E00:6 1.699E00:7 1.484E-13:8 -8.148E-04:9 1.863E-06:a 8.123E-04:b 
6.565E-07:c 1.260E-04:d 5.350E-08:e -1.261E-04:f 1.934E-08:10 -1.268E-04:11 -4.625E-09:12 1.265E-04:13 2.446E-07:14 
#C 1.5000000000E-08 20
3.300E00:1 3.300E00:2 3.300E00:3 3.300E00:4 3.300E00:5 3.229E00:6 1.699E00:7 3.049E-14:8 -8.138E-04:9 -6.709E-07:a 8.137E-04:b 
6.917E-07:c 1.264E-04:d -5.350E-08:e -1.263E-04:f -1.934E-08:10 -1.263E-04:11 4.628E-09:12 1.266E-04:13 -2.446E-07:14 
#C 1.5100000000E-08 20
3.300E00:1 3.300E00:2 3.300E00:3 3.300E00:4 3.300E00:5 3.229E00:6 1.699E00:7 2.496E-14:8 -8.144E-04:9 5.963E-07:a 8.132E-04:b 
6.741E-07:c 1.262E-04:d -2.136E-12:e -1.262E-04:f 0.000E00:10 -1.265E-04:11 1.611E-12:12 1.265E-04:13 0.000E00:14 
#C 1.5300001523E-08 20
3.300E00:1 3.300E00:2 3.300E00:3 3.300E00:4 3.300E00:5 3.229E00:6 1.699E00:7 1.673E-14:8 -8.145E-04:9 5.963E-07:a 8.132E-04:b 
6.741E-07:c 1.262E-04:d -2.136E-12:e -1.262E-04:f 0.000E00:10 -1.265E-04:11 1.611E-12:12 1.265E-04:13 0.000E00:14 
#C 1.5350001904E-08 20
3.300E00:1 3.300E00:2 3.300E00:3 3.300E00:4 3.300E00:5 3.229E00:6 1.699E00:7 1.514E-14:8 -8.145E-04:9 5.963E-07:a 8.132E-04:b 
6.741E-07:c 1.262E-04:d -2.136E-12:e -1.262E-04:f -1.735E-17:10 -1.265E-04:11 1.611E-12:12 1.265E-04:13 6.939E-17:14 
#C 1.5450002665E-08 20
3.300E00:1 3.300E00:2 3.300E00:3 3.300E00:4 3.300E00:5 3.229E00:6 1.699E00:7 1.240E-14:8 -8.145E-04:9 5.963E-07:a 8.132E-04:b 
6.741E-07:c 1.262E-04:d -2.136E-12:e -1.262E-04:f -2.776E-17:10 -1.265E-04:11 1.611E-12:12 1.265E-04:13 0.000E00:14 
#C 1.5475002856E-08 20
3.300E00:1 3.300E00:2 3.300E00:3 3.300E00:4 3.300E00:5 3.229E00:6 1.699E00:7 1.179E-14:8 -8.145E-04:9 5.963E-07:a 8.133E-04:b 
6.741E-07:c 1.262E-04:d -2.136E-12:e -1.262E-04:f -5.898E-17:10 -1.265E-04:11 1.611E-12:12 1.265E-04:13 -4.163E-17:14 
#C 1.5525003236E-08 20
3.300E00:1 3.300E00:2 3.300E00:3 3.300E00:4 3.300E00:5 3.229E00:6 1.699E00:7 1.067E-14:8 -8.145E-04:9 5.963E-07:a 8.133E-04:b 
6.741E-07:c 1.262E-04:d -2.136E-12:e -1.262E-04:f 5.551E-17:10 -1.265E-04:11 1.611E-12:12 1.265E-04:13 -1.110E-16:14 
#C 1.5537503331E-08 20
3.300E00:1 3.300E00:2 3.300E00:3 3.300E00:4 3.300E00:5 3.229E00:6 1.699E00:7 1.041E-14:8 -8.145E-04:9 5.963E-07:a 8.133E-04:b 
6.741E-07:c 1.262E-04:d -2.136E-12:e -1.262E-04:f -1.388E-17:10 -1.265E-04:11 1.611E-12:12 1.265E-04:13 -2.082E-17:14 
#C 1.5562503522E-08 20
3.300E00:1 3.300E00:2 3.300E00:3 3.300E00:4 3.300E00:5 3.229E00:6 1.699E00:7 9.897E-15:8 -8.145E-04:9 5.963E-07:a 8.133E-04:b 
6.741E-07:c 1.262E-04:d -2.136E-12:e -1.262E-04:f 0.000E00:10 -1.265E-04:11 1.611E-12:12 1.265E-04:13 0.000E00:14 
#C 1.5568753569E-08 20
3.300E00:1 3.300E00:2 3.300E00:3 3.300E00:4 3.300E00:5 3.229E00:6 1.699E00:7 9.775E-15:8 -8.146E-04:9 5.963E-07:a 8.133E-04:b 
6.741E-07:c 1.262E-04:d -2.136E-12:e -1.262E-04:f -1.388E-17:10 -1.265E-04:11 1.611E-12:12 1.265E-04:13 -2.914E-16:14 
#C 1.5581253665E-08 20
3.300E00:1 3.300E00:2 3.300E00:3 3.300E00:4 3.300E00:5 3.229E00:6 1.699E00:7 9.533E-15:8 -8.146E-04:9 5.963E-07:a 8.133E-04:b 
6.741E-07:c 1.262E-04:d -2.135E-12:e -1.262E-04:f -2.220E-16:10 -1.265E-04:11 1.611E-12:12 1.265E-04:13 0.000E00:14 
#C 1.5606253855E-08 20
3.300E00:1 3.300E00:2 3.300E00:3 3.300E00:4 3.300E00:5 3.229E00:6 1.699E00:7 9.068E-15:8 -8.146E-04:9 5.963E-07:a 8.133E-04:b 
6.741E-07:c 1.262E-04:d -2.136E-12:e -1.262E-04:f -1.110E-16:10 -1.265E-04:11 1.611E-12:12 1.265E-04:13 1.110E-16:14 
#C 1.5656254236E-08 20
3.300E00:1 3.300E00:2 3.300E00:3 3.300E00:4 3.300E00:5 3.229E00:6 1.699E00:7 8.205E-15:8 -8.146E-04:9 5.963E-07:a 8.133E-04:b 
6.741E-07:c 1.262E-04:d -2.136E-12:e -1.262E-04:f 1.110E-16:10 -1.265E-04:11 1.611E-12:12 1.265E-04:13 -1.110E-16:14 
#C 1.5731190778E-08 20
3.300E00:1 3.300E00:2 3.300E00:3 3.300E00:4 3.300E00:5 3.229E00:6 1.699E00:7 7.063E-15:8 -8.146E-04:9 5.963E-07:a 8.133E-04:b 
6.741E-07:c 1.262E-04:d -2.136E-12:e -1.262E-04:f 8.327E-17:10 -1.265E-04:11 1.611E-12:12 1.265E-04:13 -2.776E-17:14 
#C 1.5845429134E-08 20
3.300E00:1 3.300E00:2 3.300E00:3 3.300E00:4 3.300E00:5 3.229E00:6 1.699E00:7 5.621E-15:8 -8.146E-04:9 5.963E-07:a 8.134E-04:b 
6.741E-07:c 1.262E-04:d -2.136E-12:e -1.262E-04:f -5.551E-17:10 -1.265E-04:11 1.611E-12:12 1.265E-04:13 4.163E-17:14 
#C 1.6000000000E-08 20
3.300E00:1 3.300E00:2 3.300E00:3 3.300E00:4 3.300E00:5 3.229E00:6 1.699E00:7 4.126E-15:8 -8.147E-04:9 5.962E-07:a 8.134E-04:b 
6.741E-07:c 1.262E-04:d -2.136E-12:e -1.262E-04:f -4.163E-17:10 -1.265E-04:11 1.611E-12:12 1.265E-04:13 2.776E-17:14 
#C 1.6022847671E-08 20
3.300E00:1 3.300E00:2 3.300E00:3 3.300E00:4 3.300E00:5 3.229E00:6 1.699E00:7 3.942E-15:8 -8.147E-04:9 5.962E-07:a 8.134E-04:b 
6.740E-07:c 1.262E-04:d -2.136E-12:e -1.262E-04:f 0.000E00:10 -1.265E-04:11 1.611E-12:12 1.265E-04:13 0.000E00:14 
#C 1.6068540685E-08 20
3.300E00:1 3.300E00:2 3.300E00:3 3.300E00:4 3.300E00:5 3.229E00:6 1.699E00:7 3.598E-15:8 -8.147E-04:9 5.962E-07:a 8.134E-04:b 
6.740E-07:c 1.262E-04:d -2.136E-12:e -1.262E-04:f -5.551E-17:10 -1.265E-04:11 1.611E-12:12 1.265E-04:13 5.551E-17:14 
#C 1.6159926713E-08 20
3.300E00:1 3.300E00:2 3.300E00:3 3.300E00:4 3.300E00:5 3.229E00:6 1.699E00:7 2.997E-15:8 -8.147E-04:9 5.962E-07:a 8.134E-04:b 
6.740E-07:c 1.262E-04:d -2.136E-12:e -1.262E-04:f 2.776E-17:10 -1.265E-04:11 1.611E-12:12 1.265E-04:13 -8.327E-17:14 
#C 1.6342698768E-08 20
3.300E00:1 3.300E00:2 3.300E00:3 3.300E00:4 3.300E00:5 3.229E00:6 1.699E00:7 2.079E-15:8 -8.148E-04:9 5.962E-07:a 8.135E-04:b 
6.740E-07:c 1.262E-04:d -2.136E-12:e -1.262E-04:f 4.163E-17:10 -1.265E-04:11 1.611E-12:12 1.265E-04:13 -1.388E-17:14 
#C 1.6708242878E-08 20
3.300E00:1 3.300E00:2 3.300E00:3 3.300E00:4 3.300E00:5 3.229E00:6 1.699E00:7 1.001E-15:8 -8.148E-04:9 5.962E-07:a 8.136E-04:b 
6.740E-07:c 1.262E-04:d -2.136E-12:e -1.262E-04:f 2.082E-17:10 -1.265E-04:11 1.611E-12:12 1.265E-04:13 -6.939E-18:14 
#C 1.7439331099E-08 20
3.300E00:1 3.300E00:2 3.300E00:3 3.300E00:4 3.300E00:5 3.229E00:6 1.699E00:7 2.316E-16:8 -8.150E-04:9 5.962E-07:a 8.138E-04:b 
6.740E-07:c 1.262E-04:d -2.136E-12:e -1.262E-04:f 6.939E-18:10 -1.265E-04:11 1.611E-12:12 1.265E-04:13 -3.469E-18:14 
#C 1.8439385280E-08 20
3.300E00:1 3.300E00:2 3.300E00:3 3.300E00:4 3.300E00:5 3.229E00:6 1.699E00:7 3.123E-17:8 -8.153E-04:9 5.962E-07:a 8.140E-04:b 
6.740E-07:c 1.262E-04:d -2.136E-12:e -1.262E-04:f 5.204E-18:10 -1.265E-04:11 1.611E-12:12 1.265E-04:13 0.000E00:14 
#C 1.9000000000E-08 20
3.300E00:1 3.300E00:2 3.300E00:3 3.300E00:4 3.300E00:5 3.229E00:6 1.699E00:7 1.041E-17:8 -8.154E-04:9 5.962E-07:a 8.142E-04:b 
6.739E-07:c 1.262E-04:d -2.136E-12:e -1.262E-04:f -1.475E-17:10 -1.265E-04:11 1.611E-12:12 1.265E-04:13 7.806E-18:14 
#C 1.9100000000E-08 20
3.300E00:1 3.300E00:2 3.300E00:3 3.300E00:4 3.300E00:5 3.229E00:6 1.699E00:7 8.674E-18:8 -8.155E-04:9 5.962E-07:a 8.142E-04:b 
6.739E-07:c 1.262E-04:d -2.136E-12:e -1.262E-04:f 0.000E00:10 -1.265E-04:11 1.611E-12:12 1.265E-04:13 0.000E00:14 
#C 1.9300001523E-08 20
3.300E00:1 3.300E00:2 3.300E00:3 3.300E00:4 3.300E00:5 3.229E00:6 1.699E00:7 6.072E-18:8 -8.155E-04:9 5.962E-07:a 8.143E-04:b 
6.739E-07:c 1.262E-04:d -2.136E-12:e -1.262E-04:f 0.000E00:10 -1.265E-04:11 1.611E-12:12 1.265E-04:13 0.000E00:14 
#C 1.9700004569E-08 20
3.300E00:1 3.300E00:2 3.300E00:3 3.300E00:4 3.300E00:5 3.229E00:6 1.699E00:7 0.000E00:8 -8.156E-04:9 5.962E-07:a 8.144E-04:b 
6.739E-07:c 1.262E-04:d -2.136E-12:e -1.262E-04:f 1.388E-17:10 -1.265E-04:11 1.611E-12:12 1.265E-04:13 -1.388E-17:14 
#C 2.0000000000E-08 20
3.300E00:1 3.300E00:2 3.300E00:3 3.300E00:4 3.300E00:5 3.229E00:6 1.699E00:7 0.000E00:8 -8.157E-04:9 5.962E-07:a 8.144E-04:b 
6.739E-07:c 1.262E-04:d -2.136E-12:e -1.262E-04:f 0.000E00:10 -1.265E-04:11 1.611E-12:12 1.265E-04:13 5.204E-18:14 
#C 2.0065006316E-08 20
3.300E00:1 3.300E00:2 3.300E00:3 3.300E00:4 3.300E00:5 3.229E00:6 1.699E00:7 0.000E00:8 -8.157E-04:9 5.962E-07:a 8.145E-04:b 
6.739E-07:c 1.262E-04:d -2.136E-12:e -1.262E-04:f 0.000E00:10 -1.265E-04:11 1.611E-12:12 1.265E-04:13 0.000E00:14 
#C 2.0195018947E-08 20
3.300E00:1 3.300E00:2 3.300E00:3 3.300E00:4 3.300E00:5 3.229E00:6 1.699E00:7 0.000E00:8 -8.158E-04:9 5.962E-07:a 8.145E-04:b 
6.739E-07:c 1.262E-04:d -2.136E-12:e -1.262E-04:f 2.776E-17:10 -1.265E-04:11 1.611E-12:12 1.265E-04:13 0.000E00:14 
#C 2.0455044210E-08 20
3.300E00:1 3.300E00:2 3.300E00:3 3.300E00:4 3.300E00:5 3.229E00:6 1.699E00:7 0.000E00:8 -8.158E-04:9 5.962E-07:a 8.146E-04:b 
6.739E-07:c 1.262E-04:d -2.136E-12:e -1.262E-04:f -1.388E-17:10 -1.265E-04:11 1.611E-12:12 1.265E-04:13 -1.388E-17:14 
#C 2.0975094736E-08 20
3.300E00:1 3.300E00:2 3.300E00:3 3.300E00:4 3.300E00:5 3.229E00:6 1.699E00:7 0.000E00:8 -8.160E-04:9 5.962E-07:a 8.147E-04:b 
6.739E-07:c 1.262E-04:d -2.136E-12:e -1.262E-04:f 6.939E-18:10 -1.265E-04:11 1.611E-12:12 1.265E-04:13 -6.939E-18:14 
#C 2.1975148916E-08 20
3.300E00:1 3.300E00:2 3.300E00:3 3.300E00:4 3.300E00:5 3.229E00:6 1.699E00:7 0.000E00:8 -8.162E-04:9 5.962E-07:a 8.150E-04:b 
6.739E-07:c 1.262E-04:d -2.136E-12:e -1.262E-04:f -3.469E-18:10 -1.265E-04:11 1.611E-12:12 1.265E-04:13 0.000E00:14 
#C 2.2975203097E-08 20
3.300E00:1 3.300E00:2 3.300E00:3 3.300E00:4 3.300E00:5 3.229E00:6 1.699E00:7 0.000E00:8 -8.162E-04:9 5.962E-07:a 8.150E-04:b 
6.739E-07:c 1.262E-04:d -2.136E-12:e -1.262E-04:f -3.469E-18:10 -1.265E-04:11 1.611E-12:12 1.265E-04:13 0.000E00:14 
#C 2.3975257278E-08 20
3.300E00:1 3.300E00:2 3.300E00:3 3.300E00:4 3.300E00:5 3.229E00:6 1.699E00:7 0.000E00:8 -8.162E-04:9 5.962E-07:a 8.150E-04:b 
6.739E-07:c 1.262E-04:d -2.136E-12:e -1.262E-04:f -3.469E-18:10 -1.265E-04:11 1.611E-12:12 1.265E-04:13 0.000E00:14 
#C 2.4975311458E-08 20
3.300E00:1 3.300E00:2 3.300E00:3 3.300E00:4 3.300E00:5 3.229E00:6 1.699E00:7 0.000E00:8 -8.162E-04:9 5.962E-07:a 8.150E-04:b 
6.739E-07:c 1.262E-04:d -2.136E-12:e -1.262E-04:f -3.469E-18:10 -1.265E-04:11 1.611E-12:12 1.265E-04:13 0.000E00:14 
#C 2.5975365639E-08 20
3.300E00:1 3.300E00:2 3.300E00:3 3.300E00:4 3.300E00:5 3.229E00:6 1.699E00:7 0.000E00:8 -8.162E-04:9 5.962E-07:a 8.150E-04:b 
6.739E-07:c 1.262E-04:d -2.136E-12:e -1.262E-04:f -3.469E-18:10 -1.265E-04:11 1.611E-12:12 1.265E-04:13 0.000E00:14 
#C 2.6975419819E-08 20
3.300E00:1 3.300E00:2 3.300E00:3 3.300E00:4 3.300E00:5 3.229E00:6 1.699E00:7 0.000E00:8 -8.162E-04:9 5.962E-07:a 8.150E-04:b 
6.739E-07:c 1.262E-04:d -2.136E-12:e -1.262E-04:f -3.469E-18:10 -1.265E-04:11 1.611E-12:12 1.265E-04:13 0.000E00:14 
#C 2.7975474000E-08 20
3.300E00:1 3.300E00:2 3.300E00:3 3.300E00:4 3.300E00:5 3.229E00:6 1.699E00:7 0.000E00:8 -8.162E-04:9 5.962E-07:a 8.150E-04:b 
6.739E-07:c 1.262E-04:d -2.136E-12:e -1.262E-04:f -3.469E-18:10 -1.265E-04:11 1.611E-12:12 1.265E-04:13 0.000E00:14 
#C 2.8975528181E-08 20
3.300E00:1 3.300E00:2 3.300E00:3 3.300E00:4 3.300E00:5 3.229E00:6 1.699E00:7 0.000E00:8 -8.162E-04:9 5.962E-07:a 8.150E-04:b 
6.739E-07:c 1.262E-04:d -2.136E-12:e -1.262E-04:f -3.469E-18:10 -1.265E-04:11 1.611E-12:12 1.265E-04:13 0.000E00:14 
#C 2.9975582361E-08 20
