
**** 10/26/09 19:24:40 ******* PSpice 10.5.0 (Jan 2005) ******* ID# 0 ********

 ** Profile: "SCHEMATIC1-bias"  [ D:\Documents\TESIS\TRUNK\Design\I-DECODER-001\OrCAD\I-DECODER-002\i-decoder-002-pspicefiles\schemat


 ****     CIRCUIT DESCRIPTION


******************************************************************************




** Creating circuit file "bias.cir" 
** WARNING: THIS AUTOMATICALLY GENERATED FILE MAY BE OVERWRITTEN BY SUBSEQUENT SIMULATIONS

*Libraries: 
* Profile Libraries :
* Local Libraries :
* From [PSPICE NETLIST] section of C:\OrCAD\OrCAD_10.5\tools\PSpice\PSpice.ini file:
.lib "nom.lib" 

*Analysis directives: 
.PROBE V(alias(*)) I(alias(*)) W(alias(*)) D(alias(*)) NOISE(alias(*)) 
.INC "..\SCHEMATIC1.net" 



**** INCLUDING SCHEMATIC1.net ****
* source I-DECODER-002
R_DECODER_U7_R4         0 0  10Meg  
M_DECODER_U7_M2         DECODER_U7_N38454 0 DECODER_U7_N38740 0 CMOSN  
+ L=.5u  
+ W=.8u         
M_DECODER_U7_M6         DECODER_U7_N38740 0 DECODER_U7_N38778 0 CMOSN  
+ L=.5u  
+ W=.8u         
M_DECODER_U7_M8         DECODER_N00989 0 N00509 N00509 CMOSP  
+ L=.5u  
+ W=5u         
M_DECODER_U7_M14         DECODER_U7_N43125 0 0 0 CMOSN  
+ L=.5u  
+ W=.8u         
M_DECODER_U7_M11         DECODER_N00989 0 N00509 N00509 CMOSP  
+ L=.5u  
+ W=5u         
R_DECODER_U7_R7         0 0  10Meg  
M_DECODER_U7_M3         DECODER_N00989 0 N00509 N00509 CMOSP  
+ L=.5u  
+ W=5u         
R_DECODER_U7_R1         0 0  10Meg  
M_DECODER_U7_M4         DECODER_N00989 0 N00509 N00509 CMOSP  
+ L=.5u  
+ W=5u         
R_DECODER_U7_R2         0 0  10Meg  
R_DECODER_U7_R5         0 0  10Meg  
R_DECODER_U7_R3         0 0  10Meg  
M_DECODER_U7_M13         DECODER_U7_N43586 0 DECODER_U7_N43125 0 CMOSN  
+ L=.5u  
+ W=.8u         
M_DECODER_U7_M9         DECODER_N00989 0 N00509 N00509 CMOSP  
+ L=.5u  
+ W=5u         
R_DECODER_U7_R6         0 0  10Meg  
M_DECODER_U7_M12         DECODER_N00989 0 N00509 N00509 CMOSP  
+ L=.5u  
+ W=5u         
M_DECODER_U7_M7         DECODER_U7_N38778 0 DECODER_U7_N39060 0 CMOSN  
+ L=.5u  
+ W=.8u         
M_DECODER_U7_M5         DECODER_N00989 0 N00509 N00509 CMOSP  
+ L=.5u  
+ W=5u         
M_DECODER_U7_M1         DECODER_N00989 0 DECODER_U7_N38454 0 CMOSN  
+ L=.5u  
+ W=.8u         
M_DECODER_U7_M10         DECODER_U7_N39060 0 DECODER_U7_N43586 0 CMOSN  
+ L=.5u  
+ W=.8u         
M_DECODER_U1_M4         DECODER_N00369 N00509 N00509 N00509 CMOSP  
+ L=.5u  
+ W=5u         
M_DECODER_U1_M5         DECODER_N00369 0 N00509 N00509 CMOSP  
+ L=.5u  
+ W=5u         
R_DECODER_U1_R1         0 0  10Meg  
M_DECODER_U1_M6         DECODER_N00369 0 DECODER_U1_N23681 0 CMOSN  
+ L=.5u  
+ W=.8u         
R_DECODER_U1_R2         N00509 0  10Meg  
M_DECODER_U1_M2         DECODER_U1_N23681 N00509 0 0 CMOSN  
+ L=.5u  
+ W=.8u         
M_DECODER_U2_M4         N00692 DECODER_N00369 N00509 N00509 CMOSP  
+ L=.5u  
+ W=5u         
M_DECODER_U2_M5         N00692 DECODER_N00379 N00509 N00509 CMOSP  
+ L=.5u  
+ W=5u         
R_DECODER_U2_R1         DECODER_N00379 0  10Meg  
M_DECODER_U2_M6         N00692 DECODER_N00379 DECODER_U2_N23681 0 CMOSN  
+ L=.5u  
+ W=.8u         
R_DECODER_U2_R2         DECODER_N00369 0  10Meg  
M_DECODER_U2_M2         DECODER_U2_N23681 DECODER_N00369 0 0 CMOSN  
+ L=.5u  
+ W=.8u         
R_DECODER_U8_R3         DECODER_N00899 0  10Meg  
M_DECODER_U8_M1         N00731 DECODER_N00778 DECODER_U8_N28403 0 CMOSN  
+ L=.5u  
+ W=.8u         
M_DECODER_U8_M5         N00731 DECODER_N00899 N00509 N00509 CMOSP  
+ L=.5u  
+ W=5u         
R_DECODER_U8_R4         DECODER_N00989 0  10Meg  
M_DECODER_U8_M2         DECODER_U8_N28403 DECODER_N00817 DECODER_U8_N28818 0
+  CMOSN  
+ L=.5u  
+ W=.8u         
M_DECODER_U8_M3         N00731 DECODER_N00778 N00509 N00509 CMOSP  
+ L=.5u  
+ W=5u         
M_DECODER_U8_M6         DECODER_U8_N28818 DECODER_N00899 DECODER_U8_N29978 0
+  CMOSN  
+ L=.5u  
+ W=.8u         
M_DECODER_U8_M7         DECODER_U8_N29978 DECODER_N00989 0 0 CMOSN  
+ L=.5u  
+ W=.8u         
M_DECODER_U8_M4         N00731 DECODER_N00817 N00509 N00509 CMOSP  
+ L=.5u  
+ W=5u         
M_DECODER_U8_M8         N00731 DECODER_N00989 N00509 N00509 CMOSP  
+ L=.5u  
+ W=5u         
R_DECODER_U8_R1         DECODER_N00778 0  10Meg  
R_DECODER_U8_R2         DECODER_N00817 0  10Meg  
M_DECODER_U3_M10         DECODER_U3_N37381 0 0 0 CMOSN  
+ L=.5u  
+ W=.8u         
M_DECODER_U3_M4         DECODER_N00379 0 N00509 N00509 CMOSP  
+ L=.5u  
+ W=5u         
R_DECODER_U3_R1         0 0  10Meg  
R_DECODER_U3_R2         0 0  10Meg  
R_DECODER_U3_R3         0 0  10Meg  
M_DECODER_U3_M7         DECODER_U3_N33879 0 DECODER_U3_N37381 0 CMOSN  
+ L=.5u  
+ W=.8u         
M_DECODER_U3_M5         DECODER_N00379 0 N00509 N00509 CMOSP  
+ L=.5u  
+ W=5u         
M_DECODER_U3_M1         DECODER_N00379 0 DECODER_U3_N33539 0 CMOSN  
+ L=.5u  
+ W=.8u         
M_DECODER_U3_M2         DECODER_U3_N33539 0 DECODER_U3_N33841 0 CMOSN  
+ L=.5u  
+ W=.8u         
M_DECODER_U3_M6         DECODER_U3_N33841 0 DECODER_U3_N33879 0 CMOSN  
+ L=.5u  
+ W=.8u         
R_DECODER_U3_R4         0 0  10Meg  
R_DECODER_U3_R5         0 0  10Meg  
M_DECODER_U3_M3         DECODER_N00379 0 N00509 N00509 CMOSP  
+ L=.5u  
+ W=5u         
M_DECODER_U3_M8         DECODER_N00379 0 N00509 N00509 CMOSP  
+ L=.5u  
+ W=5u         
M_DECODER_U3_M9         DECODER_N00379 0 N00509 N00509 CMOSP  
+ L=.5u  
+ W=5u         
R_DECODER_U4_R4         N00509 0  10Meg  
M_DECODER_U4_M2         DECODER_U4_N38454 N00509 DECODER_U4_N38740 0 CMOSN  
+ L=.5u  
+ W=.8u         
M_DECODER_U4_M6         DECODER_U4_N38740 N00509 DECODER_U4_N38778 0 CMOSN  
+ L=.5u  
+ W=.8u         
M_DECODER_U4_M8         DECODER_N00778 N00509 N00509 N00509 CMOSP  
+ L=.5u  
+ W=5u         
M_DECODER_U4_M14         DECODER_U4_N43125 N00509 0 0 CMOSN  
+ L=.5u  
+ W=.8u         
M_DECODER_U4_M11         DECODER_N00778 0 N00509 N00509 CMOSP  
+ L=.5u  
+ W=5u         
R_DECODER_U4_R7         N00509 0  10Meg  
M_DECODER_U4_M3         DECODER_N00778 N00509 N00509 N00509 CMOSP  
+ L=.5u  
+ W=5u         
R_DECODER_U4_R1         0 0  10Meg  
M_DECODER_U4_M4         DECODER_N00778 N00509 N00509 N00509 CMOSP  
+ L=.5u  
+ W=5u         
R_DECODER_U4_R2         N00509 0  10Meg  
R_DECODER_U4_R5         N00509 0  10Meg  
R_DECODER_U4_R3         N00509 0  10Meg  
M_DECODER_U4_M13         DECODER_U4_N43586 N00509 DECODER_U4_N43125 0 CMOSN  
+ L=.5u  
+ W=.8u         
M_DECODER_U4_M9         DECODER_N00778 N00509 N00509 N00509 CMOSP  
+ L=.5u  
+ W=5u         
R_DECODER_U4_R6         N00509 0  10Meg  
M_DECODER_U4_M12         DECODER_N00778 N00509 N00509 N00509 CMOSP  
+ L=.5u  
+ W=5u         
M_DECODER_U4_M7         DECODER_U4_N38778 N00509 DECODER_U4_N39060 0 CMOSN  
+ L=.5u  
+ W=.8u         
M_DECODER_U4_M5         DECODER_N00778 N00509 N00509 N00509 CMOSP  
+ L=.5u  
+ W=5u         
M_DECODER_U4_M1         DECODER_N00778 0 DECODER_U4_N38454 0 CMOSN  
+ L=.5u  
+ W=.8u         
M_DECODER_U4_M10         DECODER_U4_N39060 N00509 DECODER_U4_N43586 0 CMOSN  
+ L=.5u  
+ W=.8u         
R_DECODER_U5_R4         N00509 0  10Meg  
M_DECODER_U5_M2         DECODER_U5_N38454 0 DECODER_U5_N38740 0 CMOSN  
+ L=.5u  
+ W=.8u         
M_DECODER_U5_M6         DECODER_U5_N38740 0 DECODER_U5_N38778 0 CMOSN  
+ L=.5u  
+ W=.8u         
M_DECODER_U5_M8         DECODER_N00817 N00509 N00509 N00509 CMOSP  
+ L=.5u  
+ W=5u         
M_DECODER_U5_M14         DECODER_U5_N43125 N00509 0 0 CMOSN  
+ L=.5u  
+ W=.8u         
M_DECODER_U5_M11         DECODER_N00817 0 N00509 N00509 CMOSP  
+ L=.5u  
+ W=5u         
R_DECODER_U5_R7         N00509 0  10Meg  
M_DECODER_U5_M3         DECODER_N00817 0 N00509 N00509 CMOSP  
+ L=.5u  
+ W=5u         
R_DECODER_U5_R1         0 0  10Meg  
M_DECODER_U5_M4         DECODER_N00817 0 N00509 N00509 CMOSP  
+ L=.5u  
+ W=5u         
R_DECODER_U5_R2         0 0  10Meg  
R_DECODER_U5_R5         N00509 0  10Meg  
R_DECODER_U5_R3         0 0  10Meg  
M_DECODER_U5_M13         DECODER_U5_N43586 N00509 DECODER_U5_N43125 0 CMOSN  
+ L=.5u  
+ W=.8u         
M_DECODER_U5_M9         DECODER_N00817 N00509 N00509 N00509 CMOSP  
+ L=.5u  
+ W=5u         
R_DECODER_U5_R6         N00509 0  10Meg  
M_DECODER_U5_M12         DECODER_N00817 N00509 N00509 N00509 CMOSP  
+ L=.5u  
+ W=5u         
M_DECODER_U5_M7         DECODER_U5_N38778 N00509 DECODER_U5_N39060 0 CMOSN  
+ L=.5u  
+ W=.8u         
M_DECODER_U5_M5         DECODER_N00817 N00509 N00509 N00509 CMOSP  
+ L=.5u  
+ W=5u         
M_DECODER_U5_M1         DECODER_N00817 0 DECODER_U5_N38454 0 CMOSN  
+ L=.5u  
+ W=.8u         
M_DECODER_U5_M10         DECODER_U5_N39060 N00509 DECODER_U5_N43586 0 CMOSN  
+ L=.5u  
+ W=.8u         
R_DECODER_U6_R4         0 0  10Meg  
M_DECODER_U6_M2         DECODER_U6_N38454 0 DECODER_U6_N38740 0 CMOSN  
+ L=.5u  
+ W=.8u         
M_DECODER_U6_M6         DECODER_U6_N38740 0 DECODER_U6_N38778 0 CMOSN  
+ L=.5u  
+ W=.8u         
M_DECODER_U6_M8         DECODER_N00899 N00509 N00509 N00509 CMOSP  
+ L=.5u  
+ W=5u         
M_DECODER_U6_M14         DECODER_U6_N43125 N00509 0 0 CMOSN  
+ L=.5u  
+ W=.8u         
M_DECODER_U6_M11         DECODER_N00899 0 N00509 N00509 CMOSP  
+ L=.5u  
+ W=5u         
R_DECODER_U6_R7         N00509 0  10Meg  
M_DECODER_U6_M3         DECODER_N00899 0 N00509 N00509 CMOSP  
+ L=.5u  
+ W=5u         
R_DECODER_U6_R1         0 0  10Meg  
M_DECODER_U6_M4         DECODER_N00899 0 N00509 N00509 CMOSP  
+ L=.5u  
+ W=5u         
R_DECODER_U6_R2         0 0  10Meg  
R_DECODER_U6_R5         0 0  10Meg  
R_DECODER_U6_R3         0 0  10Meg  
M_DECODER_U6_M13         DECODER_U6_N43586 N00509 DECODER_U6_N43125 0 CMOSN  
+ L=.5u  
+ W=.8u         
M_DECODER_U6_M9         DECODER_N00899 0 N00509 N00509 CMOSP  
+ L=.5u  
+ W=5u         
R_DECODER_U6_R6         N00509 0  10Meg  
M_DECODER_U6_M12         DECODER_N00899 0 N00509 N00509 CMOSP  
+ L=.5u  
+ W=5u         
M_DECODER_U6_M7         DECODER_U6_N38778 0 DECODER_U6_N39060 0 CMOSN  
+ L=.5u  
+ W=.8u         
M_DECODER_U6_M5         DECODER_N00899 N00509 N00509 N00509 CMOSP  
+ L=.5u  
+ W=5u         
M_DECODER_U6_M1         DECODER_N00899 0 DECODER_U6_N38454 0 CMOSN  
+ L=.5u  
+ W=.8u         
M_DECODER_U6_M10         DECODER_U6_N39060 0 DECODER_U6_N43586 0 CMOSN  
+ L=.5u  
+ W=.8u         
V_V1         N00509 0 5
R_R1         N00692 N00509  100k  
R_R2         N00731 N00509  100k  

**** RESUMING bias.cir ****
.END

WARNING -- Mosfet M_DECODER_U7_M2, model CMOSN: Pd = 0 is less than W
WARNING -- Mosfet M_DECODER_U7_M2, model CMOSN: Ps = 0 is less than W
WARNING -- Mosfet M_DECODER_U7_M8, model CMOSP: Pd = 0 is less than W
WARNING -- Mosfet M_DECODER_U7_M8, model CMOSP: Ps = 0 is less than W
**** 10/26/09 19:24:40 ******* PSpice 10.5.0 (Jan 2005) ******* ID# 0 ********

 ** Profile: "SCHEMATIC1-bias"  [ D:\Documents\TESIS\TRUNK\Design\I-DECODER-001\OrCAD\I-DECODER-002\i-decoder-002-pspicefiles\schemat


 ****     MOSFET MODEL PARAMETERS


******************************************************************************




               CMOSN           CMOSP           
               NMOS            PMOS            
  T_Measured   27              27            
   T_Current   27              27            
       LEVEL    7               7            
           L  100.000000E-06  100.000000E-06 
           W  100.000000E-06  100.000000E-06 
         VTO     .299302        -.401632     
          KP  470.883200E-06  470.883200E-06 
       GAMMA    0               0            
      LAMBDA    0               0            
         RSH    6               6.4          
          IS    1.000000E-15    1.000000E-15 
          JS  100.000000E-06  100.000000E-06 
          PB     .980128         .821464     
        PBSW     .8              .8008       
          CJ  815.376400E-06    1.165977E-03 
        CJSW  166.520200E-12  122.005600E-12 
          MJ     .606194         .425655     
        MJSW     .169221         .1001       
        CGSO  500.000000E-12  500.000000E-12 
        CGDO  500.000000E-12  500.000000E-12 
        CGBO    1.000000E-12    1.000000E-12 
         TOX    4.400000E-09    4.400000E-09 
          XJ  100.000000E-09  100.000000E-09 
       UCRIT   10.000000E+03   10.000000E+03 
       DELTA     .01             .01         
      DIOMOD    2               2            
          K1     .542117         .598774     
          K2    -.035133     -630.087300E-09 
        LETA    0               0            
        WETA    0               0            
          U0  268.8192        120.6045       
       XPART     .5              .5          
        VTH0     .299302        -.401632     
          K3    1.000000E-03     .081248     
          W0  100.000000E-09    1.000000E-06 
         NLX  228.107500E-09   42.193340E-09 
        DVT0     .882304         .948505     
        DVT1     .324768         .682461     
          UA   -1.551592E-09    1.640708E-09 
          UB    2.710709E-18    1.272651E-21 
          UC   46.128640E-12 -100.000000E-12 
        VSAT  116.006100E+03  182.237700E+03 
        RDSW  150             726.9944       
        VOFF    -.091862        -.15         
     NFACTOR    1.807002         .921842     
        PCLM    2.027608         .151904     
      PDIBL1     .784214         .056431     
      PDIBL2    -.042689         .012341     
       DROUT    1                .470272     
      PSCBE1    2.314588E+09    4.022317E+09 
      PSCBE2  500.000000E-12    7.751373E-09 
          A0    1.525088         .904176     
          A1    6.962179E-03    8.069322E-03 
          A2     .524367         .560796     
       NPEAK  235.490000E+15  415.890000E+15 
         LDD    0               0            
        LITL   36.331810E-09   36.331810E-09 
         UC1  -56.000000E-12  -56.000000E-12 
        PVAG                     .124556     
        KETA    -.015366         .020751     
        ETA0    5.535422E-03    1.016564E-03 
        ETAB -671.692500E-06   -1.910199E-03 
         K3B    5.015682       19.7189       
        DVT2    -.056267        -.3          
        DSUB    3.692569E-03     .014544     
         AGS     .400988         .131884     
       DVT1W    0               0            
       DVT2W    0               0            
        PRWG     .340675        -.049475     
        PRWB    -.183865        -.420982     
     PDIBLCB    -.1            -1.000000E-03 
         DWG    5.852475E-09  -30.588980E-09 
         DWB   11.572970E-09  -11.142310E-09 
          B0  -44.157810E-09    1.909663E-06 
          B1                    5.000000E-06 
        LINT   20.701890E-09   26.472300E-09 
        WINT   12.149120E-09                 
         DLC   20.701890E-09   26.472300E-09 
         DWC   12.149120E-09    0            
          CF    0               0            
        NOIA  100.000000E+18    9.900001E+18 
        NOIB   50.000000E+03    2.400000E+03 
        NOIC   -1.400000E-12    1.400000E-12 
       LKETA   -1.853360E-03   -8.835292E-03 
       WKETA    3.404068E-03     .030613     
       PVSAT    1.045662E+03   50            
       PKETA    -.0116         -5.087778E-03 
       PVTH0   -3.570294E-03  633.898700E-06 
         PUA  -25.147800E-12  364.727200E-12 
         PUB   21.902820E-24                 
         PU0   -2.447231        7.159787     
       PRDSW   -1.670209       -5            
       PETA0 -100.000000E-06  100.000000E-06 
         PK2    3.193075E-03   31.405140E-06 
         VTM     .025864         .025864     
       PBSWG     .8              .8008       
       MJSWG     .169221         .1001       
       CJSWG  330.000000E-12  422.000000E-12 


WARNING -- Mosfet M_DECODER_U7_M2, model CMOSN: Pd = 0 is less than W
WARNING -- Mosfet M_DECODER_U7_M2, model CMOSN: Ps = 0 is less than W
WARNING -- Mosfet M_DECODER_U7_M8, model CMOSP: Pd = 0 is less than W
WARNING -- Mosfet M_DECODER_U7_M8, model CMOSP: Ps = 0 is less than W
**** 10/26/09 19:24:40 ******* PSpice 10.5.0 (Jan 2005) ******* ID# 0 ********

 ** Profile: "SCHEMATIC1-bias"  [ D:\Documents\TESIS\TRUNK\Design\I-DECODER-001\OrCAD\I-DECODER-002\i-decoder-002-pspicefiles\schemat


 ****     SMALL SIGNAL BIAS SOLUTION       TEMPERATURE =   27.000 DEG C


******************************************************************************



 NODE   VOLTAGE     NODE   VOLTAGE     NODE   VOLTAGE     NODE   VOLTAGE


(N00509)    5.0000 (N00692)     .2461 (N00731)     .4654                        

(DECODER_N00369)    4.9996            (DECODER_N00379)    4.9999                

(DECODER_N00778)    4.9996            (DECODER_N00817)    4.9999                

(DECODER_N00899)    4.9999            (DECODER_N00989)    4.9999                

(DECODER_U1_N23681) 212.0E-09         (DECODER_U2_N23681)     .1236             

(DECODER_U3_N33539)     .0948         (DECODER_U3_N33841)     .0340             

(DECODER_U3_N33879)     .0175         (DECODER_U3_N37381)     .0074             

(DECODER_U4_N38454) 1.272E-06         (DECODER_U4_N38740) 1.060E-06             

(DECODER_U4_N38778) 848.0E-09         (DECODER_U4_N39060) 636.0E-09             

(DECODER_U4_N43125) 212.0E-09         (DECODER_U4_N43586) 424.0E-09             

(DECODER_U5_N38454)     .0788         (DECODER_U5_N38740)     .0168             

(DECODER_U5_N38778) 47.40E-09         (DECODER_U5_N39060) 35.55E-09             

(DECODER_U5_N43125) 11.85E-09         (DECODER_U5_N43586) 23.70E-09             

(DECODER_U6_N38454)     .0948         (DECODER_U6_N38740)     .0340             

(DECODER_U6_N38778)     .0175         (DECODER_U6_N39060)     .0074             

(DECODER_U6_N43125) 6.018E-09         (DECODER_U6_N43586) 12.04E-09             

(DECODER_U7_N38454)     .1031         (DECODER_U7_N38740)     .0432             

(DECODER_U7_N38778)     .0271         (DECODER_U7_N39060)     .0173             

(DECODER_U7_N43125)     .0046         (DECODER_U7_N43586)     .0102             

(DECODER_U8_N28403)     .3505         (DECODER_U8_N28818)     .2346             

(DECODER_U8_N29978)     .1178         




    VOLTAGE SOURCE CURRENTS
    NAME         CURRENT

    V_V1        -1.024E-04

    TOTAL POWER DISSIPATION   5.12E-04  WATTS



          JOB CONCLUDED

**** 10/26/09 19:24:40 ******* PSpice 10.5.0 (Jan 2005) ******* ID# 0 ********

 ** Profile: "SCHEMATIC1-bias"  [ D:\Documents\TESIS\TRUNK\Design\I-DECODER-001\OrCAD\I-DECODER-002\i-decoder-002-pspicefiles\schemat


 ****     JOB STATISTICS SUMMARY


******************************************************************************



  Total job time (using Solver 1)   =         .09
