#H
SOURCE='PSPICE' VERSION='PSpice 16.0.0 (July 2006)'
TITLE='**** 05/18/10 12:08:24 ******* PSpice 16.0.0 (July 2006) ****** ID# 0 ********'
SUBTITLE=''
TIME='16:00:58' DATE='05/30/10' TEMPERATURE='2.700E01'
ANALYSIS='Transient Analysis' SERIALNO='61413'
ALLVALUES='NO' COMPLEXVALUES='NO' NODES='19'
SWEEPVAR='Time' SWEEPMODE='VAR_STEP'
XBEGIN='0.000E00' XEND='5.000E-08'
FORMAT='0 VOLTSorAMPS;EFLOAT : NODEorBRANCH;NODE  '
DGTLDATA='NO' 
#N 
'V(C_F_D_LSB)' 'V(C_F_D_2SB)' 'V(C_F_D_3SB)' 'V(C_F_D_4SB)' 'V(C_F_D_5SB)' 'V(C_F_D_MSB)' 'V(C_F_C5_NDNEG)' 'ID(M_C_F_C5_M4)' 
'IB(M_C_F_C5_M4)' 'IS(M_C_F_C5_M4)' 'IG(M_C_F_C5_M4)' 'ID(M_C_F_C5_M3)' 'IB(M_C_F_C5_M3)' 'IS(M_C_F_C5_M3)' 'IG(M_C_F_C5_M3)' 
'ID(M_C_F_C5_M1)' 'IB(M_C_F_C5_M1)' 'IS(M_C_F_C5_M1)' 'IG(M_C_F_C5_M1)' 
#C 0.0000000000E00 19
3.300E00:1 3.300E00:2 3.300E00:3 3.300E00:4 3.300E00:5 3.229E00:6 3.989E00:7 -2.948E-12:8 2.948E-12:9 2.819E-20:a 0.000E00:b 
3.764E-03:c -3.764E-03:d -1.001E-08:e 0.000E00:f 2.360E-04:10 -4.371E-12:11 -2.360E-04:12 0.000E00:13 
#C 1.0000000000E-11 19
3.300E00:1 3.300E00:2 3.300E00:3 3.300E00:4 3.300E00:5 3.229E00:6 3.989E00:7 -2.939E-12:8 3.622E-12:9 8.930E-15:a -6.918E-13:b 
3.764E-03:c -3.764E-03:d -1.001E-08:e -1.707E-13:f 2.360E-04:10 -4.399E-12:11 -2.360E-04:12 -1.705E-13:13 
#C 2.0000000000E-11 19
3.300E00:1 3.300E00:2 3.300E00:3 3.300E00:4 3.300E00:5 3.229E00:6 3.989E00:7 -2.939E-12:8 3.622E-12:9 8.930E-15:a -6.918E-13:b 
3.764E-03:c -3.764E-03:d -1.001E-08:e -1.707E-13:f 2.360E-04:10 -4.399E-12:11 -2.360E-04:12 -1.705E-13:13 
#C 4.0000152290E-11 19
3.300E00:1 3.300E00:2 3.300E00:3 3.300E00:4 3.300E00:5 3.229E00:6 3.989E00:7 -2.948E-12:8 2.948E-12:9 2.819E-20:a 0.000E00:b 
3.764E-03:c -3.764E-03:d -1.001E-08:e 0.000E00:f 2.360E-04:10 -4.371E-12:11 -2.360E-04:12 0.000E00:13 
#C 8.0000456870E-11 19
3.300E00:1 3.300E00:2 3.300E00:3 3.300E00:4 3.300E00:5 3.229E00:6 3.989E00:7 -2.948E-12:8 2.948E-12:9 2.819E-20:a 0.000E00:b 
3.764E-03:c -3.764E-03:d -1.001E-08:e 0.000E00:f 2.360E-04:10 -4.371E-12:11 -2.360E-04:12 0.000E00:13 
#C 1.6000106603E-10 19
3.300E00:1 3.300E00:2 3.300E00:3 3.300E00:4 3.300E00:5 3.229E00:6 3.989E00:7 -2.948E-12:8 2.948E-12:9 2.819E-20:a 0.000E00:b 
3.764E-03:c -3.764E-03:d -1.001E-08:e 0.000E00:f 2.360E-04:10 -4.371E-12:11 -2.360E-04:12 0.000E00:13 
#C 3.2000228435E-10 19
3.300E00:1 3.300E00:2 3.300E00:3 3.300E00:4 3.300E00:5 3.229E00:6 3.989E00:7 -2.948E-12:8 2.948E-12:9 2.819E-20:a 0.000E00:b 
3.764E-03:c -3.764E-03:d -1.001E-08:e 0.000E00:f 2.360E-04:10 -4.371E-12:11 -2.360E-04:12 0.000E00:13 
#C 6.4000472099E-10 19
3.300E00:1 3.300E00:2 3.300E00:3 3.300E00:4 3.300E00:5 3.229E00:6 3.989E00:7 -2.948E-12:8 2.948E-12:9 2.819E-20:a 0.000E00:b 
3.764E-03:c -3.764E-03:d -1.001E-08:e 0.000E00:f 2.360E-04:10 -4.371E-12:11 -2.360E-04:12 0.000E00:13 
#C 1.2800095943E-09 19
3.300E00:1 3.300E00:2 3.300E00:3 3.300E00:4 3.300E00:5 3.229E00:6 3.989E00:7 -2.948E-12:8 2.948E-12:9 2.819E-20:a 0.000E00:b 
3.764E-03:c -3.764E-03:d -1.001E-08:e 0.000E00:f 2.360E-04:10 -4.371E-12:11 -2.360E-04:12 0.000E00:13 
#C 2.0000000001E-09 19
3.300E00:1 3.300E00:2 3.300E00:3 3.300E00:4 3.300E00:5 3.229E00:6 3.989E00:7 -2.948E-12:8 2.948E-12:9 2.819E-20:a 0.000E00:b 
3.764E-03:c -3.764E-03:d -1.001E-08:e 0.000E00:f 2.360E-04:10 -4.371E-12:11 -2.360E-04:12 0.000E00:13 
#C 2.0200000001E-09 19
3.300E00:1 3.300E00:2 3.300E00:3 3.300E00:4 3.300E00:5 3.229E00:6 3.986E00:7 1.530E-05:8 1.155E-03:9 1.536E-05:a -1.186E-03:b 
3.337E-03:c -3.054E-03:d 1.545E-05:e -2.978E-04:f 2.178E-04:10 3.412E-06:11 -2.340E-04:12 1.288E-05:13 
#C 2.0600003047E-09 19
3.300E00:1 3.300E00:2 3.300E00:3 3.300E00:4 3.300E00:5 3.229E00:6 3.978E00:7 2.141E-05:8 1.603E-03:9 2.146E-05:a -1.646E-03:b 
2.395E-03:c -2.005E-03:d 2.126E-05:e -4.120E-04:f 2.177E-04:10 3.412E-06:11 -2.340E-04:12 1.288E-05:13 
#C 2.1400009138E-09 19
3.300E00:1 3.300E00:2 3.300E00:3 3.300E00:4 3.300E00:5 3.229E00:6 3.963E00:7 1.603E-05:8 1.156E-03:9 1.597E-05:a -1.188E-03:b 
1.344E-03:c -1.046E-03:d 1.581E-05:e -3.145E-04:f 2.007E-04:10 6.752E-06:11 -2.341E-04:12 2.673E-05:13 
#C 2.2000000001E-09 19
3.300E00:1 3.300E00:2 3.300E00:3 3.300E00:4 3.300E00:5 3.229E00:6 3.954E00:7 1.257E-05:8 9.220E-04:9 1.259E-05:a -9.472E-04:b 
9.653E-04:c -7.302E-04:d 1.255E-05:e -2.476E-04:f 2.400E-04:10 -1.178E-06:11 -2.312E-04:12 -7.633E-06:13 
#C 2.2160001219E-09 19
3.300E00:1 3.300E00:2 3.300E00:3 3.300E00:4 3.300E00:5 3.229E00:6 3.952E00:7 1.430E-05:8 1.033E-03:9 1.428E-05:a -1.061E-03:b 
9.037E-04:c -7.035E-04:d 1.058E-05:e -2.108E-04:f 2.203E-04:10 2.787E-06:11 -2.326E-04:12 9.549E-06:13 
#C 2.2480026939E-09 19
3.300E00:1 3.300E00:2 3.300E00:3 3.300E00:4 3.300E00:5 3.229E00:6 3.950E00:7 6.812E-06:8 4.908E-04:9 6.803E-06:a -5.044E-04:b 
8.123E-04:c -6.500E-04:d 8.553E-06:e -1.708E-04:f 2.203E-04:10 2.787E-06:11 -2.326E-04:12 9.549E-06:13 
#C 2.3120078378E-09 19
3.300E00:1 3.300E00:2 3.300E00:3 3.300E00:4 3.300E00:5 3.229E00:6 3.947E00:7 2.171E-06:8 1.549E-04:9 2.165E-06:a -1.593E-04:b 
7.355E-04:c -7.171E-04:d 9.424E-07:e -1.932E-05:f 2.505E-04:10 -3.096E-06:11 -2.330E-04:12 -1.442E-05:13 
#C 2.4400181257E-09 19
3.300E00:1 3.300E00:2 3.300E00:3 3.300E00:4 3.300E00:5 3.229E00:6 3.949E00:7 -5.458E-06:8 -3.940E-04:9 -5.477E-06:a 4.050E-04:b 
7.935E-04:c -8.925E-04:d -5.213E-06:e 1.042E-04:f 2.383E-04:10 -7.428E-07:11 -2.328E-04:12 -4.833E-06:13 
#C 2.6960387015E-09 19
3.300E00:1 3.300E00:2 3.300E00:3 3.300E00:4 3.300E00:5 3.229E00:6 3.966E00:7 -7.658E-06:8 -5.606E-04:9 -7.655E-06:a 5.759E-04:b 
1.531E-03:c -1.680E-03:d -7.992E-06:e 1.574E-04:f 2.561E-04:10 -3.895E-06:11 -2.369E-04:12 -1.535E-05:13 
#C 3.2080798530E-09 19
3.300E00:1 3.300E00:2 3.300E00:3 3.300E00:4 3.300E00:5 3.229E00:6 3.986E00:7 -1.251E-08:8 -7.614E-06:9 -2.592E-09:a 7.629E-06:b 
3.251E-03:c -3.241E-03:d 4.187E-07:e -1.016E-05:f 2.243E-04:10 2.323E-06:11 -2.367E-04:12 1.006E-05:13 
#C 3.8673631036E-09 19
3.300E00:1 3.300E00:2 3.300E00:3 3.300E00:4 3.300E00:5 3.229E00:6 3.988E00:7 -6.326E-07:8 -4.102E-05:9 -6.448E-07:a 4.230E-05:b 
3.547E-03:c -3.569E-03:d -1.118E-06:e 2.328E-05:f 2.464E-04:10 -2.019E-06:11 -2.362E-04:12 -8.138E-06:13 
#C 4.8674172842E-09 19
3.300E00:1 3.300E00:2 3.300E00:3 3.300E00:4 3.300E00:5 3.229E00:6 3.989E00:7 -3.982E-08:8 -2.904E-06:9 -3.817E-08:a 2.982E-06:b 
3.742E-03:c -3.743E-03:d -2.527E-08:e 2.872E-07:f 2.355E-04:10 1.518E-07:11 -2.366E-04:12 9.636E-07:13 
#C 5.8674714648E-09 19
3.300E00:1 3.300E00:2 3.300E00:3 3.300E00:4 3.300E00:5 3.229E00:6 3.989E00:7 5.412E-08:8 4.092E-06:9 5.437E-08:a -4.201E-06:b 
3.771E-03:c -3.770E-03:d 2.983E-08:e -7.674E-07:f 2.355E-04:10 1.518E-07:11 -2.366E-04:12 9.636E-07:13 
#C 6.8675256454E-09 19
3.300E00:1 3.300E00:2 3.300E00:3 3.300E00:4 3.300E00:5 3.229E00:6 3.989E00:7 5.412E-08:8 4.092E-06:9 5.437E-08:a -4.201E-06:b 
3.768E-03:c -3.768E-03:d -4.579E-08:e 6.893E-07:f 2.355E-04:10 1.518E-07:11 -2.366E-04:12 9.636E-07:13 
#C 7.8675798261E-09 19
3.300E00:1 3.300E00:2 3.300E00:3 3.300E00:4 3.300E00:5 3.229E00:6 3.989E00:7 -2.948E-12:8 2.948E-12:9 -2.429E-19:a 0.000E00:b 
3.765E-03:c -3.765E-03:d -7.979E-09:e -3.904E-08:f 2.361E-04:10 -4.371E-12:11 -2.361E-04:12 -1.735E-18:13 
#C 8.8676340067E-09 19
3.300E00:1 3.300E00:2 3.300E00:3 3.300E00:4 3.300E00:5 3.229E00:6 3.989E00:7 -2.948E-12:8 2.948E-12:9 2.721E-19:a -4.337E-19:b 
3.762E-03:c -3.762E-03:d -7.978E-09:e -3.904E-08:f 2.361E-04:10 -4.371E-12:11 -2.361E-04:12 1.735E-18:13 
#C 9.8676881873E-09 19
3.300E00:1 3.300E00:2 3.300E00:3 3.300E00:4 3.300E00:5 3.229E00:6 3.989E00:7 -2.948E-12:8 2.948E-12:9 2.721E-19:a -4.337E-19:b 
3.762E-03:c -3.762E-03:d -7.978E-09:e -3.904E-08:f 2.361E-04:10 -4.371E-12:11 -2.361E-04:12 1.735E-18:13 
#C 1.0867742368E-08 19
3.300E00:1 3.300E00:2 3.300E00:3 3.300E00:4 3.300E00:5 3.229E00:6 3.989E00:7 -2.948E-12:8 2.948E-12:9 2.721E-19:a -4.337E-19:b 
3.762E-03:c -3.762E-03:d -7.978E-09:e -3.904E-08:f 2.361E-04:10 -4.371E-12:11 -2.361E-04:12 1.735E-18:13 
#C 1.1867796549E-08 19
3.300E00:1 3.300E00:2 3.300E00:3 3.300E00:4 3.300E00:5 3.229E00:6 3.989E00:7 -2.948E-12:8 2.948E-12:9 2.721E-19:a -4.337E-19:b 
3.762E-03:c -3.762E-03:d -7.978E-09:e -3.904E-08:f 2.361E-04:10 -4.371E-12:11 -2.361E-04:12 1.735E-18:13 
#C 1.2867850729E-08 19
3.300E00:1 3.300E00:2 3.300E00:3 3.300E00:4 3.300E00:5 3.229E00:6 3.989E00:7 -2.948E-12:8 2.948E-12:9 2.721E-19:a -4.337E-19:b 
3.762E-03:c -3.762E-03:d -7.978E-09:e -3.904E-08:f 2.361E-04:10 -4.371E-12:11 -2.361E-04:12 1.735E-18:13 
#C 1.3867904910E-08 19
3.300E00:1 3.300E00:2 3.300E00:3 3.300E00:4 3.300E00:5 3.229E00:6 3.989E00:7 -2.948E-12:8 2.948E-12:9 2.721E-19:a -4.337E-19:b 
3.762E-03:c -3.762E-03:d -7.978E-09:e -3.904E-08:f 2.361E-04:10 -4.371E-12:11 -2.361E-04:12 1.735E-18:13 
#C 1.4867959090E-08 19
3.300E00:1 3.300E00:2 3.300E00:3 3.300E00:4 3.300E00:5 3.229E00:6 3.989E00:7 -2.948E-12:8 2.948E-12:9 2.721E-19:a -4.337E-19:b 
3.762E-03:c -3.762E-03:d -7.978E-09:e -3.904E-08:f 2.361E-04:10 -4.371E-12:11 -2.361E-04:12 1.735E-18:13 
#C 1.5000000000E-08 19
3.300E00:1 3.300E00:2 3.300E00:3 3.300E00:4 3.300E00:5 3.229E00:6 3.989E00:7 -2.948E-12:8 2.948E-12:9 -7.172E-19:a -1.193E-18:b 
3.762E-03:c -3.762E-03:d -1.001E-08:e -4.228E-18:f 2.361E-04:10 -4.371E-12:11 -2.361E-04:12 2.689E-17:13 
#C 1.5100000000E-08 19
3.300E00:1 3.300E00:2 3.300E00:3 3.300E00:4 3.300E00:5 3.229E00:6 3.989E00:7 -2.948E-12:8 2.948E-12:9 2.815E-20:a 0.000E00:b 
3.762E-03:c -3.762E-03:d -1.001E-08:e 0.000E00:f 2.361E-04:10 -4.371E-12:11 -2.361E-04:12 0.000E00:13 
#C 1.5264471567E-08 19
3.300E00:1 3.300E00:2 3.300E00:3 3.300E00:4 3.300E00:5 3.229E00:6 3.989E00:7 -2.948E-12:8 2.948E-12:9 2.815E-20:a 0.000E00:b 
3.762E-03:c -3.762E-03:d -1.001E-08:e 0.000E00:f 2.361E-04:10 -4.371E-12:11 -2.361E-04:12 0.000E00:13 
#C 1.5305589458E-08 19
3.300E00:1 3.300E00:2 3.300E00:3 3.300E00:4 3.300E00:5 3.229E00:6 3.989E00:7 -2.948E-12:8 2.948E-12:9 2.815E-20:a 0.000E00:b 
3.767E-03:c -3.770E-03:d -1.757E-07:e 3.188E-06:f 2.361E-04:10 -4.371E-12:11 -2.361E-04:12 0.000E00:13 
#C 1.5387825242E-08 19
3.300E00:1 3.300E00:2 3.300E00:3 3.300E00:4 3.300E00:5 3.229E00:6 3.989E00:7 -2.948E-12:8 2.948E-12:9 1.763E-18:a -6.939E-18:b 
3.767E-03:c -3.766E-03:d 4.015E-08:e -9.648E-07:f 2.361E-04:10 -4.371E-12:11 -2.361E-04:12 5.551E-17:13 
#C 1.5408384188E-08 19
3.300E00:1 3.300E00:2 3.300E00:3 3.300E00:4 3.300E00:5 3.229E00:6 3.989E00:7 -2.948E-12:8 2.948E-12:9 2.323E-17:a -3.469E-17:b 
3.767E-03:c -3.767E-03:d -1.306E-08:e 5.869E-08:f 2.361E-04:10 -4.371E-12:11 -2.361E-04:12 1.249E-16:13 
#C 1.5449502079E-08 19
3.300E00:1 3.300E00:2 3.300E00:3 3.300E00:4 3.300E00:5 3.229E00:6 3.989E00:7 -2.948E-12:8 2.948E-12:9 -8.645E-18:a -1.388E-17:b 
3.767E-03:c -3.767E-03:d -1.306E-08:e 5.869E-08:f 2.361E-04:10 -4.371E-12:11 -2.361E-04:12 2.220E-16:13 
#C 1.5531737863E-08 19
3.300E00:1 3.300E00:2 3.300E00:3 3.300E00:4 3.300E00:5 3.229E00:6 3.989E00:7 -2.948E-12:8 2.948E-12:9 -5.176E-18:a 0.000E00:b 
3.768E-03:c -3.768E-03:d -1.306E-08:e 5.869E-08:f 2.361E-04:10 -4.371E-12:11 -2.361E-04:12 1.110E-16:13 
#C 1.5552296808E-08 19
3.300E00:1 3.300E00:2 3.300E00:3 3.300E00:4 3.300E00:5 3.229E00:6 3.989E00:7 -2.948E-12:8 2.948E-12:9 2.323E-17:a -3.469E-17:b 
3.768E-03:c -3.768E-03:d -1.306E-08:e 5.869E-08:f 2.361E-04:10 -4.371E-12:11 -2.361E-04:12 1.249E-16:13 
#C 1.5593414700E-08 19
3.300E00:1 3.300E00:2 3.300E00:3 3.300E00:4 3.300E00:5 3.229E00:6 3.989E00:7 -2.948E-12:8 2.948E-12:9 -2.317E-17:a 3.469E-17:b 
3.768E-03:c -3.768E-03:d -1.306E-08:e 5.869E-08:f 2.361E-04:10 -4.371E-12:11 -2.361E-04:12 -1.249E-16:13 
#C 1.5675650483E-08 19
3.300E00:1 3.300E00:2 3.300E00:3 3.300E00:4 3.300E00:5 3.229E00:6 3.989E00:7 -2.948E-12:8 2.948E-12:9 -5.176E-18:a 0.000E00:b 
3.768E-03:c -3.768E-03:d -1.306E-08:e 5.869E-08:f 2.361E-04:10 -4.371E-12:11 -2.361E-04:12 1.110E-16:13 
#C 1.5751460141E-08 19
3.300E00:1 3.300E00:2 3.300E00:3 3.300E00:4 3.300E00:5 3.229E00:6 3.989E00:7 -2.948E-12:8 2.948E-12:9 -8.392E-19:a 1.735E-18:b 
3.769E-03:c -3.769E-03:d -1.306E-08:e 5.869E-08:f 2.361E-04:10 -4.371E-12:11 -2.361E-04:12 -1.388E-17:13 
#C 1.5903079456E-08 19
3.300E00:1 3.300E00:2 3.300E00:3 3.300E00:4 3.300E00:5 3.229E00:6 3.989E00:7 -2.948E-12:8 2.948E-12:9 -3.441E-18:a 0.000E00:b 
3.769E-03:c -3.769E-03:d -1.306E-08:e 5.869E-08:f 2.361E-04:10 -4.371E-12:11 -2.361E-04:12 2.776E-17:13 
#C 1.6000000000E-08 19
3.300E00:1 3.300E00:2 3.300E00:3 3.300E00:4 3.300E00:5 3.229E00:6 3.989E00:7 -2.948E-12:8 2.948E-12:9 2.739E-18:a -8.674E-19:b 
3.770E-03:c -3.770E-03:d -1.306E-08:e 5.869E-08:f 2.361E-04:10 -4.371E-12:11 -2.361E-04:12 -2.776E-17:13 
#C 1.6023113098E-08 19
3.300E00:1 3.300E00:2 3.300E00:3 3.300E00:4 3.300E00:5 3.229E00:6 3.989E00:7 -2.948E-12:8 2.948E-12:9 2.815E-20:a 0.000E00:b 
3.770E-03:c -3.770E-03:d -1.306E-08:e 5.869E-08:f 2.361E-04:10 -4.371E-12:11 -2.361E-04:12 0.000E00:13 
#C 1.6069341622E-08 19
3.300E00:1 3.300E00:2 3.300E00:3 3.300E00:4 3.300E00:5 3.229E00:6 3.989E00:7 -2.948E-12:8 2.948E-12:9 2.815E-20:a 0.000E00:b 
3.770E-03:c -3.770E-03:d -1.306E-08:e 5.869E-08:f 2.361E-04:10 -4.371E-12:11 -2.361E-04:12 0.000E00:13 
#C 1.6161798671E-08 19
3.300E00:1 3.300E00:2 3.300E00:3 3.300E00:4 3.300E00:5 3.229E00:6 3.989E00:7 -2.948E-12:8 2.948E-12:9 -1.211E-17:a 6.939E-18:b 
3.770E-03:c -3.770E-03:d -1.306E-08:e 5.869E-08:f 2.361E-04:10 -4.371E-12:11 -2.361E-04:12 5.551E-17:13 
#C 1.6346712768E-08 19
3.300E00:1 3.300E00:2 3.300E00:3 3.300E00:4 3.300E00:5 3.229E00:6 3.989E00:7 -2.948E-12:8 2.948E-12:9 -7.344E-18:a 6.939E-18:b 
3.766E-03:c -3.765E-03:d 1.961E-08:e -5.697E-07:f 2.361E-04:10 -4.371E-12:11 -2.361E-04:12 0.000E00:13 
#C 1.6716540963E-08 19
3.300E00:1 3.300E00:2 3.300E00:3 3.300E00:4 3.300E00:5 3.229E00:6 3.989E00:7 -2.948E-12:8 2.948E-12:9 1.763E-18:a -1.735E-18:b 
3.765E-03:c -3.765E-03:d -1.756E-08:e 1.453E-07:f 2.361E-04:10 -4.371E-12:11 -2.361E-04:12 -6.939E-18:13 
#C 1.7456197351E-08 19
3.300E00:1 3.300E00:2 3.300E00:3 3.300E00:4 3.300E00:5 3.229E00:6 3.989E00:7 -2.948E-12:8 2.948E-12:9 1.763E-18:a -8.674E-19:b 
3.763E-03:c -3.762E-03:d -7.920E-09:e -4.016E-08:f 2.361E-04:10 -4.371E-12:11 -2.361E-04:12 3.469E-18:13 
#C 1.8456251532E-08 19
3.300E00:1 3.300E00:2 3.300E00:3 3.300E00:4 3.300E00:5 3.229E00:6 3.989E00:7 -2.948E-12:8 2.948E-12:9 4.076E-19:a 4.337E-19:b 
3.764E-03:c -3.764E-03:d -1.310E-08:e 5.939E-08:f 2.361E-04:10 -4.371E-12:11 -2.361E-04:12 -3.469E-18:13 
#C 1.9000000000E-08 19
3.300E00:1 3.300E00:2 3.300E00:3 3.300E00:4 3.300E00:5 3.229E00:6 3.989E00:7 -2.948E-12:8 2.948E-12:9 8.236E-20:a -1.626E-18:b 
3.765E-03:c -3.765E-03:d -1.121E-08:e 2.305E-08:f 2.361E-04:10 -4.371E-12:11 -2.361E-04:12 6.072E-18:13 
#C 1.9100000000E-08 19
3.300E00:1 3.300E00:2 3.300E00:3 3.300E00:4 3.300E00:5 3.229E00:6 3.989E00:7 -2.948E-12:8 2.948E-12:9 2.815E-20:a 0.000E00:b 
3.765E-03:c -3.765E-03:d -1.121E-08:e 2.305E-08:f 2.361E-04:10 -4.371E-12:11 -2.361E-04:12 0.000E00:13 
#C 1.9300001523E-08 19
3.300E00:1 3.300E00:2 3.300E00:3 3.300E00:4 3.300E00:5 3.229E00:6 3.989E00:7 -2.948E-12:8 2.948E-12:9 2.815E-20:a 0.000E00:b 
3.766E-03:c -3.766E-03:d -1.121E-08:e 2.305E-08:f 2.361E-04:10 -4.371E-12:11 -2.361E-04:12 0.000E00:13 
#C 1.9700004569E-08 19
3.300E00:1 3.300E00:2 3.300E00:3 3.300E00:4 3.300E00:5 3.229E00:6 3.989E00:7 -2.948E-12:8 2.948E-12:9 -1.490E-18:a 0.000E00:b 
3.766E-03:c -3.766E-03:d -1.121E-08:e 2.305E-08:f 2.361E-04:10 -4.371E-12:11 -2.361E-04:12 1.388E-17:13 
#C 2.0000000000E-08 19
3.300E00:1 3.300E00:2 3.300E00:3 3.300E00:4 3.300E00:5 3.229E00:6 3.989E00:7 -2.948E-12:8 2.948E-12:9 -2.032E-18:a 4.337E-19:b 
3.767E-03:c -3.767E-03:d -1.121E-08:e 2.305E-08:f 2.361E-04:10 -4.371E-12:11 -2.361E-04:12 0.000E00:13 
#C 2.0065024942E-08 19
3.300E00:1 3.300E00:2 3.300E00:3 3.300E00:4 3.300E00:5 3.229E00:6 3.989E00:7 -2.948E-12:8 2.948E-12:9 2.815E-20:a 0.000E00:b 
3.767E-03:c -3.767E-03:d -1.121E-08:e 2.305E-08:f 2.361E-04:10 -4.371E-12:11 -2.361E-04:12 0.000E00:13 
#C 2.0195084140E-08 19
3.300E00:1 3.300E00:2 3.300E00:3 3.300E00:4 3.300E00:5 3.229E00:6 3.989E00:7 -2.948E-12:8 2.948E-12:9 2.815E-20:a 0.000E00:b 
3.767E-03:c -3.767E-03:d -1.121E-08:e 2.305E-08:f 2.361E-04:10 -4.371E-12:11 -2.361E-04:12 0.000E00:13 
#C 2.0455202535E-08 19
3.300E00:1 3.300E00:2 3.300E00:3 3.300E00:4 3.300E00:5 3.229E00:6 3.989E00:7 -2.948E-12:8 2.948E-12:9 -3.441E-18:a 1.735E-18:b 
3.768E-03:c -3.768E-03:d -1.121E-08:e 2.305E-08:f 2.361E-04:10 -4.371E-12:11 -2.361E-04:12 -2.776E-17:13 
#C 2.0975439325E-08 19
3.300E00:1 3.300E00:2 3.300E00:3 3.300E00:4 3.300E00:5 3.229E00:6 3.989E00:7 -2.948E-12:8 2.948E-12:9 -1.707E-18:a 8.674E-19:b 
3.765E-03:c -3.765E-03:d -2.642E-09:e -1.417E-07:f 2.361E-04:10 -4.371E-12:11 -2.361E-04:12 -1.388E-17:13 
#C 2.1975493506E-08 19
3.300E00:1 3.300E00:2 3.300E00:3 3.300E00:4 3.300E00:5 3.229E00:6 3.989E00:7 -2.948E-12:8 2.948E-12:9 -5.682E-19:a 1.735E-18:b 
3.764E-03:c -3.764E-03:d -1.207E-08:e 3.964E-08:f 2.361E-04:10 -4.371E-12:11 -2.361E-04:12 -6.939E-18:13 
#C 2.2975547686E-08 19
3.300E00:1 3.300E00:2 3.300E00:3 3.300E00:4 3.300E00:5 3.229E00:6 3.989E00:7 -2.948E-12:8 2.948E-12:9 -5.682E-19:a 1.735E-18:b 
3.764E-03:c -3.764E-03:d -1.207E-08:e 3.964E-08:f 2.361E-04:10 -4.371E-12:11 -2.361E-04:12 -6.939E-18:13 
#C 2.3975601867E-08 19
3.300E00:1 3.300E00:2 3.300E00:3 3.300E00:4 3.300E00:5 3.229E00:6 3.989E00:7 -2.948E-12:8 2.948E-12:9 -5.682E-19:a 1.735E-18:b 
3.764E-03:c -3.764E-03:d -1.207E-08:e 3.964E-08:f 2.361E-04:10 -4.371E-12:11 -2.361E-04:12 -6.939E-18:13 
#C 2.4975656048E-08 19
3.300E00:1 3.300E00:2 3.300E00:3 3.300E00:4 3.300E00:5 3.229E00:6 3.989E00:7 -2.948E-12:8 2.948E-12:9 -5.682E-19:a 1.735E-18:b 
3.764E-03:c -3.764E-03:d -1.207E-08:e 3.964E-08:f 2.361E-04:10 -4.371E-12:11 -2.361E-04:12 -6.939E-18:13 
#C 2.5975710228E-08 19
3.300E00:1 3.300E00:2 3.300E00:3 3.300E00:4 3.300E00:5 3.229E00:6 3.989E00:7 -2.948E-12:8 2.948E-12:9 -5.682E-19:a 1.735E-18:b 
3.764E-03:c -3.764E-03:d -1.207E-08:e 3.964E-08:f 2.361E-04:10 -4.371E-12:11 -2.361E-04:12 -6.939E-18:13 
#C 2.6975764409E-08 19
3.300E00:1 3.300E00:2 3.300E00:3 3.300E00:4 3.300E00:5 3.229E00:6 3.989E00:7 -2.948E-12:8 2.948E-12:9 -5.682E-19:a 1.735E-18:b 
3.764E-03:c -3.764E-03:d -1.207E-08:e 3.964E-08:f 2.361E-04:10 -4.371E-12:11 -2.361E-04:12 -6.939E-18:13 
#C 2.7975818589E-08 19
3.300E00:1 3.300E00:2 3.300E00:3 3.300E00:4 3.300E00:5 3.229E00:6 3.989E00:7 -2.948E-12:8 2.948E-12:9 -5.682E-19:a 1.735E-18:b 
3.764E-03:c -3.764E-03:d -1.207E-08:e 3.964E-08:f 2.361E-04:10 -4.371E-12:11 -2.361E-04:12 -6.939E-18:13 
#C 2.8975872770E-08 19
3.300E00:1 3.300E00:2 3.300E00:3 3.300E00:4 3.300E00:5 3.229E00:6 3.989E00:7 -2.948E-12:8 2.948E-12:9 -5.682E-19:a 1.735E-18:b 
3.764E-03:c -3.764E-03:d -1.207E-08:e 3.964E-08:f 2.361E-04:10 -4.371E-12:11 -2.361E-04:12 -6.939E-18:13 
#C 2.9975926951E-08 19
3.300E00:1 3.300E00:2 3.300E00:3 3.300E00:4 3.300E00:5 3.229E00:6 3.989E00:7 -2.948E-12:8 2.948E-12:9 -5.682E-19:a 1.735E-18:b 
3.764E-03:c -3.764E-03:d -1.207E-08:e 3.964E-08:f 2.361E-04:10 -4.371E-12:11 -2.361E-04:12 -6.939E-18:13 
#C 3.0975981131E-08 19
3.300E00:1 3.300E00:2 3.300E00:3 3.300E00:4 3.300E00:5 3.229E00:6 3.989E00:7 -2.948E-12:8 2.948E-12:9 -5.682E-19:a 1.735E-18:b 
3.764E-03:c -3.764E-03:d -1.207E-08:e 3.964E-08:f 2.361E-04:10 -4.371E-12:11 -2.361E-04:12 -6.939E-18:13 
#C 3.1976035312E-08 19
3.300E00:1 3.300E00:2 3.300E00:3 3.300E00:4 3.300E00:5 3.229E00:6 3.989E00:7 -2.948E-12:8 2.948E-12:9 -5.682E-19:a 1.735E-18:b 
3.764E-03:c -3.764E-03:d -1.207E-08:e 3.964E-08:f 2.361E-04:10 -4.371E-12:11 -2.361E-04:12 -6.939E-18:13 
#C 3.2976089493E-08 19
3.300E00:1 3.300E00:2 3.300E00:3 3.300E00:4 3.300E00:5 3.229E00:6 3.989E00:7 -2.948E-12:8 2.948E-12:9 -5.682E-19:a 1.735E-18:b 
3.764E-03:c -3.764E-03:d -1.207E-08:e 3.964E-08:f 2.361E-04:10 -4.371E-12:11 -2.361E-04:12 -6.939E-18:13 
#C 3.3976143673E-08 19
