#H
SOURCE='PSPICE' VERSION='PSpice 16.0.0 (July 2006)'
TITLE='**** 05/18/10 12:08:24 ******* PSpice 16.0.0 (July 2006) ****** ID# 0 ********'
SUBTITLE=''
TIME='16:03:29' DATE='05/30/10' TEMPERATURE='2.700E01'
ANALYSIS='Transient Analysis' SERIALNO='61413'
ALLVALUES='NO' COMPLEXVALUES='NO' NODES='19'
SWEEPVAR='Time' SWEEPMODE='VAR_STEP'
XBEGIN='0.000E00' XEND='5.000E-08'
FORMAT='0 VOLTSorAMPS;EFLOAT : NODEorBRANCH;NODE  '
DGTLDATA='NO' 
#N 
'V(C_F_D_LSB)' 'V(C_F_D_2SB)' 'V(C_F_D_3SB)' 'V(C_F_D_4SB)' 'V(C_F_D_5SB)' 'V(C_F_D_MSB)' 'V(C_F_C63_NDPOS)' 'ID(M_C_F_C63_M2)' 
'IB(M_C_F_C63_M2)' 'IS(M_C_F_C63_M2)' 'IG(M_C_F_C63_M2)' 'ID(M_C_F_C63_M4)' 'IB(M_C_F_C63_M4)' 'IS(M_C_F_C63_M4)' 'IG(M_C_F_C63_M4)' 
'ID(M_C_F_C63_M12)' 'IB(M_C_F_C63_M12)' 'IS(M_C_F_C63_M12)' 'IG(M_C_F_C63_M12)' 
#C 0.0000000000E00 19
3.300E00:1 3.300E00:2 3.300E00:3 3.300E00:4 3.300E00:5 3.229E00:6 3.988E00:7 2.806E-04:8 -4.891E-12:9 -2.806E-04:a 0.000E00:b 
3.719E-03:c -3.584E-03:d -1.356E-04:e 0.000E00:f -3.310E-12:10 3.310E-12:11 1.653E-19:12 0.000E00:13 
#C 1.0000000000E-11 19
3.300E00:1 3.300E00:2 3.300E00:3 3.300E00:4 3.300E00:5 3.229E00:6 3.988E00:7 2.806E-04:8 -4.870E-12:9 -2.806E-04:a 2.220E-16:b 
3.719E-03:c -3.584E-03:d -1.356E-04:e -1.998E-15:f -3.310E-12:10 3.297E-12:11 -3.051E-16:12 1.332E-14:13 
#C 2.0000000000E-11 19
3.300E00:1 3.300E00:2 3.300E00:3 3.300E00:4 3.300E00:5 3.229E00:6 3.988E00:7 2.806E-04:8 -4.870E-12:9 -2.806E-04:a 2.220E-16:b 
3.719E-03:c -3.584E-03:d -1.356E-04:e -1.998E-15:f -3.310E-12:10 3.297E-12:11 -3.051E-16:12 1.332E-14:13 
#C 4.0000152290E-11 19
3.300E00:1 3.300E00:2 3.300E00:3 3.300E00:4 3.300E00:5 3.229E00:6 3.988E00:7 2.806E-04:8 -4.891E-12:9 -2.806E-04:a 0.000E00:b 
3.719E-03:c -3.584E-03:d -1.356E-04:e 0.000E00:f -3.310E-12:10 3.310E-12:11 1.653E-19:12 0.000E00:13 
#C 8.0000456870E-11 19
3.300E00:1 3.300E00:2 3.300E00:3 3.300E00:4 3.300E00:5 3.229E00:6 3.988E00:7 2.806E-04:8 -4.891E-12:9 -2.806E-04:a 0.000E00:b 
3.719E-03:c -3.584E-03:d -1.356E-04:e 0.000E00:f -3.310E-12:10 3.310E-12:11 1.653E-19:12 0.000E00:13 
#C 1.6000106603E-10 19
3.300E00:1 3.300E00:2 3.300E00:3 3.300E00:4 3.300E00:5 3.229E00:6 3.988E00:7 2.806E-04:8 -4.891E-12:9 -2.806E-04:a 0.000E00:b 
3.719E-03:c -3.584E-03:d -1.356E-04:e 0.000E00:f -3.310E-12:10 3.310E-12:11 1.653E-19:12 0.000E00:13 
#C 3.2000228435E-10 19
3.300E00:1 3.300E00:2 3.300E00:3 3.300E00:4 3.300E00:5 3.229E00:6 3.988E00:7 2.806E-04:8 -4.891E-12:9 -2.806E-04:a 0.000E00:b 
3.719E-03:c -3.584E-03:d -1.356E-04:e 0.000E00:f -3.310E-12:10 3.310E-12:11 1.653E-19:12 0.000E00:13 
#C 6.4000472099E-10 19
3.300E00:1 3.300E00:2 3.300E00:3 3.300E00:4 3.300E00:5 3.229E00:6 3.988E00:7 2.806E-04:8 -4.891E-12:9 -2.806E-04:a 0.000E00:b 
3.719E-03:c -3.584E-03:d -1.356E-04:e 0.000E00:f -3.310E-12:10 3.310E-12:11 1.653E-19:12 0.000E00:13 
#C 1.2800095943E-09 19
3.300E00:1 3.300E00:2 3.300E00:3 3.300E00:4 3.300E00:5 3.229E00:6 3.988E00:7 2.806E-04:8 -4.891E-12:9 -2.806E-04:a 0.000E00:b 
3.719E-03:c -3.584E-03:d -1.356E-04:e 0.000E00:f -3.310E-12:10 3.310E-12:11 1.653E-19:12 0.000E00:13 
#C 2.0000000001E-09 19
3.300E00:1 3.300E00:2 3.300E00:3 3.300E00:4 3.300E00:5 3.229E00:6 3.988E00:7 2.806E-04:8 -4.891E-12:9 -2.806E-04:a 0.000E00:b 
3.719E-03:c -3.584E-03:d -1.356E-04:e 0.000E00:f -3.310E-12:10 3.310E-12:11 1.653E-19:12 0.000E00:13 
#C 2.0200000001E-09 19
3.300E00:1 3.300E00:2 3.300E00:3 3.300E00:4 3.300E00:5 3.229E00:6 3.987E00:7 2.806E-04:8 -4.891E-12:9 -2.806E-04:a 0.000E00:b 
3.514E-03:c -3.421E-03:d -2.267E-04:e 1.336E-04:f 2.122E-05:10 1.690E-03:11 2.247E-05:12 -1.734E-03:13 
#C 2.0600003047E-09 19
3.300E00:1 3.300E00:2 3.300E00:3 3.300E00:4 3.300E00:5 3.229E00:6 3.985E00:7 2.700E-04:8 1.024E-05:9 -2.802E-04:a 2.802E-08:b 
3.115E-03:c -3.051E-03:d -2.853E-04:e 2.206E-04:f 3.405E-05:10 2.770E-03:11 3.690E-05:12 -2.841E-03:13 
#C 2.1400009138E-09 19
3.300E00:1 3.300E00:2 3.300E00:3 3.300E00:4 3.300E00:5 3.229E00:6 3.979E00:7 2.699E-04:8 1.025E-05:9 -2.802E-04:a 2.849E-08:b 
2.542E-03:c -2.475E-03:d -2.813E-04:e 2.145E-04:f 3.405E-05:10 2.745E-03:11 3.690E-05:12 -2.815E-03:13 
#C 2.2000000001E-09 19
3.300E00:1 3.300E00:2 3.300E00:3 3.300E00:4 3.300E00:5 3.229E00:6 3.976E00:7 2.824E-04:8 -1.766E-06:9 -2.808E-04:a 1.012E-07:b 
2.209E-03:c -2.134E-03:d -2.666E-04:e 1.918E-04:f 3.405E-05:10 2.741E-03:11 3.690E-05:12 -2.812E-03:13 
#C 2.2160001219E-09 19
3.300E00:1 3.300E00:2 3.300E00:3 3.300E00:4 3.300E00:5 3.229E00:6 3.975E00:7 2.762E-04:8 4.240E-06:9 -2.805E-04:a 6.489E-08:b 
2.104E-03:c -2.034E-03:d -2.800E-04:e 2.097E-04:f 3.405E-05:10 2.735E-03:11 3.690E-05:12 -2.806E-03:13 
#C 2.2480026939E-09 19
3.300E00:1 3.300E00:2 3.300E00:3 3.300E00:4 3.300E00:5 3.229E00:6 3.973E00:7 2.762E-04:8 4.240E-06:9 -2.805E-04:a 6.490E-08:b 
2.004E-03:c -1.925E-03:d -2.495E-04:e 1.705E-04:f 3.405E-05:10 2.730E-03:11 3.690E-05:12 -2.801E-03:13 
#C 2.3120078378E-09 19
3.300E00:1 3.300E00:2 3.300E00:3 3.300E00:4 3.300E00:5 3.229E00:6 3.970E00:7 2.762E-04:8 4.240E-06:9 -2.805E-04:a 6.496E-08:b 
1.744E-03:c -1.670E-03:d -2.587E-04:e 1.845E-04:f 1.788E-05:10 1.174E-03:11 1.599E-05:12 -1.208E-03:13 
#C 2.4400181257E-09 19
3.300E00:1 3.300E00:2 3.300E00:3 3.300E00:4 3.300E00:5 3.229E00:6 3.966E00:7 2.762E-04:8 4.240E-06:9 -2.805E-04:a 6.504E-08:b 
1.676E-03:c -1.549E-03:d -1.381E-04:e 1.067E-05:f 4.505E-06:10 4.007E-04:11 5.503E-06:12 -4.107E-04:13 
#C 2.6960387015E-09 19
3.300E00:1 3.300E00:2 3.300E00:3 3.300E00:4 3.300E00:5 3.229E00:6 3.966E00:7 2.826E-04:8 -2.069E-06:9 -2.808E-04:a 1.781E-07:b 
1.692E-03:c -1.548E-03:d -1.008E-04:e -4.282E-05:f -6.779E-06:10 -5.571E-04:11 -7.574E-06:12 5.714E-04:13 
#C 3.2080798530E-09 19
3.300E00:1 3.300E00:2 3.300E00:3 3.300E00:4 3.300E00:5 3.229E00:6 3.975E00:7 2.830E-04:8 -2.362E-06:9 -2.807E-04:a 9.978E-08:b 
2.328E-03:c -2.174E-03:d -8.438E-05:e -7.013E-05:f -1.147E-05:10 -9.197E-04:11 -1.245E-05:12 9.436E-04:13 
#C 4.2081340336E-09 19
3.300E00:1 3.300E00:2 3.300E00:3 3.300E00:4 3.300E00:5 3.229E00:6 3.986E00:7 2.814E-04:8 -7.441E-07:9 -2.807E-04:a 8.144E-09:b 
3.414E-03:c -3.271E-03:d -1.198E-04:e -2.234E-05:f -3.355E-06:10 -2.609E-04:11 -3.423E-06:12 2.677E-04:13 
#C 5.2081882143E-09 19
3.300E00:1 3.300E00:2 3.300E00:3 3.300E00:4 3.300E00:5 3.229E00:6 3.989E00:7 2.806E-04:8 5.059E-08:9 -2.806E-04:a -1.995E-08:b 
3.785E-03:c -3.650E-03:d -1.381E-04:e 3.502E-06:f 8.237E-07:10 7.151E-05:11 9.742E-07:12 -7.331E-05:13 
#C 6.2082423949E-09 19
3.300E00:1 3.300E00:2 3.300E00:3 3.300E00:4 3.300E00:5 3.229E00:6 3.989E00:7 2.803E-04:8 3.218E-07:9 -2.806E-04:a -1.465E-08:b 
3.775E-03:c -3.641E-03:d -1.392E-04:e 5.252E-06:f 5.670E-07:10 4.792E-05:11 6.375E-07:12 -4.913E-05:13 
#C 7.2082965755E-09 19
3.300E00:1 3.300E00:2 3.300E00:3 3.300E00:4 3.300E00:5 3.229E00:6 3.989E00:7 2.803E-04:8 3.218E-07:9 -2.806E-04:a -1.465E-08:b 
3.778E-03:c -3.641E-03:d -1.324E-04:e -4.655E-06:f 5.670E-07:10 4.792E-05:11 6.375E-07:12 -4.913E-05:13 
#C 8.2083507561E-09 19
3.300E00:1 3.300E00:2 3.300E00:3 3.300E00:4 3.300E00:5 3.229E00:6 3.988E00:7 2.810E-04:8 -3.218E-07:9 -2.807E-04:a 1.465E-08:b 
3.716E-03:c -3.582E-03:d -1.406E-04:e 7.232E-06:f -5.670E-07:10 -4.792E-05:11 -6.375E-07:12 4.913E-05:13 
#C 9.2084049367E-09 19
3.300E00:1 3.300E00:2 3.300E00:3 3.300E00:4 3.300E00:5 3.229E00:6 3.988E00:7 2.806E-04:8 -4.891E-12:9 -2.806E-04:a 1.735E-18:b 
3.744E-03:c -3.608E-03:d -1.347E-04:e -1.360E-06:f -3.310E-12:10 3.310E-12:11 -1.572E-18:12 1.735E-18:13 
#C 1.0208459117E-08 19
3.300E00:1 3.300E00:2 3.300E00:3 3.300E00:4 3.300E00:5 3.229E00:6 3.988E00:7 2.806E-04:8 -4.891E-12:9 -2.806E-04:a 1.735E-18:b 
3.743E-03:c -3.608E-03:d -1.358E-04:e 2.810E-07:f -3.310E-12:10 3.310E-12:11 -1.572E-18:12 1.735E-18:13 
#C 1.1208513298E-08 19
3.300E00:1 3.300E00:2 3.300E00:3 3.300E00:4 3.300E00:5 3.229E00:6 3.988E00:7 2.806E-04:8 -4.891E-12:9 -2.806E-04:a 1.735E-18:b 
3.743E-03:c -3.608E-03:d -1.358E-04:e 2.810E-07:f -3.310E-12:10 3.310E-12:11 -1.572E-18:12 1.735E-18:13 
#C 1.2208567479E-08 19
3.300E00:1 3.300E00:2 3.300E00:3 3.300E00:4 3.300E00:5 3.229E00:6 3.988E00:7 2.806E-04:8 -4.891E-12:9 -2.806E-04:a 1.735E-18:b 
3.743E-03:c -3.608E-03:d -1.358E-04:e 2.810E-07:f -3.310E-12:10 3.310E-12:11 -1.572E-18:12 1.735E-18:13 
#C 1.3208621659E-08 19
3.300E00:1 3.300E00:2 3.300E00:3 3.300E00:4 3.300E00:5 3.229E00:6 3.988E00:7 2.806E-04:8 -4.891E-12:9 -2.806E-04:a 1.735E-18:b 
3.743E-03:c -3.608E-03:d -1.358E-04:e 2.810E-07:f -3.310E-12:10 3.310E-12:11 -1.572E-18:12 1.735E-18:13 
#C 1.4208675840E-08 19
3.300E00:1 3.300E00:2 3.300E00:3 3.300E00:4 3.300E00:5 3.229E00:6 3.988E00:7 2.806E-04:8 -4.891E-12:9 -2.806E-04:a 1.735E-18:b 
3.743E-03:c -3.608E-03:d -1.358E-04:e 2.810E-07:f -3.310E-12:10 3.310E-12:11 -1.572E-18:12 1.735E-18:13 
#C 1.5000000000E-08 19
3.300E00:1 3.300E00:2 3.300E00:3 3.300E00:4 3.300E00:5 3.229E00:6 3.988E00:7 2.806E-04:8 -4.891E-12:9 -2.806E-04:a -6.939E-18:b 
3.743E-03:c -3.608E-03:d -1.356E-04:e 2.602E-18:f -3.310E-12:10 3.310E-12:11 -1.139E-18:12 4.337E-18:13 
#C 1.5100000000E-08 19
3.300E00:1 3.300E00:2 3.300E00:3 3.300E00:4 3.300E00:5 3.229E00:6 3.989E00:7 2.806E-04:8 -4.891E-12:9 -2.806E-04:a 0.000E00:b 
3.780E-03:c -3.642E-03:d -1.306E-04:e -7.249E-06:f -3.310E-12:10 3.310E-12:11 1.625E-19:12 0.000E00:13 
#C 1.5300001523E-08 19
3.300E00:1 3.300E00:2 3.300E00:3 3.300E00:4 3.300E00:5 3.229E00:6 3.988E00:7 2.806E-04:8 -4.891E-12:9 -2.806E-04:a 0.000E00:b 
3.765E-03:c -3.629E-03:d -1.364E-04:e 1.138E-06:f -3.310E-12:10 3.310E-12:11 1.625E-19:12 0.000E00:13 
#C 1.5350001904E-08 19
3.300E00:1 3.300E00:2 3.300E00:3 3.300E00:4 3.300E00:5 3.229E00:6 3.989E00:7 2.806E-04:8 -4.891E-12:9 -2.806E-04:a 0.000E00:b 
3.803E-03:c -3.661E-03:d -1.208E-04:e -2.161E-05:f -3.310E-12:10 3.310E-12:11 1.625E-19:12 0.000E00:13 
#C 1.5450002665E-08 19
3.300E00:1 3.300E00:2 3.300E00:3 3.300E00:4 3.300E00:5 3.229E00:6 3.989E00:7 2.806E-04:8 -4.891E-12:9 -2.806E-04:a -5.551E-17:b 
3.777E-03:c -3.644E-03:d -1.416E-04:e 8.594E-06:f -3.310E-12:10 3.310E-12:11 3.632E-18:12 0.000E00:13 
#C 1.5475002856E-08 19
3.300E00:1 3.300E00:2 3.300E00:3 3.300E00:4 3.300E00:5 3.229E00:6 3.989E00:7 2.806E-04:8 -4.891E-12:9 -2.806E-04:a 6.939E-18:b 
3.795E-03:c -3.657E-03:d -1.308E-04:e -7.026E-06:f -3.310E-12:10 3.310E-12:11 -7.617E-17:12 5.204E-17:13 
#C 1.5525003236E-08 19
3.300E00:1 3.300E00:2 3.300E00:3 3.300E00:4 3.300E00:5 3.229E00:6 3.989E00:7 2.806E-04:8 -4.891E-12:9 -2.806E-04:a -1.110E-16:b 
3.788E-03:c -3.649E-03:d -1.360E-04:e -2.291E-06:f -3.310E-12:10 3.310E-12:11 7.101E-18:12 -1.110E-16:13 
#C 1.5537503331E-08 19
3.300E00:1 3.300E00:2 3.300E00:3 3.300E00:4 3.300E00:5 3.229E00:6 3.989E00:7 2.806E-04:8 -4.891E-12:9 -2.806E-04:a -1.388E-17:b 
3.801E-03:c -3.659E-03:d -1.267E-04:e -1.565E-05:f -3.310E-12:10 3.310E-12:11 -1.545E-17:12 -1.041E-16:13 
#C 1.5562503522E-08 19
3.300E00:1 3.300E00:2 3.300E00:3 3.300E00:4 3.300E00:5 3.229E00:6 3.989E00:7 2.806E-04:8 -4.891E-12:9 -2.806E-04:a 0.000E00:b 
3.792E-03:c -3.652E-03:d -1.350E-04:e -5.238E-06:f -3.310E-12:10 3.310E-12:11 1.251E-16:12 0.000E00:13 
#C 1.5568753569E-08 19
3.300E00:1 3.300E00:2 3.300E00:3 3.300E00:4 3.300E00:5 3.229E00:6 3.989E00:7 2.806E-04:8 -4.891E-12:9 -2.806E-04:a 8.327E-17:b 
3.795E-03:c -3.654E-03:d -1.322E-04:e -8.602E-06:f -3.310E-12:10 3.310E-12:11 -9.351E-17:12 1.943E-16:13 
#C 1.5581253665E-08 19
3.300E00:1 3.300E00:2 3.300E00:3 3.300E00:4 3.300E00:5 3.229E00:6 3.989E00:7 2.806E-04:8 -4.891E-12:9 -2.806E-04:a -4.441E-16:b 
3.794E-03:c -3.653E-03:d -1.322E-04:e -8.602E-06:f -3.310E-12:10 3.309E-12:11 3.887E-16:12 0.000E00:13 
#C 1.5606253855E-08 19
3.300E00:1 3.300E00:2 3.300E00:3 3.300E00:4 3.300E00:5 3.229E00:6 3.989E00:7 2.806E-04:8 -4.891E-12:9 -2.806E-04:a -2.220E-16:b 
3.793E-03:c -3.653E-03:d -1.322E-04:e -8.602E-06:f -3.310E-12:10 3.310E-12:11 -1.247E-16:12 1.110E-16:13 
#C 1.5656254236E-08 19
3.300E00:1 3.300E00:2 3.300E00:3 3.300E00:4 3.300E00:5 3.229E00:6 3.989E00:7 2.806E-04:8 -4.891E-12:9 -2.806E-04:a 1.110E-16:b 
3.792E-03:c -3.651E-03:d -1.322E-04:e -8.602E-06:f -3.310E-12:10 3.310E-12:11 1.404E-17:12 -5.551E-17:13 
#C 1.5731854346E-08 19
3.300E00:1 3.300E00:2 3.300E00:3 3.300E00:4 3.300E00:5 3.229E00:6 3.989E00:7 2.806E-04:8 -4.891E-12:9 -2.806E-04:a 0.000E00:b 
3.782E-03:c -3.650E-03:d -1.385E-04:e 5.798E-06:f -3.310E-12:10 3.310E-12:11 3.486E-17:12 -5.551E-17:13 
#C 1.5843461715E-08 19
3.300E00:1 3.300E00:2 3.300E00:3 3.300E00:4 3.300E00:5 3.229E00:6 3.989E00:7 2.806E-04:8 -4.891E-12:9 -2.806E-04:a -2.776E-17:b 
3.780E-03:c -3.644E-03:d -1.361E-04:e 3.868E-07:f -3.310E-12:10 3.310E-12:11 7.101E-18:12 1.388E-17:13 
#C 1.6000000000E-08 19
3.300E00:1 3.300E00:2 3.300E00:3 3.300E00:4 3.300E00:5 3.229E00:6 3.989E00:7 2.806E-04:8 -4.891E-12:9 -2.806E-04:a -1.388E-17:b 
3.773E-03:c -3.637E-03:d -1.361E-04:e 3.868E-07:f -3.310E-12:10 3.310E-12:11 -2.065E-17:12 1.388E-17:13 
#C 1.6022321474E-08 19
3.300E00:1 3.300E00:2 3.300E00:3 3.300E00:4 3.300E00:5 3.229E00:6 3.989E00:7 2.806E-04:8 -4.891E-12:9 -2.806E-04:a 0.000E00:b 
3.800E-03:c -3.660E-03:d -1.252E-04:e -1.491E-05:f -3.310E-12:10 3.310E-12:11 1.625E-19:12 0.000E00:13 
#C 1.6066966750E-08 19
3.300E00:1 3.300E00:2 3.300E00:3 3.300E00:4 3.300E00:5 3.229E00:6 3.989E00:7 2.806E-04:8 -4.891E-12:9 -2.806E-04:a 0.000E00:b 
3.784E-03:c -3.649E-03:d -1.371E-04:e 2.140E-06:f -3.310E-12:10 3.310E-12:11 1.625E-19:12 0.000E00:13 
#C 1.6156257302E-08 19
3.300E00:1 3.300E00:2 3.300E00:3 3.300E00:4 3.300E00:5 3.229E00:6 3.989E00:7 2.806E-04:8 -4.891E-12:9 -2.806E-04:a 5.551E-17:b 
3.784E-03:c -3.648E-03:d -1.356E-04:e -1.309E-07:f -3.310E-12:10 3.310E-12:11 -4.147E-17:12 0.000E00:13 
#C 1.6334838405E-08 19
3.300E00:1 3.300E00:2 3.300E00:3 3.300E00:4 3.300E00:5 3.229E00:6 3.989E00:7 2.806E-04:8 -4.891E-12:9 -2.806E-04:a 2.776E-17:b 
3.775E-03:c -3.639E-03:d -1.362E-04:e 1.674E-07:f -3.310E-12:10 3.310E-12:11 -2.065E-17:12 0.000E00:13 
#C 1.6692000613E-08 19
3.300E00:1 3.300E00:2 3.300E00:3 3.300E00:4 3.300E00:5 3.229E00:6 3.988E00:7 2.806E-04:8 -4.891E-12:9 -2.806E-04:a 0.000E00:b 
3.764E-03:c -3.628E-03:d -1.358E-04:e -1.760E-07:f -3.310E-12:10 3.310E-12:11 2.271E-17:12 -2.082E-17:13 
#C 1.7406325027E-08 19
3.300E00:1 3.300E00:2 3.300E00:3 3.300E00:4 3.300E00:5 3.229E00:6 3.988E00:7 2.806E-04:8 -4.891E-12:9 -2.806E-04:a 0.000E00:b 
3.751E-03:c -3.615E-03:d -1.360E-04:e 5.356E-07:f -3.310E-12:10 3.310E-12:11 -1.025E-17:12 -3.469E-18:13 
#C 1.8406379208E-08 19
3.300E00:1 3.300E00:2 3.300E00:3 3.300E00:4 3.300E00:5 3.229E00:6 3.988E00:7 2.806E-04:8 -4.891E-12:9 -2.806E-04:a -3.469E-18:b 
3.744E-03:c -3.608E-03:d -1.357E-04:e 4.101E-08:f -3.310E-12:10 3.310E-12:11 5.367E-18:12 1.735E-18:13 
#C 1.9000000000E-08 19
3.300E00:1 3.300E00:2 3.300E00:3 3.300E00:4 3.300E00:5 3.229E00:6 3.988E00:7 2.806E-04:8 -4.891E-12:9 -2.806E-04:a -1.735E-18:b 
3.751E-03:c -3.615E-03:d -1.354E-04:e -3.239E-07:f -3.310E-12:10 3.310E-12:11 -1.572E-18:12 2.602E-18:13 
#C 1.9100000000E-08 19
3.300E00:1 3.300E00:2 3.300E00:3 3.300E00:4 3.300E00:5 3.229E00:6 3.989E00:7 2.806E-04:8 -4.891E-12:9 -2.806E-04:a 0.000E00:b 
3.779E-03:c -3.642E-03:d -1.319E-04:e -5.510E-06:f -3.310E-12:10 3.310E-12:11 1.625E-19:12 0.000E00:13 
#C 1.9300001523E-08 19
3.300E00:1 3.300E00:2 3.300E00:3 3.300E00:4 3.300E00:5 3.229E00:6 3.988E00:7 2.806E-04:8 -4.891E-12:9 -2.806E-04:a 0.000E00:b 
3.765E-03:c -3.629E-03:d -1.365E-04:e 1.256E-06:f -3.310E-12:10 3.310E-12:11 1.625E-19:12 0.000E00:13 
#C 1.9700004569E-08 19
3.300E00:1 3.300E00:2 3.300E00:3 3.300E00:4 3.300E00:5 3.229E00:6 3.988E00:7 2.806E-04:8 -4.891E-12:9 -2.806E-04:a 1.388E-17:b 
3.762E-03:c -3.626E-03:d -1.355E-04:e -2.500E-07:f -3.310E-12:10 3.310E-12:11 -5.909E-18:12 0.000E00:13 
#C 2.0000000000E-08 19
3.300E00:1 3.300E00:2 3.300E00:3 3.300E00:4 3.300E00:5 3.229E00:6 3.988E00:7 2.806E-04:8 -4.891E-12:9 -2.806E-04:a 6.939E-18:b 
3.764E-03:c -3.629E-03:d -1.355E-04:e -2.412E-07:f -3.310E-12:10 3.310E-12:11 -7.644E-18:12 -1.735E-18:13 
#C 2.0065006316E-08 19
3.300E00:1 3.300E00:2 3.300E00:3 3.300E00:4 3.300E00:5 3.229E00:6 3.989E00:7 2.806E-04:8 -4.891E-12:9 -2.806E-04:a 0.000E00:b 
3.786E-03:c -3.647E-03:d -1.312E-04:e -7.062E-06:f -3.310E-12:10 3.310E-12:11 1.625E-19:12 0.000E00:13 
#C 2.0195018947E-08 19
3.300E00:1 3.300E00:2 3.300E00:3 3.300E00:4 3.300E00:5 3.229E00:6 3.989E00:7 2.806E-04:8 -4.891E-12:9 -2.806E-04:a 0.000E00:b 
3.777E-03:c -3.643E-03:d -1.391E-04:e 5.302E-06:f -3.310E-12:10 3.310E-12:11 1.625E-19:12 0.000E00:13 
#C 2.0455044210E-08 19
3.300E00:1 3.300E00:2 3.300E00:3 3.300E00:4 3.300E00:5 3.229E00:6 3.988E00:7 2.806E-04:8 -4.891E-12:9 -2.806E-04:a -1.388E-17:b 
3.769E-03:c -3.633E-03:d -1.368E-04:e 1.639E-06:f -3.310E-12:10 3.310E-12:11 1.231E-17:12 -1.388E-17:13 
#C 2.0975094736E-08 19
3.300E00:1 3.300E00:2 3.300E00:3 3.300E00:4 3.300E00:5 3.229E00:6 3.988E00:7 2.806E-04:8 -4.891E-12:9 -2.806E-04:a 0.000E00:b 
3.757E-03:c -3.621E-03:d -1.360E-04:e 4.277E-07:f -3.310E-12:10 3.310E-12:11 1.030E-18:12 0.000E00:13 
#C 2.1975148916E-08 19
3.300E00:1 3.300E00:2 3.300E00:3 3.300E00:4 3.300E00:5 3.229E00:6 3.988E00:7 2.806E-04:8 -4.891E-12:9 -2.806E-04:a -3.469E-18:b 
3.745E-03:c -3.609E-03:d -1.356E-04:e -2.203E-07:f -3.310E-12:10 3.310E-12:11 3.632E-18:12 0.000E00:13 
#C 2.2975203097E-08 19
3.300E00:1 3.300E00:2 3.300E00:3 3.300E00:4 3.300E00:5 3.229E00:6 3.988E00:7 2.806E-04:8 -4.891E-12:9 -2.806E-04:a -3.469E-18:b 
3.745E-03:c -3.609E-03:d -1.356E-04:e -1.755E-07:f -3.310E-12:10 3.310E-12:11 3.632E-18:12 0.000E00:13 
#C 2.3975257278E-08 19
3.300E00:1 3.300E00:2 3.300E00:3 3.300E00:4 3.300E00:5 3.229E00:6 3.988E00:7 2.806E-04:8 -4.891E-12:9 -2.806E-04:a -3.469E-18:b 
3.745E-03:c -3.609E-03:d -1.356E-04:e -1.755E-07:f -3.310E-12:10 3.310E-12:11 3.632E-18:12 0.000E00:13 
#C 2.4975311458E-08 19
3.300E00:1 3.300E00:2 3.300E00:3 3.300E00:4 3.300E00:5 3.229E00:6 3.988E00:7 2.806E-04:8 -4.891E-12:9 -2.806E-04:a -3.469E-18:b 
3.745E-03:c -3.609E-03:d -1.356E-04:e -1.755E-07:f -3.310E-12:10 3.310E-12:11 3.632E-18:12 0.000E00:13 
#C 2.5975365639E-08 19
3.300E00:1 3.300E00:2 3.300E00:3 3.300E00:4 3.300E00:5 3.229E00:6 3.988E00:7 2.806E-04:8 -4.891E-12:9 -2.806E-04:a -3.469E-18:b 
3.745E-03:c -3.609E-03:d -1.356E-04:e -1.755E-07:f -3.310E-12:10 3.310E-12:11 3.632E-18:12 0.000E00:13 
#C 2.6975419819E-08 19
3.300E00:1 3.300E00:2 3.300E00:3 3.300E00:4 3.300E00:5 3.229E00:6 3.988E00:7 2.806E-04:8 -4.891E-12:9 -2.806E-04:a -3.469E-18:b 
3.745E-03:c -3.609E-03:d -1.356E-04:e -1.755E-07:f -3.310E-12:10 3.310E-12:11 3.632E-18:12 0.000E00:13 
#C 2.7975474000E-08 19
3.300E00:1 3.300E00:2 3.300E00:3 3.300E00:4 3.300E00:5 3.229E00:6 3.988E00:7 2.806E-04:8 -4.891E-12:9 -2.806E-04:a -3.469E-18:b 
3.745E-03:c -3.609E-03:d -1.356E-04:e -1.755E-07:f -3.310E-12:10 3.310E-12:11 3.632E-18:12 0.000E00:13 
#C 2.8975528181E-08 19
3.300E00:1 3.300E00:2 3.300E00:3 3.300E00:4 3.300E00:5 3.229E00:6 3.988E00:7 2.806E-04:8 -4.891E-12:9 -2.806E-04:a -3.469E-18:b 
3.745E-03:c -3.609E-03:d -1.356E-04:e -1.755E-07:f -3.310E-12:10 3.310E-12:11 3.632E-18:12 0.000E00:13 
#C 2.9975582361E-08 19
3.300E00:1 3.300E00:2 3.300E00:3 3.300E00:4 3.300E00:5 3.229E00:6 3.988E00:7 2.806E-04:8 -4.891E-12:9 -2.806E-04:a -3.469E-18:b 
3.745E-03:c -3.609E-03:d -1.356E-04:e -1.755E-07:f -3.310E-12:10 3.310E-12:11 3.632E-18:12 0.000E00:13 
#C 3.0975636542E-08 19
3.300E00:1 3.300E00:2 3.300E00:3 3.300E00:4 3.300E00:5 3.229E00:6 3.988E00:7 2.806E-04:8 -4.891E-12:9 -2.806E-04:a -3.469E-18:b 
3.745E-03:c -3.609E-03:d -1.356E-04:e -1.755E-07:f -3.310E-12:10 3.310E-12:11 3.632E-18:12 0.000E00:13 
#C 3.1975690723E-08 19
3.300E00:1 3.300E00:2 3.300E00:3 3.300E00:4 3.300E00:5 3.229E00:6 3.988E00:7 2.806E-04:8 -4.891E-12:9 -2.806E-04:a -3.469E-18:b 
3.745E-03:c -3.609E-03:d -1.356E-04:e -1.755E-07:f -3.310E-12:10 3.310E-12:11 3.632E-18:12 0.000E00:13 
#C 3.2975744903E-08 19
