#H
SOURCE='PSPICE' VERSION='PSpice 16.0.0 (July 2006)'
TITLE='**** 05/18/10 12:08:24 ******* PSpice 16.0.0 (July 2006) ****** ID# 0 ********'
SUBTITLE=''
TIME='16:01:18' DATE='05/30/10' TEMPERATURE='2.700E01'
ANALYSIS='Transient Analysis' SERIALNO='61413'
ALLVALUES='NO' COMPLEXVALUES='NO' NODES='19'
SWEEPVAR='Time' SWEEPMODE='VAR_STEP'
XBEGIN='0.000E00' XEND='5.000E-08'
FORMAT='0 VOLTSorAMPS;EFLOAT : NODEorBRANCH;NODE  '
DGTLDATA='NO' 
#N 
'V(C_F_D_LSB)' 'V(C_F_D_2SB)' 'V(C_F_D_3SB)' 'V(C_F_D_4SB)' 'V(C_F_D_5SB)' 'V(C_F_D_MSB)' 'V(C_F_C1_NDNEG)' 'ID(M_C_F_C1_M3)' 
'IB(M_C_F_C1_M3)' 'IS(M_C_F_C1_M3)' 'IG(M_C_F_C1_M3)' 'ID(M_C_F_C1_M1)' 'IB(M_C_F_C1_M1)' 'IS(M_C_F_C1_M1)' 'IG(M_C_F_C1_M1)' 
'ID(M_C_F_C1_M4)' 'IB(M_C_F_C1_M4)' 'IS(M_C_F_C1_M4)' 'IG(M_C_F_C1_M4)' 
#C 0.0000000000E00 19
3.300E00:1 3.300E00:2 3.300E00:3 3.300E00:4 3.300E00:5 3.229E00:6 3.989E00:7 3.764E-03:8 -3.764E-03:9 -1.001E-08:a 0.000E00:b 
2.360E-04:c -4.371E-12:d -2.360E-04:e 0.000E00:f -2.948E-12:10 2.948E-12:11 2.819E-20:12 0.000E00:13 
#C 1.0000000000E-11 19
3.300E00:1 3.300E00:2 3.300E00:3 3.300E00:4 3.300E00:5 3.229E00:6 3.989E00:7 3.764E-03:8 -3.764E-03:9 -1.001E-08:a -1.709E-13:b 
2.360E-04:c -4.399E-12:d -2.360E-04:e -1.705E-13:f -2.939E-12:10 3.623E-12:11 8.958E-15:12 -6.926E-13:13 
#C 2.0000000000E-11 19
3.300E00:1 3.300E00:2 3.300E00:3 3.300E00:4 3.300E00:5 3.229E00:6 3.989E00:7 3.764E-03:8 -3.764E-03:9 -1.001E-08:a -1.709E-13:b 
2.360E-04:c -4.399E-12:d -2.360E-04:e -1.705E-13:f -2.939E-12:10 3.623E-12:11 8.958E-15:12 -6.926E-13:13 
#C 4.0000152290E-11 19
3.300E00:1 3.300E00:2 3.300E00:3 3.300E00:4 3.300E00:5 3.229E00:6 3.989E00:7 3.764E-03:8 -3.764E-03:9 -1.001E-08:a 0.000E00:b 
2.360E-04:c -4.371E-12:d -2.360E-04:e 0.000E00:f -2.948E-12:10 2.948E-12:11 2.819E-20:12 0.000E00:13 
#C 8.0000456870E-11 19
3.300E00:1 3.300E00:2 3.300E00:3 3.300E00:4 3.300E00:5 3.229E00:6 3.989E00:7 3.764E-03:8 -3.764E-03:9 -1.001E-08:a 0.000E00:b 
2.360E-04:c -4.371E-12:d -2.360E-04:e 0.000E00:f -2.948E-12:10 2.948E-12:11 2.819E-20:12 0.000E00:13 
#C 1.6000106603E-10 19
3.300E00:1 3.300E00:2 3.300E00:3 3.300E00:4 3.300E00:5 3.229E00:6 3.989E00:7 3.764E-03:8 -3.764E-03:9 -1.001E-08:a 0.000E00:b 
2.360E-04:c -4.371E-12:d -2.360E-04:e 0.000E00:f -2.948E-12:10 2.948E-12:11 2.819E-20:12 0.000E00:13 
#C 3.2000228435E-10 19
3.300E00:1 3.300E00:2 3.300E00:3 3.300E00:4 3.300E00:5 3.229E00:6 3.989E00:7 3.764E-03:8 -3.764E-03:9 -1.001E-08:a 0.000E00:b 
2.360E-04:c -4.371E-12:d -2.360E-04:e 0.000E00:f -2.948E-12:10 2.948E-12:11 2.819E-20:12 0.000E00:13 
#C 6.4000472099E-10 19
3.300E00:1 3.300E00:2 3.300E00:3 3.300E00:4 3.300E00:5 3.229E00:6 3.989E00:7 3.764E-03:8 -3.764E-03:9 -1.001E-08:a 0.000E00:b 
2.360E-04:c -4.371E-12:d -2.360E-04:e 0.000E00:f -2.948E-12:10 2.948E-12:11 2.819E-20:12 0.000E00:13 
#C 1.2800095943E-09 19
3.300E00:1 3.300E00:2 3.300E00:3 3.300E00:4 3.300E00:5 3.229E00:6 3.989E00:7 3.764E-03:8 -3.764E-03:9 -1.001E-08:a 0.000E00:b 
2.360E-04:c -4.371E-12:d -2.360E-04:e 0.000E00:f -2.948E-12:10 2.948E-12:11 2.819E-20:12 0.000E00:13 
#C 2.0000000001E-09 19
3.300E00:1 3.300E00:2 3.300E00:3 3.300E00:4 3.300E00:5 3.229E00:6 3.989E00:7 3.764E-03:8 -3.764E-03:9 -1.001E-08:a 0.000E00:b 
2.360E-04:c -4.371E-12:d -2.360E-04:e 0.000E00:f -2.948E-12:10 2.948E-12:11 2.819E-20:12 0.000E00:13 
#C 2.0200000001E-09 19
3.300E00:1 3.300E00:2 3.300E00:3 3.300E00:4 3.300E00:5 3.229E00:6 3.986E00:7 3.337E-03:8 -3.054E-03:9 1.545E-05:a -2.978E-04:b 
2.178E-04:c 3.411E-06:d -2.340E-04:e 1.288E-05:f 1.530E-05:10 1.155E-03:11 1.536E-05:12 -1.186E-03:13 
#C 2.0600003047E-09 19
3.300E00:1 3.300E00:2 3.300E00:3 3.300E00:4 3.300E00:5 3.229E00:6 3.978E00:7 2.395E-03:8 -2.005E-03:9 2.126E-05:a -4.120E-04:b 
2.177E-04:c 3.411E-06:d -2.340E-04:e 1.288E-05:f 2.141E-05:10 1.603E-03:11 2.146E-05:12 -1.646E-03:13 
#C 2.1400009138E-09 19
3.300E00:1 3.300E00:2 3.300E00:3 3.300E00:4 3.300E00:5 3.229E00:6 3.963E00:7 1.344E-03:8 -1.046E-03:9 1.581E-05:a -3.145E-04:b 
2.007E-04:c 6.748E-06:d -2.341E-04:e 2.671E-05:f 1.603E-05:10 1.156E-03:11 1.597E-05:12 -1.188E-03:13 
#C 2.2000000001E-09 19
3.300E00:1 3.300E00:2 3.300E00:3 3.300E00:4 3.300E00:5 3.229E00:6 3.954E00:7 9.630E-04:8 -7.268E-04:9 1.245E-05:a -2.487E-04:b 
2.242E-04:c 2.044E-06:d -2.328E-04:e 6.587E-06:f 1.254E-05:10 9.034E-04:11 1.252E-05:12 -9.285E-04:13 
#C 2.2160001219E-09 19
3.300E00:1 3.300E00:2 3.300E00:3 3.300E00:4 3.300E00:5 3.229E00:6 3.952E00:7 9.017E-04:8 -7.020E-04:9 1.055E-05:a -2.103E-04:b 
2.197E-04:c 2.955E-06:d -2.332E-04:e 1.055E-05:f 1.439E-05:10 1.040E-03:11 1.438E-05:12 -1.069E-03:13 
#C 2.2480026939E-09 19
3.300E00:1 3.300E00:2 3.300E00:3 3.300E00:4 3.300E00:5 3.229E00:6 3.950E00:7 8.103E-04:8 -6.474E-04:9 8.582E-06:a -1.714E-04:b 
2.197E-04:c 2.955E-06:d -2.332E-04:e 1.055E-05:f 6.803E-06:10 4.883E-04:11 6.769E-06:12 -5.019E-04:13 
#C 2.3120078378E-09 19
3.300E00:1 3.300E00:2 3.300E00:3 3.300E00:4 3.300E00:5 3.229E00:6 3.947E00:7 7.339E-04:8 -7.163E-04:9 8.976E-07:a -1.842E-05:b 
2.511E-04:c -3.211E-06:d -2.328E-04:e -1.503E-05:f 2.151E-06:10 1.547E-04:11 2.162E-06:12 -1.590E-04:13 
#C 2.4400181257E-09 19
3.300E00:1 3.300E00:2 3.300E00:3 3.300E00:4 3.300E00:5 3.229E00:6 3.949E00:7 7.924E-04:8 -8.915E-04:9 -5.226E-06:a 1.044E-04:b 
2.384E-04:c -7.447E-07:d -2.328E-04:e -4.798E-06:f -5.470E-06:10 -3.949E-04:11 -5.489E-06:12 4.058E-04:13 
#C 2.6960387015E-09 19
3.300E00:1 3.300E00:2 3.300E00:3 3.300E00:4 3.300E00:5 3.229E00:6 3.966E00:7 1.530E-03:8 -1.679E-03:9 -7.999E-06:a 1.575E-04:b 
2.561E-04:c -3.886E-06:d -2.368E-04:e -1.537E-05:f -7.665E-06:10 -5.612E-04:11 -7.663E-06:12 5.765E-04:13 
#C 3.2080798530E-09 19
3.300E00:1 3.300E00:2 3.300E00:3 3.300E00:4 3.300E00:5 3.229E00:6 3.986E00:7 3.251E-03:8 -3.241E-03:9 4.209E-07:a -1.021E-05:b 
2.245E-04:c 2.289E-06:d -2.367E-04:e 9.937E-06:f -1.104E-08:10 -7.439E-06:11 -1.834E-10:12 7.450E-06:13 
#C 3.8673631036E-09 19
3.300E00:1 3.300E00:2 3.300E00:3 3.300E00:4 3.300E00:5 3.229E00:6 3.989E00:7 3.750E-03:8 -3.726E-03:9 1.249E-06:a -2.472E-05:b 
2.331E-04:c 5.731E-07:d -2.361E-04:e 2.495E-06:f 1.159E-06:10 8.492E-05:11 1.158E-06:12 -8.723E-05:13 
#C 4.8674172842E-09 19
3.300E00:1 3.300E00:2 3.300E00:3 3.300E00:4 3.300E00:5 3.229E00:6 3.990E00:7 3.786E-03:8 -3.781E-03:9 2.851E-07:a -5.688E-06:b 
2.358E-04:c 7.927E-08:d -2.365E-04:e 6.191E-07:f 3.744E-07:10 2.801E-05:11 3.724E-07:12 -2.876E-05:13 
#C 5.8674714648E-09 19
3.300E00:1 3.300E00:2 3.300E00:3 3.300E00:4 3.300E00:5 3.229E00:6 3.990E00:7 3.790E-03:8 -3.796E-03:9 -3.110E-07:a 5.802E-06:b 
2.358E-04:c 7.927E-08:d -2.365E-04:e 6.191E-07:f 3.744E-07:10 2.801E-05:11 3.724E-07:12 -2.876E-05:13 
#C 6.8675256454E-09 19
3.300E00:1 3.300E00:2 3.300E00:3 3.300E00:4 3.300E00:5 3.229E00:6 3.990E00:7 3.803E-03:8 -3.798E-03:9 2.743E-07:a -5.481E-06:b 
2.358E-04:c 7.927E-08:d -2.365E-04:e 6.191E-07:f 3.744E-07:10 2.801E-05:11 3.724E-07:12 -2.876E-05:13 
#C 7.8675798261E-09 19
3.300E00:1 3.300E00:2 3.300E00:3 3.300E00:4 3.300E00:5 3.229E00:6 3.989E00:7 3.772E-03:8 -3.771E-03:9 2.546E-08:a -6.822E-07:b 
2.360E-04:c -4.374E-12:d -2.360E-04:e 0.000E00:f -2.948E-12:10 2.948E-12:11 1.632E-19:12 0.000E00:13 
#C 8.8676340067E-09 19
3.300E00:1 3.300E00:2 3.300E00:3 3.300E00:4 3.300E00:5 3.229E00:6 3.989E00:7 3.773E-03:8 -3.774E-03:9 -4.670E-08:a 7.056E-07:b 
2.360E-04:c -4.374E-12:d -2.360E-04:e 0.000E00:f -2.948E-12:10 2.948E-12:11 -1.079E-19:12 0.000E00:13 
#C 9.8676881873E-09 19
3.300E00:1 3.300E00:2 3.300E00:3 3.300E00:4 3.300E00:5 3.229E00:6 3.989E00:7 3.773E-03:8 -3.774E-03:9 -4.670E-08:a 7.056E-07:b 
2.360E-04:c -4.374E-12:d -2.360E-04:e 0.000E00:f -2.948E-12:10 2.948E-12:11 -1.079E-19:12 0.000E00:13 
#C 1.0867742368E-08 19
3.300E00:1 3.300E00:2 3.300E00:3 3.300E00:4 3.300E00:5 3.229E00:6 3.989E00:7 3.773E-03:8 -3.774E-03:9 -4.670E-08:a 7.056E-07:b 
2.360E-04:c -4.374E-12:d -2.360E-04:e 0.000E00:f -2.948E-12:10 2.948E-12:11 -1.079E-19:12 0.000E00:13 
#C 1.1867796549E-08 19
3.300E00:1 3.300E00:2 3.300E00:3 3.300E00:4 3.300E00:5 3.229E00:6 3.989E00:7 3.773E-03:8 -3.774E-03:9 -4.670E-08:a 7.056E-07:b 
2.360E-04:c -4.374E-12:d -2.360E-04:e 0.000E00:f -2.948E-12:10 2.948E-12:11 -1.079E-19:12 0.000E00:13 
#C 1.2867850729E-08 19
3.300E00:1 3.300E00:2 3.300E00:3 3.300E00:4 3.300E00:5 3.229E00:6 3.989E00:7 3.773E-03:8 -3.774E-03:9 -4.670E-08:a 7.056E-07:b 
2.360E-04:c -4.374E-12:d -2.360E-04:e 0.000E00:f -2.948E-12:10 2.948E-12:11 -1.079E-19:12 0.000E00:13 
#C 1.3867904910E-08 19
3.300E00:1 3.300E00:2 3.300E00:3 3.300E00:4 3.300E00:5 3.229E00:6 3.989E00:7 3.773E-03:8 -3.774E-03:9 -4.670E-08:a 7.056E-07:b 
2.360E-04:c -4.374E-12:d -2.360E-04:e 0.000E00:f -2.948E-12:10 2.948E-12:11 -1.079E-19:12 0.000E00:13 
#C 1.4867959090E-08 19
3.300E00:1 3.300E00:2 3.300E00:3 3.300E00:4 3.300E00:5 3.229E00:6 3.989E00:7 3.773E-03:8 -3.774E-03:9 -4.670E-08:a 7.056E-07:b 
2.360E-04:c -4.374E-12:d -2.360E-04:e 0.000E00:f -2.948E-12:10 2.948E-12:11 -1.079E-19:12 0.000E00:13 
#C 1.5000000000E-08 19
3.300E00:1 3.300E00:2 3.300E00:3 3.300E00:4 3.300E00:5 3.229E00:6 3.990E00:7 3.804E-03:8 -3.810E-03:9 -2.973E-07:a 5.525E-06:b 
2.360E-04:c -4.374E-12:d -2.360E-04:e 0.000E00:f -2.948E-12:10 2.948E-12:11 1.632E-19:12 0.000E00:13 
#C 1.5100000000E-08 19
3.300E00:1 3.300E00:2 3.300E00:3 3.300E00:4 3.300E00:5 3.229E00:6 3.990E00:7 3.798E-03:8 -3.798E-03:9 3.089E-08:a -7.868E-07:b 
2.360E-04:c -4.374E-12:d -2.360E-04:e 0.000E00:f -2.948E-12:10 2.948E-12:11 2.764E-20:12 0.000E00:13 
#C 1.5264471567E-08 19
3.300E00:1 3.300E00:2 3.300E00:3 3.300E00:4 3.300E00:5 3.229E00:6 3.990E00:7 3.788E-03:8 -3.788E-03:9 3.090E-08:a -7.868E-07:b 
2.360E-04:c -4.374E-12:d -2.360E-04:e 0.000E00:f -2.948E-12:10 2.948E-12:11 2.764E-20:12 0.000E00:13 
#C 1.5305589458E-08 19
3.300E00:1 3.300E00:2 3.300E00:3 3.300E00:4 3.300E00:5 3.229E00:6 3.990E00:7 3.827E-03:8 -3.851E-03:9 -1.321E-06:a 2.522E-05:b 
2.360E-04:c -4.374E-12:d -2.360E-04:e 0.000E00:f -2.948E-12:10 2.948E-12:11 2.764E-20:12 0.000E00:13 
#C 1.5387825242E-08 19
3.300E00:1 3.300E00:2 3.300E00:3 3.300E00:4 3.300E00:5 3.229E00:6 3.990E00:7 3.820E-03:8 -3.810E-03:9 5.147E-07:a -1.009E-05:b 
2.360E-04:c -4.374E-12:d -2.360E-04:e 5.551E-17:f -2.948E-12:10 2.948E-12:11 8.701E-18:12 -1.388E-17:13 
#C 1.5408384188E-08 19
3.300E00:1 3.300E00:2 3.300E00:3 3.300E00:4 3.300E00:5 3.229E00:6 3.990E00:7 3.835E-03:8 -3.846E-03:9 -6.098E-07:a 1.153E-05:b 
2.360E-04:c -4.374E-12:d -2.360E-04:e 1.596E-16:f -2.948E-12:10 2.948E-12:11 -2.578E-17:12 -9.541E-18:13 
#C 1.5449502079E-08 19
3.300E00:1 3.300E00:2 3.300E00:3 3.300E00:4 3.300E00:5 3.229E00:6 3.990E00:7 3.833E-03:8 -3.826E-03:9 3.699E-07:a -7.304E-06:b 
2.360E-04:c -4.374E-12:d -2.360E-04:e 2.220E-16:f -2.948E-12:10 2.948E-12:11 3.497E-18:12 -1.388E-17:13 
#C 1.5531737863E-08 19
3.300E00:1 3.300E00:2 3.300E00:3 3.300E00:4 3.300E00:5 3.229E00:6 3.990E00:7 3.816E-03:8 -3.813E-03:9 1.926E-07:a -3.896E-06:b 
2.360E-04:c -4.374E-12:d -2.360E-04:e 5.551E-17:f -2.948E-12:10 2.948E-12:11 -5.177E-18:12 -1.388E-17:13 
#C 1.5552296808E-08 19
3.300E00:1 3.300E00:2 3.300E00:3 3.300E00:4 3.300E00:5 3.229E00:6 3.990E00:7 3.834E-03:8 -3.847E-03:9 -7.362E-07:a 1.396E-05:b 
2.360E-04:c -4.374E-12:d -2.360E-04:e 1.596E-16:f -2.948E-12:10 2.948E-12:11 -2.578E-17:12 -9.541E-18:13 
#C 1.5593414700E-08 19
3.300E00:1 3.300E00:2 3.300E00:3 3.300E00:4 3.300E00:5 3.229E00:6 3.990E00:7 3.833E-03:8 -3.825E-03:9 4.094E-07:a -8.065E-06:b 
2.360E-04:c -4.374E-12:d -2.360E-04:e 2.220E-16:f -2.948E-12:10 2.948E-12:11 3.497E-18:12 -1.388E-17:13 
#C 1.5675650483E-08 19
3.300E00:1 3.300E00:2 3.300E00:3 3.300E00:4 3.300E00:5 3.229E00:6 3.990E00:7 3.816E-03:8 -3.813E-03:9 2.035E-07:a -4.105E-06:b 
2.360E-04:c -4.374E-12:d -2.360E-04:e 5.551E-17:f -2.948E-12:10 2.948E-12:11 -5.177E-18:12 -1.388E-17:13 
#C 1.5751506707E-08 19
3.300E00:1 3.300E00:2 3.300E00:3 3.300E00:4 3.300E00:5 3.229E00:6 3.990E00:7 3.813E-03:8 -3.814E-03:9 -3.413E-08:a 4.634E-07:b 
2.360E-04:c -4.374E-12:d -2.360E-04:e 0.000E00:f -2.948E-12:10 2.948E-12:11 -1.298E-17:12 8.674E-18:13 
#C 1.5903219155E-08 19
3.300E00:1 3.300E00:2 3.300E00:3 3.300E00:4 3.300E00:5 3.229E00:6 3.990E00:7 3.801E-03:8 -3.799E-03:9 6.422E-08:a -1.428E-06:b 
2.360E-04:c -4.374E-12:d -2.360E-04:e 5.551E-17:f -2.948E-12:10 2.948E-12:11 8.950E-19:12 -3.469E-18:13 
#C 1.6000000000E-08 19
3.300E00:1 3.300E00:2 3.300E00:3 3.300E00:4 3.300E00:5 3.229E00:6 3.990E00:7 3.805E-03:8 -3.807E-03:9 -7.647E-08:a 1.278E-06:b 
2.360E-04:c -4.374E-12:d -2.360E-04:e 6.939E-18:f -2.948E-12:10 2.948E-12:11 -6.261E-18:12 2.602E-18:13 
#C 1.6023148023E-08 19
3.300E00:1 3.300E00:2 3.300E00:3 3.300E00:4 3.300E00:5 3.229E00:6 3.990E00:7 3.828E-03:8 -3.840E-03:9 -6.652E-07:a 1.260E-05:b 
2.360E-04:c -4.374E-12:d -2.360E-04:e 0.000E00:f -2.948E-12:10 2.948E-12:11 2.764E-20:12 0.000E00:13 
#C 1.6069446396E-08 19
3.300E00:1 3.300E00:2 3.300E00:3 3.300E00:4 3.300E00:5 3.229E00:6 3.990E00:7 3.818E-03:8 -3.815E-03:9 1.413E-07:a -2.910E-06:b 
2.360E-04:c -4.374E-12:d -2.360E-04:e 0.000E00:f -2.948E-12:10 2.948E-12:11 2.764E-20:12 0.000E00:13 
#C 1.6162043143E-08 19
3.300E00:1 3.300E00:2 3.300E00:3 3.300E00:4 3.300E00:5 3.229E00:6 3.990E00:7 3.811E-03:8 -3.812E-03:9 -3.586E-08:a 4.967E-07:b 
2.360E-04:c -4.374E-12:d -2.360E-04:e 0.000E00:f -2.948E-12:10 2.948E-12:11 6.967E-18:12 0.000E00:13 
#C 1.6347236637E-08 19
3.300E00:1 3.300E00:2 3.300E00:3 3.300E00:4 3.300E00:5 3.229E00:6 3.990E00:7 3.799E-03:8 -3.798E-03:9 3.502E-08:a -8.662E-07:b 
2.360E-04:c -4.374E-12:d -2.360E-04:e 1.388E-17:f -2.948E-12:10 2.948E-12:11 -6.044E-18:12 -3.469E-18:13 
#C 1.6717623625E-08 19
3.300E00:1 3.300E00:2 3.300E00:3 3.300E00:4 3.300E00:5 3.229E00:6 3.990E00:7 3.783E-03:8 -3.783E-03:9 8.246E-09:a -3.512E-07:b 
2.360E-04:c -4.374E-12:d -2.360E-04:e 6.939E-18:f -2.948E-12:10 2.948E-12:11 -3.008E-18:12 -1.735E-18:13 
#C 1.7458397601E-08 19
3.300E00:1 3.300E00:2 3.300E00:3 3.300E00:4 3.300E00:5 3.229E00:6 3.989E00:7 3.774E-03:8 -3.774E-03:9 -1.599E-08:a 1.149E-07:b 
2.360E-04:c -4.374E-12:d -2.360E-04:e 3.469E-18:f -2.948E-12:10 2.948E-12:11 -1.490E-18:12 -8.674E-19:13 
#C 1.8458451782E-08 19
3.300E00:1 3.300E00:2 3.300E00:3 3.300E00:4 3.300E00:5 3.229E00:6 3.989E00:7 3.772E-03:8 -3.772E-03:9 -1.154E-08:a 2.943E-08:b 
2.360E-04:c -4.374E-12:d -2.360E-04:e 0.000E00:f -2.948E-12:10 2.948E-12:11 -3.518E-19:12 -4.337E-19:13 
#C 1.9000000000E-08 19
3.300E00:1 3.300E00:2 3.300E00:3 3.300E00:4 3.300E00:5 3.229E00:6 3.989E00:7 3.775E-03:8 -3.775E-03:9 -1.713E-08:a 1.370E-07:b 
2.360E-04:c -4.374E-12:d -2.360E-04:e 3.469E-18:f -2.948E-12:10 2.948E-12:11 -4.874E-19:12 -3.253E-19:13 
#C 1.9100000000E-08 19
3.300E00:1 3.300E00:2 3.300E00:3 3.300E00:4 3.300E00:5 3.229E00:6 3.990E00:7 3.796E-03:8 -3.799E-03:9 -1.508E-07:a 2.708E-06:b 
2.360E-04:c -4.374E-12:d -2.360E-04:e 0.000E00:f -2.948E-12:10 2.948E-12:11 2.764E-20:12 0.000E00:13 
#C 1.9300001523E-08 19
3.300E00:1 3.300E00:2 3.300E00:3 3.300E00:4 3.300E00:5 3.229E00:6 3.990E00:7 3.785E-03:8 -3.785E-03:9 2.645E-08:a -7.012E-07:b 
2.360E-04:c -4.374E-12:d -2.360E-04:e 0.000E00:f -2.948E-12:10 2.948E-12:11 2.764E-20:12 0.000E00:13 
#C 1.9700004569E-08 19
3.300E00:1 3.300E00:2 3.300E00:3 3.300E00:4 3.300E00:5 3.229E00:6 3.990E00:7 3.784E-03:8 -3.785E-03:9 -4.213E-08:a 6.177E-07:b 
2.360E-04:c -4.374E-12:d -2.360E-04:e 0.000E00:f -2.948E-12:10 2.948E-12:11 2.764E-20:12 0.000E00:13 
#C 1.9737503998E-08 19
3.300E00:1 3.300E00:2 3.300E00:3 3.300E00:4 3.300E00:5 3.229E00:6 3.990E00:7 3.818E-03:8 -3.830E-03:9 -6.746E-07:a 1.278E-05:b 
2.360E-04:c -4.374E-12:d -2.360E-04:e 3.079E-17:f -2.948E-12:10 2.948E-12:11 -2.570E-19:12 -8.240E-18:13 
#C 1.9763753598E-08 19
3.300E00:1 3.300E00:2 3.300E00:3 3.300E00:4 3.300E00:5 3.229E00:6 3.990E00:7 3.828E-03:8 -3.832E-03:9 -2.546E-07:a 4.702E-06:b 
2.360E-04:c -4.374E-12:d -2.360E-04:e 0.000E00:f -2.948E-12:10 2.948E-12:11 2.764E-20:12 0.000E00:13 
#C 1.9816251087E-08 19
3.300E00:1 3.300E00:2 3.300E00:3 3.300E00:4 3.300E00:5 3.229E00:6 3.990E00:7 3.826E-03:8 -3.823E-03:9 1.774E-07:a -3.605E-06:b 
2.360E-04:c -4.374E-12:d -2.360E-04:e 0.000E00:f -2.948E-12:10 2.948E-12:11 1.217E-17:12 0.000E00:13 
#C 1.9921246066E-08 19
3.300E00:1 3.300E00:2 3.300E00:3 3.300E00:4 3.300E00:5 3.229E00:6 3.990E00:7 3.810E-03:8 -3.807E-03:9 1.530E-07:a -3.134E-06:b 
2.360E-04:c -4.374E-12:d -2.360E-04:e 2.776E-17:f -2.948E-12:10 2.948E-12:11 -6.911E-18:12 6.939E-18:13 
#C 2.0000000000E-08 19
3.300E00:1 3.300E00:2 3.300E00:3 3.300E00:4 3.300E00:5 3.229E00:6 3.990E00:7 3.811E-03:8 -3.812E-03:9 -6.654E-08:a 1.087E-06:b 
2.360E-04:c -4.374E-12:d -2.360E-04:e -4.163E-17:f -2.948E-12:10 2.948E-12:11 -8.863E-18:12 1.041E-17:13 
#C 2.0020998996E-08 19
3.300E00:1 3.300E00:2 3.300E00:3 3.300E00:4 3.300E00:5 3.229E00:6 3.990E00:7 3.830E-03:8 -3.842E-03:9 -6.237E-07:a 1.180E-05:b 
2.360E-04:c -4.374E-12:d -2.360E-04:e 0.000E00:f -2.948E-12:10 2.948E-12:11 2.764E-20:12 0.000E00:13 
#C 2.0062995823E-08 19
3.300E00:1 3.300E00:2 3.300E00:3 3.300E00:4 3.300E00:5 3.229E00:6 3.990E00:7 3.832E-03:8 -3.826E-03:9 3.498E-07:a -6.918E-06:b 
2.360E-04:c -4.374E-12:d -2.360E-04:e -1.110E-16:f -2.948E-12:10 2.948E-12:11 -3.442E-18:12 1.388E-17:13 
#C 2.0146989478E-08 19
3.300E00:1 3.300E00:2 3.300E00:3 3.300E00:4 3.300E00:5 3.229E00:6 3.990E00:7 3.816E-03:8 -3.812E-03:9 2.243E-07:a -4.506E-06:b 
2.360E-04:c -4.374E-12:d -2.360E-04:e 0.000E00:f -2.948E-12:10 2.948E-12:11 -4.309E-18:12 -1.388E-17:13 
#C 2.0314976787E-08 19
3.300E00:1 3.300E00:2 3.300E00:3 3.300E00:4 3.300E00:5 3.229E00:6 3.990E00:7 3.798E-03:8 -3.797E-03:9 2.495E-08:a -6.727E-07:b 
2.360E-04:c -4.374E-12:d -2.360E-04:e 0.000E00:f -2.948E-12:10 2.948E-12:11 -6.478E-18:12 0.000E00:13 
#C 2.0650951406E-08 19
3.300E00:1 3.300E00:2 3.300E00:3 3.300E00:4 3.300E00:5 3.229E00:6 3.990E00:7 3.784E-03:8 -3.784E-03:9 -1.229E-08:a 4.372E-08:b 
2.360E-04:c -4.374E-12:d -2.360E-04:e -1.388E-17:f -2.948E-12:10 2.948E-12:11 -1.924E-18:12 0.000E00:13 
#C 2.1322900644E-08 19
3.300E00:1 3.300E00:2 3.300E00:3 3.300E00:4 3.300E00:5 3.229E00:6 3.989E00:7 3.775E-03:8 -3.775E-03:9 -1.326E-08:a 6.240E-08:b 
2.360E-04:c -4.374E-12:d -2.360E-04:e -6.939E-18:f -2.948E-12:10 2.948E-12:11 7.866E-19:12 0.000E00:13 
#C 2.2322954824E-08 19
3.300E00:1 3.300E00:2 3.300E00:3 3.300E00:4 3.300E00:5 3.229E00:6 3.989E00:7 3.772E-03:8 -3.772E-03:9 -1.141E-08:a 2.688E-08:b 
2.360E-04:c -4.374E-12:d -2.360E-04:e -3.469E-18:f -2.948E-12:10 2.948E-12:11 1.274E-18:12 -4.337E-19:13 
#C 2.3323009005E-08 19
3.300E00:1 3.300E00:2 3.300E00:3 3.300E00:4 3.300E00:5 3.229E00:6 3.989E00:7 3.772E-03:8 -3.772E-03:9 -1.141E-08:a 2.688E-08:b 
2.360E-04:c -4.374E-12:d -2.360E-04:e -3.469E-18:f -2.948E-12:10 2.948E-12:11 1.274E-18:12 -4.337E-19:13 
#C 2.4323063186E-08 19
3.300E00:1 3.300E00:2 3.300E00:3 3.300E00:4 3.300E00:5 3.229E00:6 3.989E00:7 3.772E-03:8 -3.772E-03:9 -1.141E-08:a 2.688E-08:b 
2.360E-04:c -4.374E-12:d -2.360E-04:e -3.469E-18:f -2.948E-12:10 2.948E-12:11 1.274E-18:12 -4.337E-19:13 
#C 2.5323117366E-08 19
3.300E00:1 3.300E00:2 3.300E00:3 3.300E00:4 3.300E00:5 3.229E00:6 3.989E00:7 3.772E-03:8 -3.772E-03:9 -1.141E-08:a 2.688E-08:b 
2.360E-04:c -4.374E-12:d -2.360E-04:e -3.469E-18:f -2.948E-12:10 2.948E-12:11 1.274E-18:12 -4.337E-19:13 
#C 2.6323171547E-08 19
3.300E00:1 3.300E00:2 3.300E00:3 3.300E00:4 3.300E00:5 3.229E00:6 3.989E00:7 3.772E-03:8 -3.772E-03:9 -1.141E-08:a 2.688E-08:b 
2.360E-04:c -4.374E-12:d -2.360E-04:e -3.469E-18:f -2.948E-12:10 2.948E-12:11 1.274E-18:12 -4.337E-19:13 
#C 2.7323225727E-08 19
3.300E00:1 3.300E00:2 3.300E00:3 3.300E00:4 3.300E00:5 3.229E00:6 3.989E00:7 3.772E-03:8 -3.772E-03:9 -1.141E-08:a 2.688E-08:b 
2.360E-04:c -4.374E-12:d -2.360E-04:e -3.469E-18:f -2.948E-12:10 2.948E-12:11 1.274E-18:12 -4.337E-19:13 
#C 2.8323279908E-08 19
