#H
SOURCE='PSPICE' VERSION='PSpice 16.0.0 (July 2006)'
TITLE='**** 05/18/10 12:08:24 ******* PSpice 16.0.0 (July 2006) ****** ID# 0 ********'
SUBTITLE=''
TIME='16:02:00' DATE='05/30/10' TEMPERATURE='2.700E01'
ANALYSIS='Transient Analysis' SERIALNO='61413'
ALLVALUES='NO' COMPLEXVALUES='NO' NODES='19'
SWEEPVAR='Time' SWEEPMODE='VAR_STEP'
XBEGIN='0.000E00' XEND='5.000E-08'
FORMAT='0 VOLTSorAMPS;EFLOAT : NODEorBRANCH;NODE  '
DGTLDATA='NO' 
#N 
'V(C_F_D_LSB)' 'V(C_F_D_2SB)' 'V(C_F_D_3SB)' 'V(C_F_D_4SB)' 'V(C_F_D_5SB)' 'V(C_F_D_MSB)' 'V(C_F_C3_NDPOS)' 'ID(M_C_F_C3_M12)' 
'IB(M_C_F_C3_M12)' 'IS(M_C_F_C3_M12)' 'IG(M_C_F_C3_M12)' 'ID(M_C_F_C3_M2)' 'IB(M_C_F_C3_M2)' 'IS(M_C_F_C3_M2)' 'IG(M_C_F_C3_M2)' 
'ID(M_C_F_C3_M4)' 'IB(M_C_F_C3_M4)' 'IS(M_C_F_C3_M4)' 'IG(M_C_F_C3_M4)' 
#C 0.0000000000E00 19
3.300E00:1 3.300E00:2 3.300E00:3 3.300E00:4 3.300E00:5 3.229E00:6 3.985E00:7 -3.310E-12:8 3.310E-12:9 1.815E-19:a 0.000E00:b 
1.498E-04:c -4.436E-12:d -1.498E-04:e 0.000E00:f 3.850E-03:10 -3.192E-03:11 -6.577E-04:12 0.000E00:13 
#C 1.0000000000E-11 19
3.300E00:1 3.300E00:2 3.300E00:3 3.300E00:4 3.300E00:5 3.229E00:6 3.985E00:7 -3.295E-12:8 4.507E-12:9 1.602E-14:a -1.229E-12:b 
1.498E-04:c -4.447E-12:d -1.498E-04:e 1.110E-15:f 3.850E-03:10 -3.192E-03:11 -6.577E-04:12 3.033E-13:13 
#C 2.0000000000E-11 19
3.300E00:1 3.300E00:2 3.300E00:3 3.300E00:4 3.300E00:5 3.229E00:6 3.985E00:7 -3.295E-12:8 4.507E-12:9 1.602E-14:a -1.229E-12:b 
1.498E-04:c -4.447E-12:d -1.498E-04:e 1.110E-15:f 3.850E-03:10 -3.192E-03:11 -6.577E-04:12 3.033E-13:13 
#C 4.0000152290E-11 19
3.300E00:1 3.300E00:2 3.300E00:3 3.300E00:4 3.300E00:5 3.229E00:6 3.985E00:7 -3.310E-12:8 3.310E-12:9 1.815E-19:a 0.000E00:b 
1.498E-04:c -4.436E-12:d -1.498E-04:e 0.000E00:f 3.850E-03:10 -3.192E-03:11 -6.577E-04:12 0.000E00:13 
#C 8.0000456870E-11 19
3.300E00:1 3.300E00:2 3.300E00:3 3.300E00:4 3.300E00:5 3.229E00:6 3.985E00:7 -3.310E-12:8 3.310E-12:9 1.815E-19:a 0.000E00:b 
1.498E-04:c -4.436E-12:d -1.498E-04:e 0.000E00:f 3.850E-03:10 -3.192E-03:11 -6.577E-04:12 0.000E00:13 
#C 1.6000106603E-10 19
3.300E00:1 3.300E00:2 3.300E00:3 3.300E00:4 3.300E00:5 3.229E00:6 3.985E00:7 -3.310E-12:8 3.310E-12:9 1.815E-19:a 0.000E00:b 
1.498E-04:c -4.436E-12:d -1.498E-04:e 0.000E00:f 3.850E-03:10 -3.192E-03:11 -6.577E-04:12 0.000E00:13 
#C 3.2000228435E-10 19
3.300E00:1 3.300E00:2 3.300E00:3 3.300E00:4 3.300E00:5 3.229E00:6 3.985E00:7 -3.310E-12:8 3.310E-12:9 1.815E-19:a 0.000E00:b 
1.498E-04:c -4.436E-12:d -1.498E-04:e 0.000E00:f 3.850E-03:10 -3.192E-03:11 -6.577E-04:12 0.000E00:13 
#C 6.4000472099E-10 19
3.300E00:1 3.300E00:2 3.300E00:3 3.300E00:4 3.300E00:5 3.229E00:6 3.985E00:7 -3.310E-12:8 3.310E-12:9 1.815E-19:a 0.000E00:b 
1.498E-04:c -4.436E-12:d -1.498E-04:e 0.000E00:f 3.850E-03:10 -3.192E-03:11 -6.577E-04:12 0.000E00:13 
#C 1.2800095943E-09 19
3.300E00:1 3.300E00:2 3.300E00:3 3.300E00:4 3.300E00:5 3.229E00:6 3.985E00:7 -3.310E-12:8 3.310E-12:9 1.815E-19:a 0.000E00:b 
1.498E-04:c -4.436E-12:d -1.498E-04:e 0.000E00:f 3.850E-03:10 -3.192E-03:11 -6.577E-04:12 0.000E00:13 
#C 2.0000000001E-09 19
3.300E00:1 3.300E00:2 3.300E00:3 3.300E00:4 3.300E00:5 3.229E00:6 3.985E00:7 -3.310E-12:8 3.310E-12:9 1.815E-19:a 0.000E00:b 
1.498E-04:c -4.436E-12:d -1.498E-04:e 0.000E00:f 3.850E-03:10 -3.192E-03:11 -6.577E-04:12 0.000E00:13 
#C 2.0200000001E-09 19
3.300E00:1 3.300E00:2 3.300E00:3 3.300E00:4 3.300E00:5 3.229E00:6 3.984E00:7 2.166E-05:8 1.719E-03:9 2.294E-05:a -1.764E-03:b 
1.498E-04:c -4.436E-12:d -1.498E-04:e 0.000E00:f 3.674E-03:10 -3.098E-03:11 -7.290E-04:12 1.528E-04:13 
#C 2.0600003047E-09 19
3.300E00:1 3.300E00:2 3.300E00:3 3.300E00:4 3.300E00:5 3.229E00:6 3.982E00:7 3.501E-05:8 2.838E-03:9 3.794E-05:a -2.910E-03:b 
1.419E-04:c 4.230E-06:d -1.461E-04:e 5.863E-09:f 3.313E-03:10 -2.793E-03:11 -7.744E-04:12 2.543E-04:13 
#C 2.1400009138E-09 19
3.300E00:1 3.300E00:2 3.300E00:3 3.300E00:4 3.300E00:5 3.229E00:6 3.976E00:7 3.501E-05:8 2.811E-03:9 3.794E-05:a -2.884E-03:b 
1.418E-04:c 4.230E-06:d -1.460E-04:e 6.011E-09:f 2.783E-03:10 -2.266E-03:11 -7.678E-04:12 2.509E-04:13 
#C 2.2000000001E-09 19
3.300E00:1 3.300E00:2 3.300E00:3 3.300E00:4 3.300E00:5 3.229E00:6 3.972E00:7 3.501E-05:8 2.807E-03:9 3.794E-05:a -2.880E-03:b 
1.512E-04:c -1.332E-06:d -1.499E-04:e 2.038E-08:f 2.478E-03:10 -1.951E-03:11 -7.518E-04:12 2.243E-04:13 
#C 2.2160001219E-09 19
3.300E00:1 3.300E00:2 3.300E00:3 3.300E00:4 3.300E00:5 3.229E00:6 3.971E00:7 3.501E-05:8 2.801E-03:9 3.794E-05:a -2.874E-03:b 
1.465E-04:c 1.449E-06:d -1.480E-04:e 1.320E-08:f 2.395E-03:10 -1.870E-03:11 -7.522E-04:12 2.273E-04:13 
#C 2.2480026939E-09 19
3.300E00:1 3.300E00:2 3.300E00:3 3.300E00:4 3.300E00:5 3.229E00:6 3.969E00:7 3.501E-05:8 2.796E-03:9 3.794E-05:a -2.869E-03:b 
1.465E-04:c 1.449E-06:d -1.480E-04:e 1.321E-08:f 2.289E-03:10 -1.749E-03:11 -7.353E-04:12 1.948E-04:13 
#C 2.3120078378E-09 19
3.300E00:1 3.300E00:2 3.300E00:3 3.300E00:4 3.300E00:5 3.229E00:6 3.966E00:7 1.989E-05:8 1.344E-03:9 1.837E-05:a -1.383E-03:b 
1.465E-04:c 1.449E-06:d -1.479E-04:e 1.322E-08:f 2.045E-03:10 -1.523E-03:11 -7.456E-04:12 2.236E-04:13 
#C 2.4400181257E-09 19
3.300E00:1 3.300E00:2 3.300E00:3 3.300E00:4 3.300E00:5 3.229E00:6 3.962E00:7 6.321E-06:8 5.352E-04:9 7.373E-06:a -5.489E-04:b 
1.464E-04:c 1.449E-06:d -1.479E-04:e 1.324E-08:f 1.944E-03:10 -1.331E-03:11 -6.587E-04:12 4.588E-05:13 
#C 2.6960387015E-09 19
3.300E00:1 3.300E00:2 3.300E00:3 3.300E00:4 3.300E00:5 3.229E00:6 3.961E00:7 -5.461E-06:8 -4.533E-04:9 -6.182E-06:a 4.649E-04:b 
1.508E-04:c -8.264E-07:d -1.500E-04:e 3.184E-08:f 1.928E-03:10 -1.271E-03:11 -6.178E-04:12 -3.861E-05:13 
#C 3.2080798530E-09 19
3.300E00:1 3.300E00:2 3.300E00:3 3.300E00:4 3.300E00:5 3.229E00:6 3.970E00:7 -1.191E-05:8 -9.504E-04:9 -1.295E-05:a 9.752E-04:b 
1.516E-04:c -1.052E-06:d -1.506E-04:e 1.470E-08:f 2.433E-03:10 -1.751E-03:11 -6.091E-04:12 -7.283E-05:13 
#C 4.2081340336E-09 19
3.300E00:1 3.300E00:2 3.300E00:3 3.300E00:4 3.300E00:5 3.229E00:6 3.983E00:7 -1.876E-06:8 -1.431E-04:9 -1.769E-06:a 1.467E-04:b 
1.502E-04:c -2.033E-07:d -1.500E-04:e -6.947E-09:f 3.637E-03:10 -2.968E-03:11 -6.437E-04:12 -2.553E-05:13 
#C 5.2081882143E-09 19
3.300E00:1 3.300E00:2 3.300E00:3 3.300E00:4 3.300E00:5 3.229E00:6 3.985E00:7 -9.356E-08:8 -5.895E-06:9 -2.199E-07:a 6.209E-06:b 
1.499E-04:c -1.128E-08:d -1.499E-04:e -1.015E-08:f 3.837E-03:10 -3.186E-03:11 -6.635E-04:12 1.292E-05:13 
#C 6.2082423949E-09 19
3.300E00:1 3.300E00:2 3.300E00:3 3.300E00:4 3.300E00:5 3.229E00:6 3.985E00:7 2.342E-07:8 2.141E-05:9 2.861E-07:a -2.193E-05:b 
1.495E-04:c 2.189E-07:d -1.497E-04:e -5.966E-09:f 3.873E-03:10 -3.217E-03:11 -6.586E-04:12 2.178E-06:13 
#C 7.2082965755E-09 19
3.300E00:1 3.300E00:2 3.300E00:3 3.300E00:4 3.300E00:5 3.229E00:6 3.985E00:7 2.342E-07:8 2.141E-05:9 2.861E-07:a -2.193E-05:b 
1.495E-04:c 2.189E-07:d -1.497E-04:e -5.966E-09:f 3.874E-03:10 -3.217E-03:11 -6.583E-04:12 1.528E-06:13 
#C 8.2083507561E-09 19
3.300E00:1 3.300E00:2 3.300E00:3 3.300E00:4 3.300E00:5 3.229E00:6 3.985E00:7 -2.342E-07:8 -2.141E-05:9 -2.861E-07:a 2.193E-05:b 
1.501E-04:c -2.189E-07:d -1.499E-04:e 5.966E-09:f 3.849E-03:10 -3.191E-03:11 -6.570E-04:12 -8.750E-07:13 
#C 9.2084049367E-09 19
3.300E00:1 3.300E00:2 3.300E00:3 3.300E00:4 3.300E00:5 3.229E00:6 3.985E00:7 -3.310E-12:8 3.310E-12:9 1.048E-18:a 0.000E00:b 
1.498E-04:c -4.436E-12:d -1.498E-04:e 5.204E-18:f 3.860E-03:10 -3.202E-03:11 -6.575E-04:12 3.253E-08:13 
#C 1.0208459117E-08 19
3.300E00:1 3.300E00:2 3.300E00:3 3.300E00:4 3.300E00:5 3.229E00:6 3.985E00:7 -3.310E-12:8 3.310E-12:9 1.048E-18:a 0.000E00:b 
1.498E-04:c -4.436E-12:d -1.498E-04:e 5.204E-18:f 3.860E-03:10 -3.202E-03:11 -6.575E-04:12 6.057E-09:13 
#C 1.1208513298E-08 19
3.300E00:1 3.300E00:2 3.300E00:3 3.300E00:4 3.300E00:5 3.229E00:6 3.985E00:7 -3.310E-12:8 3.310E-12:9 1.048E-18:a 0.000E00:b 
1.498E-04:c -4.436E-12:d -1.498E-04:e 5.204E-18:f 3.860E-03:10 -3.202E-03:11 -6.575E-04:12 6.057E-09:13 
#C 1.2208567479E-08 19
3.300E00:1 3.300E00:2 3.300E00:3 3.300E00:4 3.300E00:5 3.229E00:6 3.985E00:7 -3.310E-12:8 3.310E-12:9 1.048E-18:a 0.000E00:b 
1.498E-04:c -4.436E-12:d -1.498E-04:e 5.204E-18:f 3.860E-03:10 -3.202E-03:11 -6.575E-04:12 6.057E-09:13 
#C 1.3208621659E-08 19
3.300E00:1 3.300E00:2 3.300E00:3 3.300E00:4 3.300E00:5 3.229E00:6 3.985E00:7 -3.310E-12:8 3.310E-12:9 1.048E-18:a 0.000E00:b 
1.498E-04:c -4.436E-12:d -1.498E-04:e 5.204E-18:f 3.860E-03:10 -3.202E-03:11 -6.575E-04:12 6.057E-09:13 
#C 1.4208675840E-08 19
3.300E00:1 3.300E00:2 3.300E00:3 3.300E00:4 3.300E00:5 3.229E00:6 3.985E00:7 -3.310E-12:8 3.310E-12:9 1.048E-18:a 0.000E00:b 
1.498E-04:c -4.436E-12:d -1.498E-04:e 5.204E-18:f 3.860E-03:10 -3.202E-03:11 -6.575E-04:12 6.057E-09:13 
#C 1.5000000000E-08 19
3.300E00:1 3.300E00:2 3.300E00:3 3.300E00:4 3.300E00:5 3.229E00:6 3.985E00:7 -3.310E-12:8 3.310E-12:9 -6.871E-19:a 0.000E00:b 
1.498E-04:c -4.436E-12:d -1.498E-04:e -5.204E-18:f 3.863E-03:10 -3.206E-03:11 -6.574E-04:12 -1.594E-07:13 
#C 1.5100000000E-08 19
3.300E00:1 3.300E00:2 3.300E00:3 3.300E00:4 3.300E00:5 3.229E00:6 3.985E00:7 -3.310E-12:8 3.310E-12:9 1.803E-19:a 0.000E00:b 
1.498E-04:c -4.436E-12:d -1.498E-04:e 0.000E00:f 3.873E-03:10 -3.214E-03:11 -6.564E-04:12 -2.506E-06:13 
#C 1.5300001523E-08 19
3.300E00:1 3.300E00:2 3.300E00:3 3.300E00:4 3.300E00:5 3.229E00:6 3.985E00:7 -3.310E-12:8 3.310E-12:9 1.803E-19:a 0.000E00:b 
1.498E-04:c -4.436E-12:d -1.498E-04:e 0.000E00:f 3.868E-03:10 -3.210E-03:11 -6.573E-04:12 -3.607E-07:13 
#C 1.5350001904E-08 19
3.300E00:1 3.300E00:2 3.300E00:3 3.300E00:4 3.300E00:5 3.229E00:6 3.985E00:7 -3.310E-12:8 3.310E-12:9 1.803E-19:a 0.000E00:b 
1.498E-04:c -4.436E-12:d -1.498E-04:e 0.000E00:f 3.881E-03:10 -3.218E-03:11 -6.527E-04:12 -1.037E-05:13 
#C 1.5450002665E-08 19
3.300E00:1 3.300E00:2 3.300E00:3 3.300E00:4 3.300E00:5 3.229E00:6 3.985E00:7 -3.310E-12:8 3.310E-12:9 5.569E-17:a 0.000E00:b 
1.498E-04:c -4.436E-12:d -1.498E-04:e 2.776E-17:f 3.874E-03:10 -3.216E-03:11 -6.572E-04:12 -8.760E-07:13 
#C 1.5475002856E-08 19
3.300E00:1 3.300E00:2 3.300E00:3 3.300E00:4 3.300E00:5 3.229E00:6 3.985E00:7 -3.310E-12:8 3.310E-12:9 9.212E-17:a -9.368E-17:b 
1.498E-04:c -4.436E-12:d -1.498E-04:e 1.041E-16:f 3.875E-03:10 -3.216E-03:11 -6.563E-04:12 -2.671E-06:13 
#C 1.5525003236E-08 19
3.300E00:1 3.300E00:2 3.300E00:3 3.300E00:4 3.300E00:5 3.229E00:6 3.985E00:7 -3.310E-12:8 3.310E-12:9 -5.533E-17:a -5.551E-17:b 
1.498E-04:c -4.436E-12:d -1.498E-04:e 5.551E-17:f 3.876E-03:10 -3.218E-03:11 -6.568E-04:12 -1.610E-06:13 
#C 1.5537503331E-08 19
3.300E00:1 3.300E00:2 3.300E00:3 3.300E00:4 3.300E00:5 3.229E00:6 3.985E00:7 -3.310E-12:8 3.310E-12:9 -1.108E-16:a 6.939E-18:b 
1.498E-04:c -4.436E-12:d -1.498E-04:e 1.110E-16:f 3.877E-03:10 -3.219E-03:11 -6.566E-04:12 -2.035E-06:13 
#C 1.5562503522E-08 19
3.300E00:1 3.300E00:2 3.300E00:3 3.300E00:4 3.300E00:5 3.229E00:6 3.985E00:7 -3.310E-12:8 3.310E-12:9 2.222E-16:a -1.110E-16:b 
1.498E-04:c -4.437E-12:d -1.498E-04:e 0.000E00:f 3.878E-03:10 -3.220E-03:11 -6.566E-04:12 -2.035E-06:13 
#C 1.5568753569E-08 19
3.300E00:1 3.300E00:2 3.300E00:3 3.300E00:4 3.300E00:5 3.229E00:6 3.985E00:7 -3.310E-12:8 3.310E-12:9 -3.364E-16:a 1.388E-16:b 
1.498E-04:c -4.436E-12:d -1.498E-04:e -2.776E-16:f 3.879E-03:10 -3.220E-03:11 -6.566E-04:12 -2.035E-06:13 
#C 1.5581253665E-08 19
3.300E00:1 3.300E00:2 3.300E00:3 3.300E00:4 3.300E00:5 3.229E00:6 3.985E00:7 -3.310E-12:8 3.310E-12:9 -2.496E-16:a 2.220E-16:b 
1.498E-04:c -4.436E-12:d -1.498E-04:e -2.220E-16:f 3.879E-03:10 -3.221E-03:11 -6.567E-04:12 -2.035E-06:13 
#C 1.5606253855E-08 19
3.300E00:1 3.300E00:2 3.300E00:3 3.300E00:4 3.300E00:5 3.229E00:6 3.985E00:7 -3.310E-12:8 3.309E-12:9 6.957E-17:a 2.220E-16:b 
1.498E-04:c -4.436E-12:d -1.498E-04:e -1.110E-16:f 3.881E-03:10 -3.222E-03:11 -6.567E-04:12 -2.035E-06:13 
#C 1.5656254236E-08 19
3.300E00:1 3.300E00:2 3.300E00:3 3.300E00:4 3.300E00:5 3.229E00:6 3.985E00:7 -3.310E-12:8 3.310E-12:9 6.957E-17:a -1.110E-16:b 
1.498E-04:c -4.436E-12:d -1.498E-04:e 1.110E-16:f 3.875E-03:10 -3.218E-03:11 -6.581E-04:12 9.538E-07:13 
#C 1.5731854346E-08 19
3.300E00:1 3.300E00:2 3.300E00:3 3.300E00:4 3.300E00:5 3.229E00:6 3.985E00:7 -3.310E-12:8 3.310E-12:9 5.916E-17:a -5.551E-17:b 
1.498E-04:c -4.436E-12:d -1.498E-04:e -2.776E-17:f 3.874E-03:10 -3.217E-03:11 -6.581E-04:12 1.101E-06:13 
#C 1.5843461715E-08 19
3.300E00:1 3.300E00:2 3.300E00:3 3.300E00:4 3.300E00:5 3.229E00:6 3.985E00:7 -3.310E-12:8 3.310E-12:9 3.834E-17:a -1.388E-17:b 
1.498E-04:c -4.436E-12:d -1.498E-04:e -4.163E-17:f 3.873E-03:10 -3.216E-03:11 -6.579E-04:12 5.963E-07:13 
#C 1.6000000000E-08 19
3.300E00:1 3.300E00:2 3.300E00:3 3.300E00:4 3.300E00:5 3.229E00:6 3.985E00:7 -3.310E-12:8 3.310E-12:9 -1.890E-17:a 2.776E-17:b 
1.498E-04:c -4.436E-12:d -1.498E-04:e 0.000E00:f 3.871E-03:10 -3.213E-03:11 -6.578E-04:12 5.963E-07:13 
#C 1.6022321474E-08 19
3.300E00:1 3.300E00:2 3.300E00:3 3.300E00:4 3.300E00:5 3.229E00:6 3.985E00:7 -3.310E-12:8 3.310E-12:9 1.803E-19:a 0.000E00:b 
1.498E-04:c -4.436E-12:d -1.498E-04:e 0.000E00:f 3.878E-03:10 -3.219E-03:11 -6.563E-04:12 -2.651E-06:13 
#C 1.6066966750E-08 19
3.300E00:1 3.300E00:2 3.300E00:3 3.300E00:4 3.300E00:5 3.229E00:6 3.985E00:7 -3.310E-12:8 3.310E-12:9 1.803E-19:a 0.000E00:b 
1.498E-04:c -4.436E-12:d -1.498E-04:e 0.000E00:f 3.875E-03:10 -3.217E-03:11 -6.576E-04:12 -2.091E-08:13 
#C 1.6156257302E-08 19
3.300E00:1 3.300E00:2 3.300E00:3 3.300E00:4 3.300E00:5 3.229E00:6 3.985E00:7 -3.310E-12:8 3.310E-12:9 7.119E-18:a -5.551E-17:b 
1.498E-04:c -4.436E-12:d -1.498E-04:e 0.000E00:f 3.872E-03:10 -3.214E-03:11 -6.576E-04:12 -2.097E-08:13 
#C 1.6334838405E-08 19
3.300E00:1 3.300E00:2 3.300E00:3 3.300E00:4 3.300E00:5 3.229E00:6 3.985E00:7 -3.310E-12:8 3.310E-12:9 3.650E-18:a -2.776E-17:b 
1.498E-04:c -4.436E-12:d -1.498E-04:e 0.000E00:f 3.871E-03:10 -3.214E-03:11 -6.580E-04:12 8.542E-07:13 
#C 1.6692000613E-08 19
3.300E00:1 3.300E00:2 3.300E00:3 3.300E00:4 3.300E00:5 3.229E00:6 3.985E00:7 -3.310E-12:8 3.310E-12:9 -5.024E-18:a -2.082E-17:b 
1.498E-04:c -4.436E-12:d -1.498E-04:e 2.082E-17:f 3.870E-03:10 -3.213E-03:11 -6.578E-04:12 5.042E-07:13 
#C 1.7406325027E-08 19
3.300E00:1 3.300E00:2 3.300E00:3 3.300E00:4 3.300E00:5 3.229E00:6 3.985E00:7 -3.310E-12:8 3.310E-12:9 8.854E-18:a -6.939E-18:b 
1.498E-04:c -4.436E-12:d -1.498E-04:e 3.469E-18:f 3.863E-03:10 -3.205E-03:11 -6.577E-04:12 4.160E-07:13 
#C 1.8406379208E-08 19
3.300E00:1 3.300E00:2 3.300E00:3 3.300E00:4 3.300E00:5 3.229E00:6 3.985E00:7 -3.310E-12:8 3.310E-12:9 2.999E-18:a 1.735E-18:b 
1.498E-04:c -4.436E-12:d -1.498E-04:e -5.204E-18:f 3.860E-03:10 -3.203E-03:11 -6.576E-04:12 1.856E-07:13 
#C 1.9000000000E-08 19
3.300E00:1 3.300E00:2 3.300E00:3 3.300E00:4 3.300E00:5 3.229E00:6 3.985E00:7 -3.310E-12:8 3.310E-12:9 1.048E-18:a 1.735E-18:b 
1.498E-04:c -4.436E-12:d -1.498E-04:e -6.072E-18:f 3.863E-03:10 -3.205E-03:11 -6.575E-04:12 3.474E-08:13 
#C 1.9100000000E-08 19
3.300E00:1 3.300E00:2 3.300E00:3 3.300E00:4 3.300E00:5 3.229E00:6 3.985E00:7 -3.310E-12:8 3.310E-12:9 1.803E-19:a 0.000E00:b 
1.498E-04:c -4.436E-12:d -1.498E-04:e 0.000E00:f 3.873E-03:10 -3.214E-03:11 -6.565E-04:12 -2.127E-06:13 
#C 1.9300001523E-08 19
3.300E00:1 3.300E00:2 3.300E00:3 3.300E00:4 3.300E00:5 3.229E00:6 3.985E00:7 -3.310E-12:8 3.310E-12:9 1.803E-19:a 0.000E00:b 
1.498E-04:c -4.436E-12:d -1.498E-04:e 0.000E00:f 3.868E-03:10 -3.210E-03:11 -6.574E-04:12 -2.285E-07:13 
#C 1.9700004569E-08 19
3.300E00:1 3.300E00:2 3.300E00:3 3.300E00:4 3.300E00:5 3.229E00:6 3.985E00:7 -3.310E-12:8 3.310E-12:9 -6.759E-18:a -6.939E-18:b 
1.498E-04:c -4.436E-12:d -1.498E-04:e 1.388E-17:f 3.867E-03:10 -3.209E-03:11 -6.575E-04:12 4.857E-08:13 
#C 2.0000000000E-08 19
3.300E00:1 3.300E00:2 3.300E00:3 3.300E00:4 3.300E00:5 3.229E00:6 3.985E00:7 -3.310E-12:8 3.310E-12:9 4.517E-18:a -6.939E-18:b 
1.498E-04:c -4.436E-12:d -1.498E-04:e -6.939E-18:f 3.866E-03:10 -3.208E-03:11 -6.575E-04:12 -6.224E-08:13 
#C 2.0065006316E-08 19
3.300E00:1 3.300E00:2 3.300E00:3 3.300E00:4 3.300E00:5 3.229E00:6 3.985E00:7 -3.310E-12:8 3.310E-12:9 1.803E-19:a 0.000E00:b 
1.498E-04:c -4.436E-12:d -1.498E-04:e 0.000E00:f 3.875E-03:10 -3.216E-03:11 -6.564E-04:12 -2.532E-06:13 
#C 2.0195018947E-08 19
3.300E00:1 3.300E00:2 3.300E00:3 3.300E00:4 3.300E00:5 3.229E00:6 3.985E00:7 -3.310E-12:8 3.310E-12:9 3.487E-17:a -5.551E-17:b 
1.498E-04:c -4.436E-12:d -1.498E-04:e 2.776E-17:f 3.873E-03:10 -3.215E-03:11 -6.572E-04:12 -6.815E-07:13 
#C 2.0455044210E-08 19
3.300E00:1 3.300E00:2 3.300E00:3 3.300E00:4 3.300E00:5 3.229E00:6 3.985E00:7 -3.310E-12:8 3.310E-12:9 1.579E-17:a -1.388E-17:b 
1.498E-04:c -4.436E-12:d -1.498E-04:e 0.000E00:f 3.872E-03:10 -3.214E-03:11 -6.569E-04:12 -1.422E-06:13 
#C 2.0975094736E-08 19
3.300E00:1 3.300E00:2 3.300E00:3 3.300E00:4 3.300E00:5 3.229E00:6 3.985E00:7 -3.310E-12:8 3.310E-12:9 -7.626E-18:a 6.939E-18:b 
1.498E-04:c -4.436E-12:d -1.498E-04:e 0.000E00:f 3.864E-03:10 -3.208E-03:11 -6.581E-04:12 1.236E-06:13 
#C 2.1975148916E-08 19
3.300E00:1 3.300E00:2 3.300E00:3 3.300E00:4 3.300E00:5 3.229E00:6 3.985E00:7 -3.310E-12:8 3.310E-12:9 1.803E-19:a 0.000E00:b 
1.498E-04:c -4.436E-12:d -1.498E-04:e 0.000E00:f 3.860E-03:10 -3.203E-03:11 -6.578E-04:12 5.610E-07:13 
#C 2.2975203097E-08 19
3.300E00:1 3.300E00:2 3.300E00:3 3.300E00:4 3.300E00:5 3.229E00:6 3.985E00:7 -3.310E-12:8 3.310E-12:9 1.803E-19:a 0.000E00:b 
1.498E-04:c -4.436E-12:d -1.498E-04:e 0.000E00:f 3.860E-03:10 -3.203E-03:11 -6.576E-04:12 2.919E-07:13 
#C 2.3975257278E-08 19
3.300E00:1 3.300E00:2 3.300E00:3 3.300E00:4 3.300E00:5 3.229E00:6 3.985E00:7 -3.310E-12:8 3.310E-12:9 1.803E-19:a 0.000E00:b 
1.498E-04:c -4.436E-12:d -1.498E-04:e 0.000E00:f 3.860E-03:10 -3.203E-03:11 -6.576E-04:12 2.919E-07:13 
#C 2.4975311458E-08 19
3.300E00:1 3.300E00:2 3.300E00:3 3.300E00:4 3.300E00:5 3.229E00:6 3.985E00:7 -3.310E-12:8 3.310E-12:9 1.803E-19:a 0.000E00:b 
1.498E-04:c -4.436E-12:d -1.498E-04:e 0.000E00:f 3.860E-03:10 -3.203E-03:11 -6.576E-04:12 2.919E-07:13 
#C 2.5975365639E-08 19
3.300E00:1 3.300E00:2 3.300E00:3 3.300E00:4 3.300E00:5 3.229E00:6 3.985E00:7 -3.310E-12:8 3.310E-12:9 1.803E-19:a 0.000E00:b 
1.498E-04:c -4.436E-12:d -1.498E-04:e 0.000E00:f 3.860E-03:10 -3.203E-03:11 -6.576E-04:12 2.919E-07:13 
#C 2.6975419819E-08 19
3.300E00:1 3.300E00:2 3.300E00:3 3.300E00:4 3.300E00:5 3.229E00:6 3.985E00:7 -3.310E-12:8 3.310E-12:9 1.803E-19:a 0.000E00:b 
1.498E-04:c -4.436E-12:d -1.498E-04:e 0.000E00:f 3.860E-03:10 -3.203E-03:11 -6.576E-04:12 2.919E-07:13 
#C 2.7975474000E-08 19
3.300E00:1 3.300E00:2 3.300E00:3 3.300E00:4 3.300E00:5 3.229E00:6 3.985E00:7 -3.310E-12:8 3.310E-12:9 1.803E-19:a 0.000E00:b 
1.498E-04:c -4.436E-12:d -1.498E-04:e 0.000E00:f 3.860E-03:10 -3.203E-03:11 -6.576E-04:12 2.919E-07:13 
#C 2.8975528181E-08 19
3.300E00:1 3.300E00:2 3.300E00:3 3.300E00:4 3.300E00:5 3.229E00:6 3.985E00:7 -3.310E-12:8 3.310E-12:9 1.803E-19:a 0.000E00:b 
1.498E-04:c -4.436E-12:d -1.498E-04:e 0.000E00:f 3.860E-03:10 -3.203E-03:11 -6.576E-04:12 2.919E-07:13 
#C 2.9975582361E-08 19
3.300E00:1 3.300E00:2 3.300E00:3 3.300E00:4 3.300E00:5 3.229E00:6 3.985E00:7 -3.310E-12:8 3.310E-12:9 1.803E-19:a 0.000E00:b 
1.498E-04:c -4.436E-12:d -1.498E-04:e 0.000E00:f 3.860E-03:10 -3.203E-03:11 -6.576E-04:12 2.919E-07:13 
#C 3.0975636542E-08 19
3.300E00:1 3.300E00:2 3.300E00:3 3.300E00:4 3.300E00:5 3.229E00:6 3.985E00:7 -3.310E-12:8 3.310E-12:9 1.803E-19:a 0.000E00:b 
1.498E-04:c -4.436E-12:d -1.498E-04:e 0.000E00:f 3.860E-03:10 -3.203E-03:11 -6.576E-04:12 2.919E-07:13 
#C 3.1975690723E-08 19
3.300E00:1 3.300E00:2 3.300E00:3 3.300E00:4 3.300E00:5 3.229E00:6 3.985E00:7 -3.310E-12:8 3.310E-12:9 1.803E-19:a 0.000E00:b 
1.498E-04:c -4.436E-12:d -1.498E-04:e 0.000E00:f 3.860E-03:10 -3.203E-03:11 -6.576E-04:12 2.919E-07:13 
#C 3.2975744903E-08 19
