#H
SOURCE='PSPICE' VERSION='PSpice 16.0.0 (July 2006)'
TITLE='**** 05/18/10 12:08:24 ******* PSpice 16.0.0 (July 2006) ****** ID# 0 ********'
SUBTITLE=''
TIME='16:02:59' DATE='05/30/10' TEMPERATURE='2.700E01'
ANALYSIS='Transient Analysis' SERIALNO='61413'
ALLVALUES='NO' COMPLEXVALUES='NO' NODES='19'
SWEEPVAR='Time' SWEEPMODE='VAR_STEP'
XBEGIN='0.000E00' XEND='5.000E-08'
FORMAT='0 VOLTSorAMPS;EFLOAT : NODEorBRANCH;NODE  '
DGTLDATA='NO' 
#N 
'V(C_F_D_LSB)' 'V(C_F_D_2SB)' 'V(C_F_D_3SB)' 'V(C_F_D_4SB)' 'V(C_F_D_5SB)' 'V(C_F_D_MSB)' 'V(C_F_C62_NDNEG)' 'ID(M_C_F_C62_M3)' 
'IB(M_C_F_C62_M3)' 'IS(M_C_F_C62_M3)' 'IG(M_C_F_C62_M3)' 'ID(M_C_F_C62_M4)' 'IB(M_C_F_C62_M4)' 'IS(M_C_F_C62_M4)' 'IG(M_C_F_C62_M4)' 
'ID(M_C_F_C62_M1)' 'IB(M_C_F_C62_M1)' 'IS(M_C_F_C62_M1)' 'IG(M_C_F_C62_M1)' 
#C 0.0000000000E00 19
3.300E00:1 3.300E00:2 3.300E00:3 3.300E00:4 3.300E00:5 3.229E00:6 3.989E00:7 3.764E-03:8 -3.764E-03:9 -1.001E-08:a 0.000E00:b 
-2.948E-12:c 2.948E-12:d 2.819E-20:e 0.000E00:f 2.360E-04:10 -4.371E-12:11 -2.360E-04:12 0.000E00:13 
#C 1.0000000000E-11 19
3.300E00:1 3.300E00:2 3.300E00:3 3.300E00:4 3.300E00:5 3.229E00:6 3.989E00:7 3.764E-03:8 -3.764E-03:9 -1.001E-08:a -2.813E-12:b 
-3.675E-12:c 1.406E-11:d 1.474E-13:e -1.053E-11:f 2.360E-04:10 -8.662E-12:11 -2.360E-04:12 -2.709E-11:13 
#C 2.0000000000E-11 19
3.300E00:1 3.300E00:2 3.300E00:3 3.300E00:4 3.300E00:5 3.229E00:6 3.989E00:7 3.764E-03:8 -3.764E-03:9 -1.001E-08:a -2.813E-12:b 
-3.675E-12:c 1.406E-11:d 1.474E-13:e -1.053E-11:f 2.360E-04:10 -8.662E-12:11 -2.360E-04:12 -2.709E-11:13 
#C 4.0000152290E-11 19
3.300E00:1 3.300E00:2 3.300E00:3 3.300E00:4 3.300E00:5 3.229E00:6 3.989E00:7 3.764E-03:8 -3.764E-03:9 -1.001E-08:a 0.000E00:b 
-2.948E-12:c 2.948E-12:d 2.819E-20:e 0.000E00:f 2.360E-04:10 -4.371E-12:11 -2.360E-04:12 0.000E00:13 
#C 8.0000456870E-11 19
3.300E00:1 3.300E00:2 3.300E00:3 3.300E00:4 3.300E00:5 3.229E00:6 3.989E00:7 3.764E-03:8 -3.764E-03:9 -1.001E-08:a 0.000E00:b 
-2.948E-12:c 2.948E-12:d 2.819E-20:e 0.000E00:f 2.360E-04:10 -4.371E-12:11 -2.360E-04:12 0.000E00:13 
#C 1.6000106603E-10 19
3.300E00:1 3.300E00:2 3.300E00:3 3.300E00:4 3.300E00:5 3.229E00:6 3.989E00:7 3.764E-03:8 -3.764E-03:9 -1.001E-08:a 0.000E00:b 
-2.948E-12:c 2.948E-12:d 2.819E-20:e 0.000E00:f 2.360E-04:10 -4.371E-12:11 -2.360E-04:12 0.000E00:13 
#C 3.2000228435E-10 19
3.300E00:1 3.300E00:2 3.300E00:3 3.300E00:4 3.300E00:5 3.229E00:6 3.989E00:7 3.764E-03:8 -3.764E-03:9 -1.001E-08:a 6.939E-18:b 
-2.948E-12:c 2.948E-12:d 3.498E-18:e 0.000E00:f 2.360E-04:10 -4.371E-12:11 -2.360E-04:12 0.000E00:13 
#C 6.4000472099E-10 19
3.300E00:1 3.300E00:2 3.300E00:3 3.300E00:4 3.300E00:5 3.229E00:6 3.989E00:7 3.764E-03:8 -3.764E-03:9 -1.001E-08:a -6.939E-18:b 
-2.948E-12:c 2.948E-12:d -3.441E-18:e 0.000E00:f 2.360E-04:10 -4.371E-12:11 -2.360E-04:12 0.000E00:13 
#C 1.2800095943E-09 19
3.300E00:1 3.300E00:2 3.300E00:3 3.300E00:4 3.300E00:5 3.229E00:6 3.989E00:7 3.764E-03:8 -3.764E-03:9 -1.001E-08:a 6.939E-18:b 
-2.948E-12:c 2.948E-12:d 3.498E-18:e 0.000E00:f 2.360E-04:10 -4.371E-12:11 -2.360E-04:12 0.000E00:13 
#C 2.0000000001E-09 19
3.300E00:1 3.300E00:2 3.300E00:3 3.300E00:4 3.300E00:5 3.229E00:6 3.989E00:7 3.764E-03:8 -3.764E-03:9 -1.001E-08:a -6.939E-18:b 
-2.948E-12:c 2.948E-12:d -3.441E-18:e 0.000E00:f 2.360E-04:10 -4.371E-12:11 -2.360E-04:12 0.000E00:13 
#C 2.0200000001E-09 19
3.300E00:1 3.300E00:2 3.300E00:3 3.300E00:4 3.300E00:5 3.229E00:6 3.986E00:7 3.337E-03:8 -3.054E-03:9 1.545E-05:a -2.978E-04:b 
1.530E-05:c 1.155E-03:d 1.536E-05:e -1.186E-03:f 2.178E-04:10 3.405E-06:11 -2.340E-04:12 1.284E-05:13 
#C 2.0600003047E-09 19
3.300E00:1 3.300E00:2 3.300E00:3 3.300E00:4 3.300E00:5 3.229E00:6 3.978E00:7 2.395E-03:8 -2.005E-03:9 2.126E-05:a -4.120E-04:b 
2.141E-05:c 1.603E-03:d 2.146E-05:e -1.646E-03:f 2.178E-04:10 3.405E-06:11 -2.340E-04:12 1.284E-05:13 
#C 2.1400009138E-09 19
3.300E00:1 3.300E00:2 3.300E00:3 3.300E00:4 3.300E00:5 3.229E00:6 3.963E00:7 1.344E-03:8 -1.046E-03:9 1.581E-05:a -3.146E-04:b 
1.603E-05:c 1.156E-03:d 1.597E-05:e -1.188E-03:f 2.008E-04:10 6.716E-06:11 -2.340E-04:12 2.650E-05:13 
#C 2.2000000001E-09 19
3.300E00:1 3.300E00:2 3.300E00:3 3.300E00:4 3.300E00:5 3.229E00:6 3.954E00:7 9.652E-04:8 -7.301E-04:9 1.255E-05:a -2.477E-04:b 
1.258E-05:c 9.222E-04:d 1.259E-05:e -9.474E-04:f 2.404E-04:10 -1.270E-06:11 -2.309E-04:12 -8.213E-06:13 
#C 2.2160001219E-09 19
3.300E00:1 3.300E00:2 3.300E00:3 3.300E00:4 3.300E00:5 3.229E00:6 3.952E00:7 9.037E-04:8 -7.034E-04:9 1.058E-05:a -2.108E-04:b 
1.430E-05:c 1.033E-03:d 1.428E-05:e -1.062E-03:f 2.205E-04:10 2.723E-06:11 -2.324E-04:12 9.146E-06:13 
#C 2.2480026939E-09 19
3.300E00:1 3.300E00:2 3.300E00:3 3.300E00:4 3.300E00:5 3.229E00:6 3.950E00:7 8.123E-04:8 -6.499E-04:9 8.556E-06:a -1.709E-04:b 
6.814E-06:c 4.910E-04:d 6.806E-06:e -5.046E-04:f 2.205E-04:10 2.723E-06:11 -2.324E-04:12 9.146E-06:13 
#C 2.3120078378E-09 19
3.300E00:1 3.300E00:2 3.300E00:3 3.300E00:4 3.300E00:5 3.229E00:6 3.947E00:7 7.353E-04:8 -7.169E-04:9 9.441E-07:a -1.935E-05:b 
2.173E-06:c 1.551E-04:d 2.167E-06:e -1.594E-04:f 2.508E-04:10 -3.177E-06:11 -2.327E-04:12 -1.493E-05:13 
#C 2.4400181257E-09 19
3.300E00:1 3.300E00:2 3.300E00:3 3.300E00:4 3.300E00:5 3.229E00:6 3.949E00:7 7.934E-04:8 -8.923E-04:9 -5.213E-06:a 1.041E-04:b 
-5.458E-06:c -3.940E-04:d -5.476E-06:e 4.049E-04:f 2.386E-04:10 -8.171E-07:11 -2.325E-04:12 -5.301E-06:13 
#C 2.6960387015E-09 19
3.300E00:1 3.300E00:2 3.300E00:3 3.300E00:4 3.300E00:5 3.229E00:6 3.966E00:7 1.531E-03:8 -1.680E-03:9 -7.996E-06:a 1.574E-04:b 
-7.660E-06:c -5.608E-04:d -7.659E-06:e 5.762E-04:f 2.560E-04:10 -3.853E-06:11 -2.370E-04:12 -1.508E-05:13 
#C 3.2080798530E-09 19
3.300E00:1 3.300E00:2 3.300E00:3 3.300E00:4 3.300E00:5 3.229E00:6 3.986E00:7 3.251E-03:8 -3.241E-03:9 4.208E-07:a -1.021E-05:b 
-1.007E-08:c -7.470E-06:d -5.318E-10:e 7.480E-06:f 2.240E-04:10 2.385E-06:11 -2.369E-04:12 1.045E-05:13 
#C 3.8671768391E-09 19
3.300E00:1 3.300E00:2 3.300E00:3 3.300E00:4 3.300E00:5 3.229E00:6 3.988E00:7 3.547E-03:8 -3.569E-03:9 -1.120E-06:a 2.330E-05:b 
-6.349E-07:c -4.108E-05:d -6.457E-07:e 4.237E-05:f 2.463E-04:10 -1.999E-06:11 -2.363E-04:12 -8.012E-06:13 
#C 4.8672310197E-09 19
3.300E00:1 3.300E00:2 3.300E00:3 3.300E00:4 3.300E00:5 3.229E00:6 3.989E00:7 3.742E-03:8 -3.743E-03:9 -2.556E-08:a 2.928E-07:b 
-4.007E-08:c -2.925E-06:d -3.845E-08:e 3.004E-06:f 2.354E-04:10 1.928E-07:11 -2.368E-04:12 1.222E-06:13 
#C 5.8672852003E-09 19
3.300E00:1 3.300E00:2 3.300E00:3 3.300E00:4 3.300E00:5 3.229E00:6 3.989E00:7 3.770E-03:8 -3.770E-03:9 2.982E-08:a -7.671E-07:b 
5.431E-08:c 4.088E-06:d 5.431E-08:e -4.196E-06:f 2.354E-04:10 1.928E-07:11 -2.368E-04:12 1.222E-06:13 
#C 6.8673393809E-09 19
3.300E00:1 3.300E00:2 3.300E00:3 3.300E00:4 3.300E00:5 3.229E00:6 3.989E00:7 3.767E-03:8 -3.768E-03:9 -4.579E-08:a 6.894E-07:b 
5.431E-08:c 4.088E-06:d 5.431E-08:e -4.196E-06:f 2.354E-04:10 1.928E-07:11 -2.368E-04:12 1.222E-06:13 
#C 7.8673935616E-09 19
3.300E00:1 3.300E00:2 3.300E00:3 3.300E00:4 3.300E00:5 3.229E00:6 3.989E00:7 3.767E-03:8 -3.768E-03:9 -4.579E-08:a 6.894E-07:b 
5.431E-08:c 4.088E-06:d 5.431E-08:e -4.196E-06:f 2.354E-04:10 1.928E-07:11 -2.368E-04:12 1.222E-06:13 
#C 8.8674477422E-09 19
3.300E00:1 3.300E00:2 3.300E00:3 3.300E00:4 3.300E00:5 3.229E00:6 3.989E00:7 3.767E-03:8 -3.768E-03:9 -4.579E-08:a 6.894E-07:b 
5.431E-08:c 4.088E-06:d 5.431E-08:e -4.196E-06:f 2.354E-04:10 1.928E-07:11 -2.368E-04:12 1.222E-06:13 
#C 9.8675019228E-09 19
3.300E00:1 3.300E00:2 3.300E00:3 3.300E00:4 3.300E00:5 3.229E00:6 3.989E00:7 3.767E-03:8 -3.768E-03:9 -4.579E-08:a 6.894E-07:b 
5.431E-08:c 4.088E-06:d 5.431E-08:e -4.196E-06:f 2.354E-04:10 1.928E-07:11 -2.368E-04:12 1.222E-06:13 
#C 1.0867556103E-08 19
3.300E00:1 3.300E00:2 3.300E00:3 3.300E00:4 3.300E00:5 3.229E00:6 3.989E00:7 3.767E-03:8 -3.768E-03:9 -4.579E-08:a 6.894E-07:b 
5.431E-08:c 4.088E-06:d 5.431E-08:e -4.196E-06:f 2.354E-04:10 1.928E-07:11 -2.368E-04:12 1.222E-06:13 
#C 1.1867610284E-08 19
3.300E00:1 3.300E00:2 3.300E00:3 3.300E00:4 3.300E00:5 3.229E00:6 3.989E00:7 3.767E-03:8 -3.768E-03:9 -4.579E-08:a 6.894E-07:b 
5.431E-08:c 4.088E-06:d 5.431E-08:e -4.196E-06:f 2.354E-04:10 1.928E-07:11 -2.368E-04:12 1.222E-06:13 
#C 1.2867664465E-08 19
3.300E00:1 3.300E00:2 3.300E00:3 3.300E00:4 3.300E00:5 3.229E00:6 3.989E00:7 3.767E-03:8 -3.768E-03:9 -4.579E-08:a 6.894E-07:b 
5.431E-08:c 4.088E-06:d 5.431E-08:e -4.196E-06:f 2.354E-04:10 1.928E-07:11 -2.368E-04:12 1.222E-06:13 
#C 1.3867718645E-08 19
3.300E00:1 3.300E00:2 3.300E00:3 3.300E00:4 3.300E00:5 3.229E00:6 3.989E00:7 3.767E-03:8 -3.768E-03:9 -4.579E-08:a 6.894E-07:b 
5.431E-08:c 4.088E-06:d 5.431E-08:e -4.196E-06:f 2.354E-04:10 1.928E-07:11 -2.368E-04:12 1.222E-06:13 
#C 1.4867772826E-08 19
3.300E00:1 3.300E00:2 3.300E00:3 3.300E00:4 3.300E00:5 3.229E00:6 3.989E00:7 3.767E-03:8 -3.768E-03:9 -4.579E-08:a 6.894E-07:b 
5.431E-08:c 4.088E-06:d 5.431E-08:e -4.196E-06:f 2.354E-04:10 1.928E-07:11 -2.368E-04:12 1.222E-06:13 
#C 1.5000000000E-08 19
3.300E00:1 3.300E00:2 3.300E00:3 3.300E00:4 3.300E00:5 3.229E00:6 3.989E00:7 3.764E-03:8 -3.762E-03:9 6.549E-08:a -1.453E-06:b 
-5.432E-08:c -4.088E-06:d -5.431E-08:e 4.196E-06:f 2.368E-04:10 -1.928E-07:11 -2.354E-04:12 -1.222E-06:13 
#C 1.5100000000E-08 19
3.300E00:1 3.300E00:2 3.300E00:3 3.300E00:4 3.300E00:5 3.229E00:6 3.989E00:7 3.765E-03:8 -3.765E-03:9 -2.059E-08:a 2.035E-07:b 
-2.948E-12:c 2.948E-12:d 2.815E-20:e 0.000E00:f 2.361E-04:10 -4.371E-12:11 -2.361E-04:12 0.000E00:13 
#C 1.5264587982E-08 19
3.300E00:1 3.300E00:2 3.300E00:3 3.300E00:4 3.300E00:5 3.229E00:6 3.989E00:7 3.768E-03:8 -3.768E-03:9 -2.059E-08:a 2.035E-07:b 
-2.948E-12:c 2.948E-12:d 2.815E-20:e 0.000E00:f 2.361E-04:10 -4.371E-12:11 -2.361E-04:12 0.000E00:13 
#C 1.5305734978E-08 19
3.300E00:1 3.300E00:2 3.300E00:3 3.300E00:4 3.300E00:5 3.229E00:6 3.989E00:7 3.768E-03:8 -3.769E-03:9 -2.059E-08:a 2.035E-07:b 
-2.948E-12:c 2.948E-12:d 2.815E-20:e 0.000E00:f 2.361E-04:10 -4.371E-12:11 -2.361E-04:12 0.000E00:13 
#C 1.5388028969E-08 19
3.300E00:1 3.300E00:2 3.300E00:3 3.300E00:4 3.300E00:5 3.229E00:6 3.989E00:7 3.770E-03:8 -3.770E-03:9 -2.059E-08:a 2.035E-07:b 
-2.948E-12:c 2.948E-12:d 5.232E-18:e 6.939E-18:f 2.361E-04:10 -4.371E-12:11 -2.361E-04:12 -1.110E-16:13 
#C 1.5408602466E-08 19
3.300E00:1 3.300E00:2 3.300E00:3 3.300E00:4 3.300E00:5 3.229E00:6 3.989E00:7 3.770E-03:8 -3.770E-03:9 -2.059E-08:a 2.035E-07:b 
-2.948E-12:c 2.948E-12:d -1.656E-17:e -6.939E-18:f 2.361E-04:10 -4.371E-12:11 -2.361E-04:12 2.151E-16:13 
#C 1.5449749462E-08 19
3.300E00:1 3.300E00:2 3.300E00:3 3.300E00:4 3.300E00:5 3.229E00:6 3.989E00:7 3.771E-03:8 -3.771E-03:9 -2.059E-08:a 2.035E-07:b 
-2.948E-12:c 2.948E-12:d 1.044E-17:e -1.388E-17:f 2.361E-04:10 -4.371E-12:11 -2.361E-04:12 -1.110E-16:13 
#C 1.5532043453E-08 19
3.300E00:1 3.300E00:2 3.300E00:3 3.300E00:4 3.300E00:5 3.229E00:6 3.989E00:7 3.767E-03:8 -3.765E-03:9 5.158E-08:a -1.185E-06:b 
-2.948E-12:c 2.948E-12:d -8.392E-19:e 0.000E00:f 2.361E-04:10 -4.371E-12:11 -2.361E-04:12 0.000E00:13 
#C 1.5552616951E-08 19
3.300E00:1 3.300E00:2 3.300E00:3 3.300E00:4 3.300E00:5 3.229E00:6 3.989E00:7 3.766E-03:8 -3.765E-03:9 2.271E-08:a -6.294E-07:b 
-2.948E-12:c 2.948E-12:d -1.656E-17:e -6.939E-18:f 2.361E-04:10 -4.371E-12:11 -2.361E-04:12 2.151E-16:13 
#C 1.5593763946E-08 19
3.300E00:1 3.300E00:2 3.300E00:3 3.300E00:4 3.300E00:5 3.229E00:6 3.989E00:7 3.764E-03:8 -3.763E-03:9 2.272E-08:a -6.294E-07:b 
-2.948E-12:c 2.948E-12:d 1.044E-17:e -1.388E-17:f 2.361E-04:10 -4.371E-12:11 -2.361E-04:12 -1.110E-16:13 
#C 1.5676057937E-08 19
3.300E00:1 3.300E00:2 3.300E00:3 3.300E00:4 3.300E00:5 3.229E00:6 3.989E00:7 3.766E-03:8 -3.766E-03:9 -5.874E-08:a 9.373E-07:b 
-2.948E-12:c 2.948E-12:d -8.392E-19:e 0.000E00:f 2.361E-04:10 -4.371E-12:11 -2.361E-04:12 0.000E00:13 
#C 1.5753311145E-08 19
3.300E00:1 3.300E00:2 3.300E00:3 3.300E00:4 3.300E00:5 3.229E00:6 3.989E00:7 3.767E-03:8 -3.768E-03:9 -2.616E-08:a 3.106E-07:b 
-2.948E-12:c 2.948E-12:d -3.875E-18:e -5.204E-18:f 2.361E-04:10 -4.371E-12:11 -2.361E-04:12 2.776E-17:13 
#C 1.5907817560E-08 19
3.300E00:1 3.300E00:2 3.300E00:3 3.300E00:4 3.300E00:5 3.229E00:6 3.989E00:7 3.766E-03:8 -3.765E-03:9 1.387E-08:a -4.593E-07:b 
-2.948E-12:c 2.948E-12:d -5.610E-18:e 0.000E00:f 2.361E-04:10 -4.371E-12:11 -2.361E-04:12 5.551E-17:13 
#C 1.6000000000E-08 19
3.300E00:1 3.300E00:2 3.300E00:3 3.300E00:4 3.300E00:5 3.229E00:6 3.989E00:7 3.765E-03:8 -3.764E-03:9 -2.141E-09:a -1.513E-07:b 
-2.948E-12:c 2.948E-12:d 3.931E-18:e 2.602E-18:f 2.361E-04:10 -4.371E-12:11 -2.361E-04:12 -2.776E-17:13 
#C 1.6023380853E-08 19
3.300E00:1 3.300E00:2 3.300E00:3 3.300E00:4 3.300E00:5 3.229E00:6 3.989E00:7 3.764E-03:8 -3.764E-03:9 -2.141E-09:a -1.513E-07:b 
-2.948E-12:c 2.948E-12:d 2.815E-20:e 0.000E00:f 2.361E-04:10 -4.371E-12:11 -2.361E-04:12 0.000E00:13 
#C 1.6070144888E-08 19
3.300E00:1 3.300E00:2 3.300E00:3 3.300E00:4 3.300E00:5 3.229E00:6 3.989E00:7 3.764E-03:8 -3.764E-03:9 -2.141E-09:a -1.513E-07:b 
-2.948E-12:c 2.948E-12:d 2.815E-20:e 0.000E00:f 2.361E-04:10 -4.371E-12:11 -2.361E-04:12 0.000E00:13 
#C 1.6163672958E-08 19
3.300E00:1 3.300E00:2 3.300E00:3 3.300E00:4 3.300E00:5 3.229E00:6 3.989E00:7 3.763E-03:8 -3.763E-03:9 -2.141E-09:a -1.513E-07:b 
-2.948E-12:c 2.948E-12:d -1.707E-18:e 1.388E-17:f 2.361E-04:10 -4.371E-12:11 -2.361E-04:12 -8.327E-17:13 
#C 1.6350729097E-08 19
3.300E00:1 3.300E00:2 3.300E00:3 3.300E00:4 3.300E00:5 3.229E00:6 3.989E00:7 3.765E-03:8 -3.765E-03:9 -2.877E-08:a 3.609E-07:b 
-2.948E-12:c 2.948E-12:d 3.498E-18:e -3.469E-18:f 2.361E-04:10 -4.371E-12:11 -2.361E-04:12 2.776E-17:13 
#C 1.6724841375E-08 19
3.300E00:1 3.300E00:2 3.300E00:3 3.300E00:4 3.300E00:5 3.229E00:6 3.989E00:7 3.765E-03:8 -3.765E-03:9 -3.894E-09:a -1.176E-07:b 
-2.948E-12:c 2.948E-12:d 2.815E-20:e -1.735E-18:f 2.361E-04:10 -4.371E-12:11 -2.361E-04:12 6.939E-18:13 
#C 1.7473065931E-08 19
3.300E00:1 3.300E00:2 3.300E00:3 3.300E00:4 3.300E00:5 3.229E00:6 3.989E00:7 3.764E-03:8 -3.764E-03:9 -9.584E-09:a -8.162E-09:b 
-2.948E-12:c 2.948E-12:d -1.887E-19:e 8.674E-19:f 2.361E-04:10 -4.371E-12:11 -2.361E-04:12 -6.939E-18:13 
#C 1.8473120112E-08 19
3.300E00:1 3.300E00:2 3.300E00:3 3.300E00:4 3.300E00:5 3.229E00:6 3.989E00:7 3.764E-03:8 -3.764E-03:9 -9.584E-09:a -8.162E-09:b 
-2.948E-12:c 2.948E-12:d 2.815E-20:e 0.000E00:f 2.361E-04:10 -4.371E-12:11 -2.361E-04:12 1.735E-18:13 
#C 1.9000000000E-08 19
3.300E00:1 3.300E00:2 3.300E00:3 3.300E00:4 3.300E00:5 3.229E00:6 3.989E00:7 3.763E-03:8 -3.763E-03:9 -9.584E-09:a -8.162E-09:b 
-2.948E-12:c 2.948E-12:d 6.245E-19:e -9.758E-19:f 2.361E-04:10 -4.371E-12:11 -2.361E-04:12 1.735E-18:13 
#C 1.9100000000E-08 19
3.300E00:1 3.300E00:2 3.300E00:3 3.300E00:4 3.300E00:5 3.229E00:6 3.989E00:7 3.763E-03:8 -3.763E-03:9 -9.583E-09:a -8.162E-09:b 
-2.948E-12:c 2.948E-12:d 2.815E-20:e 0.000E00:f 2.361E-04:10 -4.371E-12:11 -2.361E-04:12 0.000E00:13 
#C 1.9300001523E-08 19
3.300E00:1 3.300E00:2 3.300E00:3 3.300E00:4 3.300E00:5 3.229E00:6 3.989E00:7 3.763E-03:8 -3.763E-03:9 -9.583E-09:a -8.162E-09:b 
-2.948E-12:c 2.948E-12:d 2.815E-20:e 0.000E00:f 2.361E-04:10 -4.371E-12:11 -2.361E-04:12 0.000E00:13 
#C 1.9700004569E-08 19
3.300E00:1 3.300E00:2 3.300E00:3 3.300E00:4 3.300E00:5 3.229E00:6 3.989E00:7 3.763E-03:8 -3.763E-03:9 -9.583E-09:a -8.162E-09:b 
-2.948E-12:c 2.948E-12:d 1.980E-18:e -1.735E-18:f 2.361E-04:10 -4.371E-12:11 -2.361E-04:12 0.000E00:13 
#C 2.0000000000E-08 19
3.300E00:1 3.300E00:2 3.300E00:3 3.300E00:4 3.300E00:5 3.229E00:6 3.989E00:7 3.763E-03:8 -3.763E-03:9 -9.583E-09:a -8.162E-09:b 
-2.948E-12:c 2.948E-12:d 6.245E-19:e -8.674E-19:f 2.361E-04:10 -4.371E-12:11 -2.361E-04:12 1.388E-17:13 
#C 2.0065015629E-08 19
3.300E00:1 3.300E00:2 3.300E00:3 3.300E00:4 3.300E00:5 3.229E00:6 3.989E00:7 3.763E-03:8 -3.763E-03:9 -9.583E-09:a -8.162E-09:b 
-2.948E-12:c 2.948E-12:d 2.815E-20:e 0.000E00:f 2.361E-04:10 -4.371E-12:11 -2.361E-04:12 0.000E00:13 
#C 2.0195051544E-08 19
3.300E00:1 3.300E00:2 3.300E00:3 3.300E00:4 3.300E00:5 3.229E00:6 3.989E00:7 3.763E-03:8 -3.763E-03:9 -9.583E-09:a -8.162E-09:b 
-2.948E-12:c 2.948E-12:d 2.815E-20:e 0.000E00:f 2.361E-04:10 -4.371E-12:11 -2.361E-04:12 0.000E00:13 
#C 2.0455123372E-08 19
3.300E00:1 3.300E00:2 3.300E00:3 3.300E00:4 3.300E00:5 3.229E00:6 3.989E00:7 3.762E-03:8 -3.762E-03:9 -9.583E-09:a -8.162E-09:b 
-2.948E-12:c 2.948E-12:d 1.329E-18:e -1.735E-18:f 2.361E-04:10 -4.371E-12:11 -2.361E-04:12 -1.388E-17:13 
#C 2.0975267030E-08 19
3.300E00:1 3.300E00:2 3.300E00:3 3.300E00:4 3.300E00:5 3.229E00:6 3.989E00:7 3.762E-03:8 -3.762E-03:9 -9.583E-09:a -8.162E-09:b 
-2.948E-12:c 2.948E-12:d 4.618E-19:e -8.674E-19:f 2.361E-04:10 -4.371E-12:11 -2.361E-04:12 6.939E-18:13 
#C 2.1975321211E-08 19
3.300E00:1 3.300E00:2 3.300E00:3 3.300E00:4 3.300E00:5 3.229E00:6 3.989E00:7 3.761E-03:8 -3.761E-03:9 -9.583E-09:a -8.162E-09:b 
-2.948E-12:c 2.948E-12:d -4.597E-19:e -4.337E-19:f 2.361E-04:10 -4.371E-12:11 -2.361E-04:12 -3.469E-18:13 
#C 2.2975375392E-08 19
3.300E00:1 3.300E00:2 3.300E00:3 3.300E00:4 3.300E00:5 3.229E00:6 3.989E00:7 3.761E-03:8 -3.761E-03:9 -9.583E-09:a -8.162E-09:b 
-2.948E-12:c 2.948E-12:d -4.597E-19:e -4.337E-19:f 2.361E-04:10 -4.371E-12:11 -2.361E-04:12 -3.469E-18:13 
#C 2.3975429572E-08 19
3.300E00:1 3.300E00:2 3.300E00:3 3.300E00:4 3.300E00:5 3.229E00:6 3.989E00:7 3.761E-03:8 -3.761E-03:9 -9.583E-09:a -8.162E-09:b 
-2.948E-12:c 2.948E-12:d -4.597E-19:e -4.337E-19:f 2.361E-04:10 -4.371E-12:11 -2.361E-04:12 -3.469E-18:13 
#C 2.4975483753E-08 19
3.300E00:1 3.300E00:2 3.300E00:3 3.300E00:4 3.300E00:5 3.229E00:6 3.989E00:7 3.761E-03:8 -3.761E-03:9 -9.583E-09:a -8.162E-09:b 
-2.948E-12:c 2.948E-12:d -4.597E-19:e -4.337E-19:f 2.361E-04:10 -4.371E-12:11 -2.361E-04:12 -3.469E-18:13 
#C 2.5975537934E-08 19
3.300E00:1 3.300E00:2 3.300E00:3 3.300E00:4 3.300E00:5 3.229E00:6 3.989E00:7 3.761E-03:8 -3.761E-03:9 -9.583E-09:a -8.162E-09:b 
-2.948E-12:c 2.948E-12:d -4.597E-19:e -4.337E-19:f 2.361E-04:10 -4.371E-12:11 -2.361E-04:12 -3.469E-18:13 
#C 2.6975592114E-08 19
3.300E00:1 3.300E00:2 3.300E00:3 3.300E00:4 3.300E00:5 3.229E00:6 3.989E00:7 3.761E-03:8 -3.761E-03:9 -9.583E-09:a -8.162E-09:b 
-2.948E-12:c 2.948E-12:d -4.597E-19:e -4.337E-19:f 2.361E-04:10 -4.371E-12:11 -2.361E-04:12 -3.469E-18:13 
#C 2.7975646295E-08 19
3.300E00:1 3.300E00:2 3.300E00:3 3.300E00:4 3.300E00:5 3.229E00:6 3.989E00:7 3.761E-03:8 -3.761E-03:9 -9.583E-09:a -8.162E-09:b 
-2.948E-12:c 2.948E-12:d -4.597E-19:e -4.337E-19:f 2.361E-04:10 -4.371E-12:11 -2.361E-04:12 -3.469E-18:13 
#C 2.8975700475E-08 19
3.300E00:1 3.300E00:2 3.300E00:3 3.300E00:4 3.300E00:5 3.229E00:6 3.989E00:7 3.761E-03:8 -3.761E-03:9 -9.583E-09:a -8.162E-09:b 
-2.948E-12:c 2.948E-12:d -4.597E-19:e -4.337E-19:f 2.361E-04:10 -4.371E-12:11 -2.361E-04:12 -3.469E-18:13 
#C 2.9975754656E-08 19
3.300E00:1 3.300E00:2 3.300E00:3 3.300E00:4 3.300E00:5 3.229E00:6 3.989E00:7 3.761E-03:8 -3.761E-03:9 -1.043E-08:a 8.162E-09:b 
-2.948E-12:c 2.948E-12:d 5.160E-19:e 4.337E-19:f 2.361E-04:10 -4.371E-12:11 -2.361E-04:12 3.469E-18:13 
#C 3.0975808837E-08 19
3.300E00:1 3.300E00:2 3.300E00:3 3.300E00:4 3.300E00:5 3.229E00:6 3.989E00:7 3.761E-03:8 -3.761E-03:9 -1.001E-08:a -8.674E-19:b 
-2.948E-12:c 2.948E-12:d -2.606E-20:e -8.674E-19:f 2.361E-04:10 -4.371E-12:11 -2.361E-04:12 5.204E-18:13 
#C 3.1975863017E-08 19
3.300E00:1 3.300E00:2 3.300E00:3 3.300E00:4 3.300E00:5 3.229E00:6 3.989E00:7 3.761E-03:8 -3.761E-03:9 -1.001E-08:a -8.674E-19:b 
-2.948E-12:c 2.948E-12:d -2.606E-20:e -8.674E-19:f 2.361E-04:10 -4.371E-12:11 -2.361E-04:12 5.204E-18:13 
#C 3.2975917198E-08 19
3.300E00:1 3.300E00:2 3.300E00:3 3.300E00:4 3.300E00:5 3.229E00:6 3.989E00:7 3.761E-03:8 -3.761E-03:9 -1.001E-08:a -8.674E-19:b 
-2.948E-12:c 2.948E-12:d -2.606E-20:e -8.674E-19:f 2.361E-04:10 -4.371E-12:11 -2.361E-04:12 5.204E-18:13 
#C 3.3975971378E-08 19
