#H
SOURCE='PSPICE' VERSION='PSpice 16.0.0 (July 2006)'
TITLE='**** 05/18/10 12:08:24 ******* PSpice 16.0.0 (July 2006) ****** ID# 0 ********'
SUBTITLE=''
TIME='16:03:51' DATE='05/30/10' TEMPERATURE='2.700E01'
ANALYSIS='Transient Analysis' SERIALNO='61413'
ALLVALUES='NO' COMPLEXVALUES='NO' NODES='19'
SWEEPVAR='Time' SWEEPMODE='VAR_STEP'
XBEGIN='0.000E00' XEND='5.000E-08'
FORMAT='0 VOLTSorAMPS;EFLOAT : NODEorBRANCH;NODE  '
DGTLDATA='NO' 
#N 
'V(C_F_D_LSB)' 'V(C_F_D_2SB)' 'V(C_F_D_3SB)' 'V(C_F_D_4SB)' 'V(C_F_D_5SB)' 'V(C_F_D_MSB)' 'V(C_F_C58_NDPOS)' 'ID(M_C_F_C58_M4)' 
'IB(M_C_F_C58_M4)' 'IS(M_C_F_C58_M4)' 'IG(M_C_F_C58_M4)' 'ID(M_C_F_C58_M2)' 'IB(M_C_F_C58_M2)' 'IS(M_C_F_C58_M2)' 'IG(M_C_F_C58_M2)' 
'ID(M_C_F_C58_M12)' 'IB(M_C_F_C58_M12)' 'IS(M_C_F_C58_M12)' 'IG(M_C_F_C58_M12)' 
#C 0.0000000000E00 19
3.300E00:1 3.300E00:2 3.300E00:3 3.300E00:4 3.300E00:5 3.229E00:6 3.988E00:7 3.720E-03:8 -3.560E-03:9 -1.601E-04:a 0.000E00:b 
2.803E-04:c -4.847E-12:d -2.803E-04:e 0.000E00:f -3.310E-12:10 3.310E-12:11 1.662E-19:12 0.000E00:13 
#C 1.0000000000E-11 19
3.300E00:1 3.300E00:2 3.300E00:3 3.300E00:4 3.300E00:5 3.229E00:6 3.988E00:7 3.720E-03:8 -3.560E-03:9 -1.601E-04:a -2.887E-15:b 
2.803E-04:c -4.811E-12:d -2.803E-04:e 6.661E-16:f -3.310E-12:10 3.280E-12:11 -5.272E-16:12 3.064E-14:13 
#C 2.0000000000E-11 19
3.300E00:1 3.300E00:2 3.300E00:3 3.300E00:4 3.300E00:5 3.229E00:6 3.988E00:7 3.720E-03:8 -3.560E-03:9 -1.601E-04:a -2.887E-15:b 
2.803E-04:c -4.811E-12:d -2.803E-04:e 6.661E-16:f -3.310E-12:10 3.280E-12:11 -5.272E-16:12 3.064E-14:13 
#C 4.0000152290E-11 19
3.300E00:1 3.300E00:2 3.300E00:3 3.300E00:4 3.300E00:5 3.229E00:6 3.988E00:7 3.720E-03:8 -3.560E-03:9 -1.601E-04:a 0.000E00:b 
2.803E-04:c -4.847E-12:d -2.803E-04:e 0.000E00:f -3.310E-12:10 3.310E-12:11 1.662E-19:12 0.000E00:13 
#C 8.0000456870E-11 19
3.300E00:1 3.300E00:2 3.300E00:3 3.300E00:4 3.300E00:5 3.229E00:6 3.988E00:7 3.720E-03:8 -3.560E-03:9 -1.601E-04:a 0.000E00:b 
2.803E-04:c -4.847E-12:d -2.803E-04:e 0.000E00:f -3.310E-12:10 3.310E-12:11 1.662E-19:12 0.000E00:13 
#C 1.6000106603E-10 19
3.300E00:1 3.300E00:2 3.300E00:3 3.300E00:4 3.300E00:5 3.229E00:6 3.988E00:7 3.720E-03:8 -3.560E-03:9 -1.601E-04:a 0.000E00:b 
2.803E-04:c -4.847E-12:d -2.803E-04:e 0.000E00:f -3.310E-12:10 3.310E-12:11 1.662E-19:12 0.000E00:13 
#C 3.2000228435E-10 19
3.300E00:1 3.300E00:2 3.300E00:3 3.300E00:4 3.300E00:5 3.229E00:6 3.988E00:7 3.720E-03:8 -3.560E-03:9 -1.601E-04:a 0.000E00:b 
2.803E-04:c -4.847E-12:d -2.803E-04:e 0.000E00:f -3.310E-12:10 3.310E-12:11 1.662E-19:12 0.000E00:13 
#C 6.4000472099E-10 19
3.300E00:1 3.300E00:2 3.300E00:3 3.300E00:4 3.300E00:5 3.229E00:6 3.988E00:7 3.720E-03:8 -3.560E-03:9 -1.601E-04:a 0.000E00:b 
2.803E-04:c -4.847E-12:d -2.803E-04:e 0.000E00:f -3.310E-12:10 3.310E-12:11 1.662E-19:12 0.000E00:13 
#C 1.2800095943E-09 19
3.300E00:1 3.300E00:2 3.300E00:3 3.300E00:4 3.300E00:5 3.229E00:6 3.988E00:7 3.720E-03:8 -3.560E-03:9 -1.601E-04:a 0.000E00:b 
2.803E-04:c -4.847E-12:d -2.803E-04:e 0.000E00:f -3.310E-12:10 3.310E-12:11 1.662E-19:12 0.000E00:13 
#C 2.0000000001E-09 19
3.300E00:1 3.300E00:2 3.300E00:3 3.300E00:4 3.300E00:5 3.229E00:6 3.988E00:7 3.720E-03:8 -3.560E-03:9 -1.601E-04:a 0.000E00:b 
2.803E-04:c -4.847E-12:d -2.803E-04:e 0.000E00:f -3.310E-12:10 3.310E-12:11 1.662E-19:12 0.000E00:13 
#C 2.0200000001E-09 19
3.300E00:1 3.300E00:2 3.300E00:3 3.300E00:4 3.300E00:5 3.229E00:6 3.987E00:7 3.516E-03:8 -3.398E-03:9 -2.501E-04:a 1.318E-04:b 
2.803E-04:c -4.847E-12:d -2.803E-04:e 0.000E00:f 2.124E-05:10 1.692E-03:11 2.250E-05:12 -1.736E-03:13 
#C 2.0600003047E-09 19
3.300E00:1 3.300E00:2 3.300E00:3 3.300E00:4 3.300E00:5 3.229E00:6 3.984E00:7 3.120E-03:8 -3.029E-03:9 -3.081E-04:a 2.179E-04:b 
2.696E-04:c 1.026E-05:d -2.799E-04:e 1.853E-08:f 3.411E-05:10 2.774E-03:11 3.696E-05:12 -2.845E-03:13 
#C 2.1400009138E-09 19
3.300E00:1 3.300E00:2 3.300E00:3 3.300E00:4 3.300E00:5 3.229E00:6 3.979E00:7 2.549E-03:8 -2.457E-03:9 -3.041E-04:a 2.120E-04:b 
2.696E-04:c 1.027E-05:d -2.799E-04:e 1.899E-08:f 3.411E-05:10 2.748E-03:11 3.696E-05:12 -2.819E-03:13 
#C 2.2000000001E-09 19
3.300E00:1 3.300E00:2 3.300E00:3 3.300E00:4 3.300E00:5 3.229E00:6 3.975E00:7 2.218E-03:8 -2.118E-03:9 -2.894E-04:a 1.895E-04:b 
2.821E-04:c -1.710E-06:d -2.805E-04:e 6.697E-08:f 3.411E-05:10 2.744E-03:11 3.696E-05:12 -2.816E-03:13 
#C 2.2160001219E-09 19
3.300E00:1 3.300E00:2 3.300E00:3 3.300E00:4 3.300E00:5 3.229E00:6 3.974E00:7 2.109E-03:8 -2.020E-03:9 -3.077E-04:a 2.191E-04:b 
2.759E-04:c 4.278E-06:d -2.802E-04:e 4.300E-08:f 3.411E-05:10 2.739E-03:11 3.696E-05:12 -2.810E-03:13 
#C 2.2480026939E-09 19
3.300E00:1 3.300E00:2 3.300E00:3 3.300E00:4 3.300E00:5 3.229E00:6 3.973E00:7 2.012E-03:8 -1.911E-03:9 -2.751E-04:a 1.744E-04:b 
2.759E-04:c 4.278E-06:d -2.802E-04:e 4.302E-08:f 3.411E-05:10 2.734E-03:11 3.696E-05:12 -2.805E-03:13 
#C 2.3120078378E-09 19
3.300E00:1 3.300E00:2 3.300E00:3 3.300E00:4 3.300E00:5 3.229E00:6 3.969E00:7 1.755E-03:8 -1.656E-03:9 -2.813E-04:a 1.818E-04:b 
2.758E-04:c 4.278E-06:d -2.802E-04:e 4.307E-08:f 1.801E-05:10 1.185E-03:11 1.614E-05:12 -1.219E-03:13 
#C 2.4400181257E-09 19
3.300E00:1 3.300E00:2 3.300E00:3 3.300E00:4 3.300E00:5 3.229E00:6 3.966E00:7 1.685E-03:8 -1.535E-03:9 -1.637E-04:a 1.370E-05:b 
2.758E-04:c 4.278E-06:d -2.802E-04:e 4.315E-08:f 4.611E-06:10 4.087E-04:11 5.612E-06:12 -4.189E-04:13 
#C 2.6960387015E-09 19
3.300E00:1 3.300E00:2 3.300E00:3 3.300E00:4 3.300E00:5 3.229E00:6 3.966E00:7 1.699E-03:8 -1.531E-03:9 -1.254E-04:a -4.241E-05:b 
2.824E-04:c -2.179E-06:d -2.803E-04:e 1.174E-07:f -6.695E-06:10 -5.503E-04:11 -7.484E-06:12 5.645E-04:13 
#C 3.2080798530E-09 19
3.300E00:1 3.300E00:2 3.300E00:3 3.300E00:4 3.300E00:5 3.229E00:6 3.975E00:7 2.326E-03:8 -2.148E-03:9 -1.094E-04:a -6.863E-05:b 
2.826E-04:c -2.143E-06:d -2.805E-04:e 6.735E-08:f -1.151E-05:10 -9.224E-04:11 -1.249E-05:12 9.464E-04:13 
#C 4.2081340336E-09 19
3.300E00:1 3.300E00:2 3.300E00:3 3.300E00:4 3.300E00:5 3.229E00:6 3.985E00:7 3.408E-03:8 -3.241E-03:9 -1.441E-04:a -2.250E-05:b 
2.811E-04:c -7.601E-07:d -2.804E-04:e 7.724E-09:f -3.409E-06:10 -2.653E-04:11 -3.482E-06:12 2.722E-04:13 
#C 5.2081882143E-09 19
3.300E00:1 3.300E00:2 3.300E00:3 3.300E00:4 3.300E00:5 3.229E00:6 3.988E00:7 3.773E-03:8 -3.614E-03:9 -1.626E-04:a 3.615E-06:b 
2.804E-04:c -3.172E-08:d -2.803E-04:e -1.004E-08:f 7.021E-07:10 6.000E-05:11 7.507E-07:12 -6.146E-05:13 
#C 6.2082423949E-09 19
3.300E00:1 3.300E00:2 3.300E00:3 3.300E00:4 3.300E00:5 3.229E00:6 3.988E00:7 3.772E-03:8 -3.613E-03:9 -1.635E-04:a 4.861E-06:b 
2.800E-04:c 3.040E-07:d -2.803E-04:e -6.891E-09:f 5.318E-07:10 4.466E-05:11 5.944E-07:12 -4.579E-05:13 
#C 7.2082965755E-09 19
3.300E00:1 3.300E00:2 3.300E00:3 3.300E00:4 3.300E00:5 3.229E00:6 3.988E00:7 3.772E-03:8 -3.613E-03:9 -1.635E-04:a 4.861E-06:b 
2.800E-04:c 3.040E-07:d -2.803E-04:e -6.891E-09:f 5.318E-07:10 4.466E-05:11 5.944E-07:12 -4.579E-05:13 
#C 8.2083507561E-09 19
3.300E00:1 3.300E00:2 3.300E00:3 3.300E00:4 3.300E00:5 3.229E00:6 3.988E00:7 3.719E-03:8 -3.558E-03:9 -1.586E-04:a -2.123E-06:b 
2.806E-04:c -3.040E-07:d -2.803E-04:e 6.891E-09:f -5.318E-07:10 -4.466E-05:11 -5.944E-07:12 4.579E-05:13 
#C 9.2084049367E-09 19
3.300E00:1 3.300E00:2 3.300E00:3 3.300E00:4 3.300E00:5 3.229E00:6 3.988E00:7 3.743E-03:8 -3.582E-03:9 -1.591E-04:a -1.474E-06:b 
2.803E-04:c -4.847E-12:d -2.803E-04:e 1.735E-18:f -3.310E-12:10 3.310E-12:11 -2.222E-18:12 -8.674E-19:13 
#C 1.0208459117E-08 19
3.300E00:1 3.300E00:2 3.300E00:3 3.300E00:4 3.300E00:5 3.229E00:6 3.988E00:7 3.742E-03:8 -3.582E-03:9 -1.611E-04:a 1.503E-06:b 
2.803E-04:c -4.847E-12:d -2.803E-04:e 1.735E-18:f -3.310E-12:10 3.310E-12:11 -2.222E-18:12 -8.674E-19:13 
#C 1.1208513298E-08 19
3.300E00:1 3.300E00:2 3.300E00:3 3.300E00:4 3.300E00:5 3.229E00:6 3.988E00:7 3.742E-03:8 -3.582E-03:9 -1.611E-04:a 1.503E-06:b 
2.803E-04:c -4.847E-12:d -2.803E-04:e 1.735E-18:f -3.310E-12:10 3.310E-12:11 -2.222E-18:12 -8.674E-19:13 
#C 1.2208567479E-08 19
3.300E00:1 3.300E00:2 3.300E00:3 3.300E00:4 3.300E00:5 3.229E00:6 3.988E00:7 3.742E-03:8 -3.582E-03:9 -1.611E-04:a 1.503E-06:b 
2.803E-04:c -4.847E-12:d -2.803E-04:e 1.735E-18:f -3.310E-12:10 3.310E-12:11 -2.222E-18:12 -8.674E-19:13 
#C 1.3208621659E-08 19
3.300E00:1 3.300E00:2 3.300E00:3 3.300E00:4 3.300E00:5 3.229E00:6 3.988E00:7 3.742E-03:8 -3.582E-03:9 -1.611E-04:a 1.503E-06:b 
2.803E-04:c -4.847E-12:d -2.803E-04:e 1.735E-18:f -3.310E-12:10 3.310E-12:11 -2.222E-18:12 -8.674E-19:13 
#C 1.4208675840E-08 19
3.300E00:1 3.300E00:2 3.300E00:3 3.300E00:4 3.300E00:5 3.229E00:6 3.988E00:7 3.742E-03:8 -3.582E-03:9 -1.611E-04:a 1.503E-06:b 
2.803E-04:c -4.847E-12:d -2.803E-04:e 1.735E-18:f -3.310E-12:10 3.310E-12:11 -2.222E-18:12 -8.674E-19:13 
#C 1.5000000000E-08 19
3.300E00:1 3.300E00:2 3.300E00:3 3.300E00:4 3.300E00:5 3.229E00:6 3.988E00:7 3.751E-03:8 -3.590E-03:9 -1.589E-04:a -1.830E-06:b 
2.803E-04:c -4.847E-12:d -2.803E-04:e -1.735E-18:f -3.310E-12:10 3.310E-12:11 2.549E-18:12 8.674E-19:13 
#C 1.5100000000E-08 19
3.300E00:1 3.300E00:2 3.300E00:3 3.300E00:4 3.300E00:5 3.229E00:6 3.988E00:7 3.776E-03:8 -3.614E-03:9 -1.562E-04:a -6.253E-06:b 
2.803E-04:c -4.847E-12:d -2.803E-04:e 0.000E00:f -3.310E-12:10 3.310E-12:11 1.636E-19:12 0.000E00:13 
#C 1.5300001523E-08 19
3.300E00:1 3.300E00:2 3.300E00:3 3.300E00:4 3.300E00:5 3.229E00:6 3.988E00:7 3.762E-03:8 -3.602E-03:9 -1.609E-04:a 1.096E-06:b 
2.803E-04:c -4.847E-12:d -2.803E-04:e 0.000E00:f -3.310E-12:10 3.310E-12:11 1.636E-19:12 0.000E00:13 
#C 1.5350001904E-08 19
3.300E00:1 3.300E00:2 3.300E00:3 3.300E00:4 3.300E00:5 3.229E00:6 3.988E00:7 3.798E-03:8 -3.632E-03:9 -1.464E-04:a -2.002E-05:b 
2.803E-04:c -4.847E-12:d -2.803E-04:e 0.000E00:f -3.310E-12:10 3.310E-12:11 1.636E-19:12 0.000E00:13 
#C 1.5450002665E-08 19
3.300E00:1 3.300E00:2 3.300E00:3 3.300E00:4 3.300E00:5 3.229E00:6 3.988E00:7 3.774E-03:8 -3.616E-03:9 -1.657E-04:a 8.014E-06:b 
2.803E-04:c -4.847E-12:d -2.803E-04:e 0.000E00:f -3.310E-12:10 3.310E-12:11 5.914E-17:12 0.000E00:13 
#C 1.5475002856E-08 19
3.300E00:1 3.300E00:2 3.300E00:3 3.300E00:4 3.300E00:5 3.229E00:6 3.988E00:7 3.790E-03:8 -3.628E-03:9 -1.558E-04:a -6.395E-06:b 
2.803E-04:c -4.847E-12:d -2.803E-04:e 4.163E-17:f -3.310E-12:10 3.310E-12:11 3.052E-17:12 2.082E-17:13 
#C 1.5525003236E-08 19
3.300E00:1 3.300E00:2 3.300E00:3 3.300E00:4 3.300E00:5 3.229E00:6 3.988E00:7 3.783E-03:8 -3.621E-03:9 -1.605E-04:a -2.104E-06:b 
2.803E-04:c -4.847E-12:d -2.803E-04:e 0.000E00:f -3.310E-12:10 3.310E-12:11 1.181E-16:12 -1.110E-16:13 
#C 1.5537503331E-08 19
3.300E00:1 3.300E00:2 3.300E00:3 3.300E00:4 3.300E00:5 3.229E00:6 3.988E00:7 3.796E-03:8 -3.630E-03:9 -1.519E-04:a -1.443E-05:b 
2.803E-04:c -4.847E-12:d -2.803E-04:e 0.000E00:f -3.310E-12:10 3.310E-12:11 -2.412E-17:12 5.551E-17:13 
#C 1.5562503522E-08 19
3.300E00:1 3.300E00:2 3.300E00:3 3.300E00:4 3.300E00:5 3.229E00:6 3.988E00:7 3.787E-03:8 -3.623E-03:9 -1.595E-04:a -4.893E-06:b 
2.803E-04:c -4.847E-12:d -2.803E-04:e 0.000E00:f -3.310E-12:10 3.310E-12:11 -8.310E-17:12 0.000E00:13 
#C 1.5568753569E-08 19
3.300E00:1 3.300E00:2 3.300E00:3 3.300E00:4 3.300E00:5 3.229E00:6 3.988E00:7 3.790E-03:8 -3.625E-03:9 -1.570E-04:a -7.969E-06:b 
2.803E-04:c -4.847E-12:d -2.803E-04:e -1.110E-16:f -3.310E-12:10 3.310E-12:11 -1.386E-16:12 6.939E-17:13 
#C 1.5581253665E-08 19
3.300E00:1 3.300E00:2 3.300E00:3 3.300E00:4 3.300E00:5 3.229E00:6 3.988E00:7 3.790E-03:8 -3.625E-03:9 -1.570E-04:a -7.969E-06:b 
2.803E-04:c -4.847E-12:d -2.803E-04:e 4.441E-16:f -3.310E-12:10 3.310E-12:11 -3.329E-16:12 2.220E-16:13 
#C 1.5606253855E-08 19
3.300E00:1 3.300E00:2 3.300E00:3 3.300E00:4 3.300E00:5 3.229E00:6 3.988E00:7 3.789E-03:8 -3.624E-03:9 -1.570E-04:a -7.969E-06:b 
2.803E-04:c -4.847E-12:d -2.803E-04:e 0.000E00:f -3.310E-12:10 3.310E-12:11 -1.247E-16:12 2.220E-16:13 
#C 1.5656254236E-08 19
3.300E00:1 3.300E00:2 3.300E00:3 3.300E00:4 3.300E00:5 3.229E00:6 3.988E00:7 3.788E-03:8 -3.623E-03:9 -1.570E-04:a -7.969E-06:b 
2.803E-04:c -4.847E-12:d -2.803E-04:e 0.000E00:f -3.310E-12:10 3.310E-12:11 -9.698E-17:12 -5.551E-17:13 
#C 1.5731854346E-08 19
3.300E00:1 3.300E00:2 3.300E00:3 3.300E00:4 3.300E00:5 3.229E00:6 3.988E00:7 3.786E-03:8 -3.621E-03:9 -1.570E-04:a -7.969E-06:b 
2.803E-04:c -4.847E-12:d -2.803E-04:e 2.776E-17:f -3.310E-12:10 3.310E-12:11 5.914E-17:12 -5.551E-17:13 
#C 1.5843461715E-08 19
3.300E00:1 3.300E00:2 3.300E00:3 3.300E00:4 3.300E00:5 3.229E00:6 3.988E00:7 3.783E-03:8 -3.618E-03:9 -1.570E-04:a -7.969E-06:b 
2.803E-04:c -4.847E-12:d -2.803E-04:e -2.776E-17:f -3.310E-12:10 3.310E-12:11 1.636E-19:12 2.776E-17:13 
#C 1.6000000000E-08 19
3.300E00:1 3.300E00:2 3.300E00:3 3.300E00:4 3.300E00:5 3.229E00:6 3.988E00:7 3.778E-03:8 -3.613E-03:9 -1.571E-04:a -7.969E-06:b 
2.803E-04:c -4.847E-12:d -2.803E-04:e 1.388E-17:f -3.310E-12:10 3.310E-12:11 1.404E-17:12 0.000E00:13 
#C 1.6022321474E-08 19
3.300E00:1 3.300E00:2 3.300E00:3 3.300E00:4 3.300E00:5 3.229E00:6 3.988E00:7 3.789E-03:8 -3.631E-03:9 -1.571E-04:a -1.126E-06:b 
2.803E-04:c -4.847E-12:d -2.803E-04:e 0.000E00:f -3.310E-12:10 3.310E-12:11 1.636E-19:12 0.000E00:13 
#C 1.6066966750E-08 19
3.300E00:1 3.300E00:2 3.300E00:3 3.300E00:4 3.300E00:5 3.229E00:6 3.988E00:7 3.781E-03:8 -3.620E-03:9 -1.609E-04:a 5.712E-08:b 
2.803E-04:c -4.847E-12:d -2.803E-04:e 0.000E00:f -3.310E-12:10 3.310E-12:11 1.636E-19:12 0.000E00:13 
#C 1.6156257302E-08 19
3.300E00:1 3.300E00:2 3.300E00:3 3.300E00:4 3.300E00:5 3.229E00:6 3.988E00:7 3.782E-03:8 -3.619E-03:9 -1.586E-04:a -3.787E-06:b 
2.803E-04:c -4.847E-12:d -2.803E-04:e 5.551E-17:f -3.310E-12:10 3.310E-12:11 2.792E-17:12 -2.776E-17:13 
#C 1.6334838405E-08 19
3.300E00:1 3.300E00:2 3.300E00:3 3.300E00:4 3.300E00:5 3.229E00:6 3.988E00:7 3.777E-03:8 -3.615E-03:9 -1.595E-04:a -2.249E-06:b 
2.803E-04:c -4.847E-12:d -2.803E-04:e 2.776E-17:f -3.310E-12:10 3.310E-12:11 1.404E-17:12 -1.388E-17:13 
#C 1.6692000613E-08 19
3.300E00:1 3.300E00:2 3.300E00:3 3.300E00:4 3.300E00:5 3.229E00:6 3.988E00:7 3.761E-03:8 -3.601E-03:9 -1.615E-04:a 2.010E-06:b 
2.803E-04:c -4.847E-12:d -2.803E-04:e 2.776E-17:f -3.310E-12:10 3.310E-12:11 1.898E-18:12 -2.776E-17:13 
#C 1.7406325027E-08 19
3.300E00:1 3.300E00:2 3.300E00:3 3.300E00:4 3.300E00:5 3.229E00:6 3.988E00:7 3.749E-03:8 -3.589E-03:9 -1.606E-04:a 5.653E-07:b 
2.803E-04:c -4.847E-12:d -2.803E-04:e 6.939E-18:f -3.310E-12:10 3.310E-12:11 -3.306E-18:12 -3.469E-18:13 
#C 1.8406379208E-08 19
3.300E00:1 3.300E00:2 3.300E00:3 3.300E00:4 3.300E00:5 3.229E00:6 3.988E00:7 3.743E-03:8 -3.582E-03:9 -1.602E-04:a -4.059E-07:b 
2.803E-04:c -4.847E-12:d -2.803E-04:e -3.469E-18:f -3.310E-12:10 3.310E-12:11 1.636E-19:12 3.469E-18:13 
#C 1.9000000000E-08 19
3.300E00:1 3.300E00:2 3.300E00:3 3.300E00:4 3.300E00:5 3.229E00:6 3.988E00:7 3.749E-03:8 -3.589E-03:9 -1.602E-04:a -1.824E-07:b 
2.803E-04:c -4.847E-12:d -2.803E-04:e -4.337E-18:f -3.310E-12:10 3.310E-12:11 2.766E-18:12 0.000E00:13 
#C 1.9100000000E-08 19
3.300E00:1 3.300E00:2 3.300E00:3 3.300E00:4 3.300E00:5 3.229E00:6 3.988E00:7 3.776E-03:8 -3.614E-03:9 -1.565E-04:a -5.988E-06:b 
2.803E-04:c -4.847E-12:d -2.803E-04:e 0.000E00:f -3.310E-12:10 3.310E-12:11 1.636E-19:12 0.000E00:13 
#C 1.9300001523E-08 19
3.300E00:1 3.300E00:2 3.300E00:3 3.300E00:4 3.300E00:5 3.229E00:6 3.988E00:7 3.762E-03:8 -3.602E-03:9 -1.612E-04:a 1.303E-06:b 
2.803E-04:c -4.847E-12:d -2.803E-04:e 0.000E00:f -3.310E-12:10 3.310E-12:11 1.636E-19:12 0.000E00:13 
#C 1.9700004569E-08 19
3.300E00:1 3.300E00:2 3.300E00:3 3.300E00:4 3.300E00:5 3.229E00:6 3.988E00:7 3.760E-03:8 -3.599E-03:9 -1.602E-04:a -1.042E-07:b 
2.803E-04:c -4.847E-12:d -2.803E-04:e 1.388E-17:f -3.310E-12:10 3.310E-12:11 1.491E-17:12 -6.939E-18:13 
#C 2.0000000000E-08 19
3.300E00:1 3.300E00:2 3.300E00:3 3.300E00:4 3.300E00:5 3.229E00:6 3.988E00:7 3.762E-03:8 -3.602E-03:9 -1.602E-04:a -8.567E-08:b 
2.803E-04:c -4.847E-12:d -2.803E-04:e 1.041E-17:f -3.310E-12:10 3.310E-12:11 -2.005E-18:12 -3.469E-18:13 
#C 2.0065006316E-08 19
3.300E00:1 3.300E00:2 3.300E00:3 3.300E00:4 3.300E00:5 3.229E00:6 3.988E00:7 3.782E-03:8 -3.619E-03:9 -1.563E-04:a -6.121E-06:b 
2.803E-04:c -4.847E-12:d -2.803E-04:e 0.000E00:f -3.310E-12:10 3.310E-12:11 1.636E-19:12 0.000E00:13 
#C 2.0195018947E-08 19
3.300E00:1 3.300E00:2 3.300E00:3 3.300E00:4 3.300E00:5 3.229E00:6 3.988E00:7 3.773E-03:8 -3.615E-03:9 -1.637E-04:a 5.289E-06:b 
2.803E-04:c -4.847E-12:d -2.803E-04:e 2.776E-17:f -3.310E-12:10 3.310E-12:11 -2.412E-17:12 -2.776E-17:13 
#C 2.0455044210E-08 19
3.300E00:1 3.300E00:2 3.300E00:3 3.300E00:4 3.300E00:5 3.229E00:6 3.988E00:7 3.766E-03:8 -3.606E-03:9 -1.615E-04:a 1.695E-06:b 
2.803E-04:c -4.847E-12:d -2.803E-04:e 0.000E00:f -3.310E-12:10 3.310E-12:11 -1.571E-18:12 0.000E00:13 
#C 2.0975094736E-08 19
3.300E00:1 3.300E00:2 3.300E00:3 3.300E00:4 3.300E00:5 3.229E00:6 3.988E00:7 3.755E-03:8 -3.595E-03:9 -1.610E-04:a 1.391E-06:b 
2.803E-04:c -4.847E-12:d -2.803E-04:e 0.000E00:f -3.310E-12:10 3.310E-12:11 1.031E-18:12 6.939E-18:13 
#C 2.1975148916E-08 19
3.300E00:1 3.300E00:2 3.300E00:3 3.300E00:4 3.300E00:5 3.229E00:6 3.988E00:7 3.744E-03:8 -3.583E-03:9 -1.603E-04:a -1.282E-08:b 
2.803E-04:c -4.847E-12:d -2.803E-04:e 3.469E-18:f -3.310E-12:10 3.310E-12:11 -3.740E-18:12 0.000E00:13 
#C 2.2975203097E-08 19
3.300E00:1 3.300E00:2 3.300E00:3 3.300E00:4 3.300E00:5 3.229E00:6 3.988E00:7 3.744E-03:8 -3.583E-03:9 -1.602E-04:a -8.346E-08:b 
2.803E-04:c -4.847E-12:d -2.803E-04:e 3.469E-18:f -3.310E-12:10 3.310E-12:11 -3.740E-18:12 0.000E00:13 
#C 2.3975257278E-08 19
3.300E00:1 3.300E00:2 3.300E00:3 3.300E00:4 3.300E00:5 3.229E00:6 3.988E00:7 3.744E-03:8 -3.583E-03:9 -1.602E-04:a -8.346E-08:b 
2.803E-04:c -4.847E-12:d -2.803E-04:e 3.469E-18:f -3.310E-12:10 3.310E-12:11 -3.740E-18:12 0.000E00:13 
#C 2.4975311458E-08 19
3.300E00:1 3.300E00:2 3.300E00:3 3.300E00:4 3.300E00:5 3.229E00:6 3.988E00:7 3.744E-03:8 -3.583E-03:9 -1.602E-04:a -8.346E-08:b 
2.803E-04:c -4.847E-12:d -2.803E-04:e 3.469E-18:f -3.310E-12:10 3.310E-12:11 -3.740E-18:12 0.000E00:13 
#C 2.5975365639E-08 19
3.300E00:1 3.300E00:2 3.300E00:3 3.300E00:4 3.300E00:5 3.229E00:6 3.988E00:7 3.744E-03:8 -3.583E-03:9 -1.602E-04:a -8.346E-08:b 
2.803E-04:c -4.847E-12:d -2.803E-04:e 3.469E-18:f -3.310E-12:10 3.310E-12:11 -3.740E-18:12 0.000E00:13 
#C 2.6975419819E-08 19
3.300E00:1 3.300E00:2 3.300E00:3 3.300E00:4 3.300E00:5 3.229E00:6 3.988E00:7 3.744E-03:8 -3.583E-03:9 -1.602E-04:a -8.346E-08:b 
2.803E-04:c -4.847E-12:d -2.803E-04:e 3.469E-18:f -3.310E-12:10 3.310E-12:11 -3.740E-18:12 0.000E00:13 
#C 2.7975474000E-08 19
3.300E00:1 3.300E00:2 3.300E00:3 3.300E00:4 3.300E00:5 3.229E00:6 3.988E00:7 3.744E-03:8 -3.583E-03:9 -1.602E-04:a -8.346E-08:b 
2.803E-04:c -4.847E-12:d -2.803E-04:e 3.469E-18:f -3.310E-12:10 3.310E-12:11 -3.740E-18:12 0.000E00:13 
#C 2.8975528181E-08 19
3.300E00:1 3.300E00:2 3.300E00:3 3.300E00:4 3.300E00:5 3.229E00:6 3.988E00:7 3.744E-03:8 -3.583E-03:9 -1.602E-04:a -8.346E-08:b 
2.803E-04:c -4.847E-12:d -2.803E-04:e 3.469E-18:f -3.310E-12:10 3.310E-12:11 -3.740E-18:12 0.000E00:13 
#C 2.9975582361E-08 19
3.300E00:1 3.300E00:2 3.300E00:3 3.300E00:4 3.300E00:5 3.229E00:6 3.988E00:7 3.744E-03:8 -3.583E-03:9 -1.602E-04:a -8.346E-08:b 
2.803E-04:c -4.847E-12:d -2.803E-04:e 3.469E-18:f -3.310E-12:10 3.310E-12:11 -3.740E-18:12 0.000E00:13 
#C 3.0975636542E-08 19
3.300E00:1 3.300E00:2 3.300E00:3 3.300E00:4 3.300E00:5 3.229E00:6 3.988E00:7 3.744E-03:8 -3.583E-03:9 -1.602E-04:a -8.346E-08:b 
2.803E-04:c -4.847E-12:d -2.803E-04:e 3.469E-18:f -3.310E-12:10 3.310E-12:11 -3.740E-18:12 0.000E00:13 
#C 3.1975690723E-08 19
3.300E00:1 3.300E00:2 3.300E00:3 3.300E00:4 3.300E00:5 3.229E00:6 3.988E00:7 3.744E-03:8 -3.583E-03:9 -1.602E-04:a -8.346E-08:b 
2.803E-04:c -4.847E-12:d -2.803E-04:e 3.469E-18:f -3.310E-12:10 3.310E-12:11 -3.740E-18:12 0.000E00:13 
#C 3.2975744903E-08 19
