#H
SOURCE='PSPICE' VERSION='PSpice 16.0.0 (July 2006)'
TITLE='**** 05/18/10 12:08:24 ******* PSpice 16.0.0 (July 2006) ****** ID# 0 ********'
SUBTITLE=''
TIME='16:01:27' DATE='05/30/10' TEMPERATURE='2.700E01'
ANALYSIS='Transient Analysis' SERIALNO='61413'
ALLVALUES='NO' COMPLEXVALUES='NO' NODES='19'
SWEEPVAR='Time' SWEEPMODE='VAR_STEP'
XBEGIN='0.000E00' XEND='5.000E-08'
FORMAT='0 VOLTSorAMPS;EFLOAT : NODEorBRANCH;NODE  '
DGTLDATA='NO' 
#N 
'V(C_F_D_LSB)' 'V(C_F_D_2SB)' 'V(C_F_D_3SB)' 'V(C_F_D_4SB)' 'V(C_F_D_5SB)' 'V(C_F_D_MSB)' 'V(C_F_C1_NDPOS)' 'ID(M_C_F_C1_M12)' 
'IB(M_C_F_C1_M12)' 'IS(M_C_F_C1_M12)' 'IG(M_C_F_C1_M12)' 'ID(M_C_F_C1_M2)' 'IB(M_C_F_C1_M2)' 'IS(M_C_F_C1_M2)' 'IG(M_C_F_C1_M2)' 
'ID(M_C_F_C1_M4)' 'IB(M_C_F_C1_M4)' 'IS(M_C_F_C1_M4)' 'IG(M_C_F_C1_M4)' 
#C 0.0000000000E00 19
1.780E-07:1 3.300E00:2 3.300E00:3 3.300E00:4 3.300E00:5 3.229E00:6 3.985E00:7 -3.310E-12:8 3.310E-12:9 1.817E-19:a 0.000E00:b 
1.362E-04:c -4.428E-12:d -1.362E-04:e 0.000E00:f 3.864E-03:10 -3.190E-03:11 -6.742E-04:12 0.000E00:13 
#C 1.0000000000E-11 19
1.780E-07:1 3.300E00:2 3.300E00:3 3.300E00:4 3.300E00:5 3.229E00:6 3.985E00:7 -2.854E-12:8 3.951E-11:9 4.828E-13:a -3.714E-11:b 
1.362E-04:c -1.617E-11:d -1.362E-04:e -7.105E-15:f 3.864E-03:10 -3.190E-03:11 -6.742E-04:12 -2.229E-11:13 
#C 2.0000000000E-11 19
1.780E-07:1 3.300E00:2 3.300E00:3 3.300E00:4 3.300E00:5 3.229E00:6 3.985E00:7 -2.854E-12:8 3.951E-11:9 4.828E-13:a -3.714E-11:b 
1.362E-04:c -1.617E-11:d -1.362E-04:e -7.105E-15:f 3.864E-03:10 -3.190E-03:11 -6.742E-04:12 -2.229E-11:13 
#C 4.0000152290E-11 19
1.780E-07:1 3.300E00:2 3.300E00:3 3.300E00:4 3.300E00:5 3.229E00:6 3.985E00:7 -3.310E-12:8 3.310E-12:9 1.817E-19:a 0.000E00:b 
1.362E-04:c -4.428E-12:d -1.362E-04:e 0.000E00:f 3.864E-03:10 -3.190E-03:11 -6.742E-04:12 0.000E00:13 
#C 8.0000456870E-11 19
1.780E-07:1 3.300E00:2 3.300E00:3 3.300E00:4 3.300E00:5 3.229E00:6 3.985E00:7 -3.310E-12:8 3.310E-12:9 1.817E-19:a 0.000E00:b 
1.362E-04:c -4.428E-12:d -1.362E-04:e 0.000E00:f 3.864E-03:10 -3.190E-03:11 -6.742E-04:12 0.000E00:13 
#C 1.6000106603E-10 19
1.780E-07:1 3.300E00:2 3.300E00:3 3.300E00:4 3.300E00:5 3.229E00:6 3.985E00:7 -3.310E-12:8 3.310E-12:9 1.817E-19:a 0.000E00:b 
1.362E-04:c -4.428E-12:d -1.362E-04:e 0.000E00:f 3.864E-03:10 -3.190E-03:11 -6.742E-04:12 0.000E00:13 
#C 3.2000228435E-10 19
1.780E-07:1 3.300E00:2 3.300E00:3 3.300E00:4 3.300E00:5 3.229E00:6 3.985E00:7 -3.310E-12:8 3.310E-12:9 1.817E-19:a 0.000E00:b 
1.362E-04:c -4.428E-12:d -1.362E-04:e 0.000E00:f 3.864E-03:10 -3.190E-03:11 -6.742E-04:12 0.000E00:13 
#C 6.4000472099E-10 19
1.780E-07:1 3.300E00:2 3.300E00:3 3.300E00:4 3.300E00:5 3.229E00:6 3.985E00:7 -3.310E-12:8 3.310E-12:9 1.817E-19:a 0.000E00:b 
1.362E-04:c -4.428E-12:d -1.362E-04:e 0.000E00:f 3.864E-03:10 -3.190E-03:11 -6.742E-04:12 0.000E00:13 
#C 1.2800095943E-09 19
1.780E-07:1 3.300E00:2 3.300E00:3 3.300E00:4 3.300E00:5 3.229E00:6 3.985E00:7 -3.310E-12:8 3.310E-12:9 1.817E-19:a 0.000E00:b 
1.362E-04:c -4.428E-12:d -1.362E-04:e 0.000E00:f 3.864E-03:10 -3.190E-03:11 -6.742E-04:12 0.000E00:13 
#C 2.0000000001E-09 19
1.780E-07:1 3.300E00:2 3.300E00:3 3.300E00:4 3.300E00:5 3.229E00:6 3.985E00:7 -3.310E-12:8 3.310E-12:9 1.817E-19:a 0.000E00:b 
1.362E-04:c -4.428E-12:d -1.362E-04:e 0.000E00:f 3.864E-03:10 -3.190E-03:11 -6.742E-04:12 0.000E00:13 
#C 2.0200000001E-09 19
1.523E-07:1 3.300E00:2 3.300E00:3 3.300E00:4 3.300E00:5 3.229E00:6 3.984E00:7 2.168E-05:8 1.721E-03:9 2.296E-05:a -1.766E-03:b 
1.362E-04:c -4.428E-12:d -1.362E-04:e 0.000E00:f 3.689E-03:10 -3.097E-03:11 -7.436E-04:12 1.514E-04:13 
#C 2.0600003047E-09 19
1.804E-07:1 3.300E00:2 3.300E00:3 3.300E00:4 3.300E00:5 3.229E00:6 3.982E00:7 3.504E-05:8 2.840E-03:9 3.798E-05:a -2.913E-03:b 
1.283E-04:c 4.224E-06:d -1.325E-04:e 8.728E-09:f 3.330E-03:10 -2.794E-03:11 -7.876E-04:12 2.521E-04:13 
#C 2.1400009138E-09 19
1.930E-07:1 3.300E00:2 3.300E00:3 3.300E00:4 3.300E00:5 3.229E00:6 3.976E00:7 3.504E-05:8 2.814E-03:9 3.798E-05:a -2.887E-03:b 
1.282E-04:c 4.224E-06:d -1.325E-04:e 8.880E-09:f 2.800E-03:10 -2.268E-03:11 -7.810E-04:12 2.487E-04:13 
#C 2.2000000001E-09 19
1.523E-07:1 3.300E00:2 3.300E00:3 3.300E00:4 3.300E00:5 3.229E00:6 3.972E00:7 3.504E-05:8 2.810E-03:9 3.798E-05:a -2.883E-03:b 
1.377E-04:c -1.381E-06:d -1.363E-04:e 3.026E-08:f 2.494E-03:10 -1.951E-03:11 -7.650E-04:12 2.223E-04:13 
#C 2.2160001219E-09 19
1.750E-07:1 3.300E00:2 3.300E00:3 3.300E00:4 3.300E00:5 3.229E00:6 3.971E00:7 3.504E-05:8 2.804E-03:9 3.798E-05:a -2.877E-03:b 
1.329E-04:c 1.421E-06:d -1.344E-04:e 1.958E-08:f 2.411E-03:10 -1.871E-03:11 -7.652E-04:12 2.254E-04:13 
#C 2.2480026939E-09 19
1.804E-07:1 3.300E00:2 3.300E00:3 3.300E00:4 3.300E00:5 3.229E00:6 3.969E00:7 3.504E-05:8 2.799E-03:9 3.798E-05:a -2.872E-03:b 
1.329E-04:c 1.421E-06:d -1.344E-04:e 1.958E-08:f 2.305E-03:10 -1.749E-03:11 -7.489E-04:12 1.932E-04:13 
#C 2.3120078378E-09 19
1.753E-07:1 3.300E00:2 3.300E00:3 3.300E00:4 3.300E00:5 3.229E00:6 3.966E00:7 1.993E-05:8 1.346E-03:9 1.840E-05:a -1.385E-03:b 
1.329E-04:c 1.421E-06:d -1.344E-04:e 1.960E-08:f 2.061E-03:10 -1.524E-03:11 -7.590E-04:12 2.219E-04:13 
#C 2.4400181257E-09 19
1.729E-07:1 3.300E00:2 3.300E00:3 3.300E00:4 3.300E00:5 3.229E00:6 3.962E00:7 6.322E-06:8 5.352E-04:9 7.374E-06:a -5.489E-04:b 
1.329E-04:c 1.421E-06:d -1.343E-04:e 1.962E-08:f 1.957E-03:10 -1.329E-03:11 -6.743E-04:12 4.567E-05:13 
#C 2.6960387015E-09 19
1.785E-07:1 3.300E00:2 3.300E00:3 3.300E00:4 3.300E00:5 3.229E00:6 3.961E00:7 -5.470E-06:8 -4.540E-04:9 -6.191E-06:a 4.656E-04:b 
1.373E-04:c -8.438E-07:d -1.365E-04:e 4.661E-08:f 1.940E-03:10 -1.268E-03:11 -6.341E-04:12 -3.816E-05:13 
#C 3.2080798530E-09 19
1.778E-07:1 3.300E00:2 3.300E00:3 3.300E00:4 3.300E00:5 3.229E00:6 3.970E00:7 -1.193E-05:8 -9.515E-04:9 -1.297E-05:a 9.764E-04:b 
1.380E-04:c -1.055E-06:d -1.370E-04:e 2.062E-08:f 2.446E-03:10 -1.747E-03:11 -6.262E-04:12 -7.208E-05:13 
#C 4.2081340336E-09 19
1.779E-07:1 3.300E00:2 3.300E00:3 3.300E00:4 3.300E00:5 3.229E00:6 3.982E00:7 -4.282E-06:8 -3.349E-04:9 -4.441E-06:a 3.436E-04:b 
1.369E-04:c -3.282E-07:d -1.365E-04:e -9.373E-09:f 3.463E-03:10 -2.775E-03:11 -6.552E-04:12 -3.323E-05:13 
#C 5.2081882143E-09 19
1.779E-07:1 3.300E00:2 3.300E00:3 3.300E00:4 3.300E00:5 3.229E00:6 3.985E00:7 3.617E-07:8 3.258E-05:9 4.019E-07:a -3.335E-05:b 
1.363E-04:c 2.621E-08:d -1.363E-04:e -1.634E-08:f 3.889E-03:10 -3.219E-03:11 -6.775E-04:12 7.382E-06:13 
#C 6.2082423949E-09 19
1.779E-07:1 3.300E00:2 3.300E00:3 3.300E00:4 3.300E00:5 3.229E00:6 3.985E00:7 -3.295E-07:8 -2.284E-05:9 -2.720E-07:a 2.345E-05:b 
1.360E-04:c 1.722E-07:d -1.361E-04:e -1.043E-08:f 3.856E-03:10 -3.180E-03:11 -6.714E-04:12 -5.033E-06:13 
#C 7.2082965755E-09 19
1.779E-07:1 3.300E00:2 3.300E00:3 3.300E00:4 3.300E00:5 3.229E00:6 3.985E00:7 -3.295E-07:8 -2.284E-05:9 -2.720E-07:a 2.345E-05:b 
1.360E-04:c 1.722E-07:d -1.361E-04:e -1.043E-08:f 3.857E-03:10 -3.181E-03:11 -6.723E-04:12 -3.324E-06:13 
#C 8.2083507561E-09 19
1.775E-07:1 3.300E00:2 3.300E00:3 3.300E00:4 3.300E00:5 3.229E00:6 3.985E00:7 3.295E-07:8 2.284E-05:9 2.720E-07:a -2.345E-05:b 
1.365E-04:c -1.722E-07:d -1.363E-04:e 1.043E-08:f 3.882E-03:10 -3.211E-03:11 -6.766E-04:12 5.483E-06:13 
#C 9.2084049367E-09 19
1.778E-07:1 3.300E00:2 3.300E00:3 3.300E00:4 3.300E00:5 3.229E00:6 3.985E00:7 -3.310E-12:8 3.310E-12:9 -1.987E-18:a -4.337E-18:b 
1.362E-04:c -4.428E-12:d -1.362E-04:e 4.337E-18:f 3.869E-03:10 -3.195E-03:11 -6.739E-04:12 1.052E-07:13 
#C 1.0208459117E-08 19
1.778E-07:1 3.300E00:2 3.300E00:3 3.300E00:4 3.300E00:5 3.229E00:6 3.985E00:7 -3.310E-12:8 3.310E-12:9 -1.987E-18:a -4.337E-18:b 
1.362E-04:c -4.428E-12:d -1.362E-04:e 4.337E-18:f 3.869E-03:10 -3.195E-03:11 -6.739E-04:12 9.720E-09:13 
#C 1.1208513298E-08 19
1.778E-07:1 3.300E00:2 3.300E00:3 3.300E00:4 3.300E00:5 3.229E00:6 3.985E00:7 -3.310E-12:8 3.310E-12:9 -1.987E-18:a -4.337E-18:b 
1.362E-04:c -4.428E-12:d -1.362E-04:e 4.337E-18:f 3.869E-03:10 -3.195E-03:11 -6.739E-04:12 9.720E-09:13 
#C 1.2208567479E-08 19
1.778E-07:1 3.300E00:2 3.300E00:3 3.300E00:4 3.300E00:5 3.229E00:6 3.985E00:7 -3.310E-12:8 3.310E-12:9 -1.987E-18:a -4.337E-18:b 
1.362E-04:c -4.428E-12:d -1.362E-04:e 4.337E-18:f 3.869E-03:10 -3.195E-03:11 -6.739E-04:12 9.720E-09:13 
#C 1.3208621659E-08 19
1.778E-07:1 3.300E00:2 3.300E00:3 3.300E00:4 3.300E00:5 3.229E00:6 3.985E00:7 -3.310E-12:8 3.310E-12:9 -1.987E-18:a -4.337E-18:b 
1.362E-04:c -4.428E-12:d -1.362E-04:e 4.337E-18:f 3.869E-03:10 -3.195E-03:11 -6.739E-04:12 9.720E-09:13 
#C 1.4208675840E-08 19
1.778E-07:1 3.300E00:2 3.300E00:3 3.300E00:4 3.300E00:5 3.229E00:6 3.985E00:7 -3.310E-12:8 3.310E-12:9 -1.987E-18:a -4.337E-18:b 
1.362E-04:c -4.428E-12:d -1.362E-04:e 4.337E-18:f 3.869E-03:10 -3.195E-03:11 -6.739E-04:12 9.720E-09:13 
#C 1.5000000000E-08 19
1.776E-07:1 3.300E00:2 3.300E00:3 3.300E00:4 3.300E00:5 3.229E00:6 3.985E00:7 -3.310E-12:8 3.310E-12:9 2.349E-18:a 4.337E-18:b 
1.362E-04:c -4.428E-12:d -1.362E-04:e -4.337E-18:f 3.869E-03:10 -3.195E-03:11 -6.739E-04:12 -9.720E-09:13 
#C 1.5100000000E-08 19
2.244E-05:1 3.300E00:2 3.300E00:3 3.300E00:4 3.300E00:5 3.229E00:6 3.985E00:7 -3.310E-12:8 3.310E-12:9 1.810E-19:a 0.000E00:b 
1.362E-04:c -4.428E-12:d -1.362E-04:e 0.000E00:f 3.875E-03:10 -3.200E-03:11 -6.735E-04:12 -9.425E-07:13 
#C 1.5125000190E-08 19
1.154E-05:1 3.300E00:2 3.300E00:3 3.300E00:4 3.300E00:5 3.229E00:6 3.985E00:7 -3.310E-12:8 3.310E-12:9 1.810E-19:a 0.000E00:b 
1.362E-04:c -4.428E-12:d -1.362E-04:e 0.000E00:f 3.876E-03:10 -3.202E-03:11 -6.735E-04:12 -9.426E-07:13 
#C 1.5175000571E-08 19
-1.645E-04:1 3.300E00:2 3.300E00:3 3.300E00:4 3.300E00:5 3.229E00:6 3.985E00:7 -3.310E-12:8 3.310E-12:9 1.810E-19:a 0.000E00:b 
1.362E-04:c -4.428E-12:d -1.362E-04:e 0.000E00:f 3.879E-03:10 -3.205E-03:11 -6.735E-04:12 -9.427E-07:13 
#C 1.5275001333E-08 19
-1.488E-03:1 3.300E00:2 3.300E00:3 3.300E00:4 3.300E00:5 3.229E00:6 3.985E00:7 -3.310E-12:8 3.310E-12:9 6.263E-17:a -8.327E-17:b 
1.362E-04:c -4.428E-12:d -1.362E-04:e 5.551E-17:f 3.876E-03:10 -3.202E-03:11 -6.734E-04:12 -9.577E-07:13 
#C 1.5300001523E-08 19
-1.647E-03:1 3.300E00:2 3.300E00:3 3.300E00:4 3.300E00:5 3.229E00:6 3.985E00:7 -3.310E-12:8 3.310E-12:9 7.651E-17:a 6.939E-18:b 
1.362E-04:c -4.428E-12:d -1.362E-04:e 6.939E-18:f 3.875E-03:10 -3.201E-03:11 -6.735E-04:12 -9.518E-07:13 
#C 1.5350001904E-08 19
-2.024E-03:1 3.300E00:2 3.300E00:3 3.300E00:4 3.300E00:5 3.229E00:6 3.985E00:7 -3.310E-12:8 3.310E-12:9 1.181E-16:a -5.551E-17:b 
1.362E-04:c -4.428E-12:d -1.362E-04:e 0.000E00:f 3.877E-03:10 -3.203E-03:11 -6.732E-04:12 -1.649E-06:13 
#C 1.5450002665E-08 19
-4.516E-03:1 3.300E00:2 3.300E00:3 3.300E00:4 3.300E00:5 3.229E00:6 3.985E00:7 -3.310E-12:8 3.310E-12:9 6.263E-17:a -8.327E-17:b 
1.362E-04:c -4.428E-12:d -1.362E-04:e 5.551E-17:f 3.876E-03:10 -3.202E-03:11 -6.740E-04:12 9.867E-08:13 
#C 1.5475002856E-08 19
-4.839E-03:1 3.300E00:2 3.300E00:3 3.300E00:4 3.300E00:5 3.229E00:6 3.985E00:7 -3.310E-12:8 3.310E-12:9 7.651E-17:a 6.939E-18:b 
1.362E-04:c -4.428E-12:d -1.362E-04:e 6.939E-18:f 3.876E-03:10 -3.202E-03:11 -6.737E-04:12 -4.888E-07:13 
#C 1.5525003236E-08 19
-2.146E-03:1 3.300E00:2 3.300E00:3 3.300E00:4 3.300E00:5 3.229E00:6 3.985E00:7 -3.310E-12:8 3.310E-12:9 1.181E-16:a -5.551E-17:b 
1.362E-04:c -4.428E-12:d -1.362E-04:e 0.000E00:f 3.875E-03:10 -3.201E-03:11 -6.737E-04:12 -4.888E-07:13 
#C 1.5537503331E-08 19
-1.374E-03:1 3.300E00:2 3.300E00:3 3.300E00:4 3.300E00:5 3.229E00:6 3.985E00:7 -3.310E-12:8 3.310E-12:9 6.610E-17:a -1.388E-17:b 
1.362E-04:c -4.428E-12:d -1.362E-04:e 7.633E-17:f 3.875E-03:10 -3.201E-03:11 -6.737E-04:12 -4.888E-07:13 
#C 1.5562503522E-08 19
-4.769E-04:1 3.300E00:2 3.300E00:3 3.300E00:4 3.300E00:5 3.229E00:6 3.985E00:7 -3.310E-12:8 3.310E-12:9 1.390E-16:a -1.110E-16:b 
1.362E-04:c -4.428E-12:d -1.362E-04:e 1.110E-16:f 3.875E-03:10 -3.201E-03:11 -6.737E-04:12 -4.888E-07:13 
#C 1.5568753569E-08 19
-3.861E-04:1 3.300E00:2 3.300E00:3 3.300E00:4 3.300E00:5 3.229E00:6 3.985E00:7 -3.310E-12:8 3.310E-12:9 1.753E-17:a 9.714E-17:b 
1.362E-04:c -4.428E-12:d -1.362E-04:e 3.469E-16:f 3.875E-03:10 -3.201E-03:11 -6.737E-04:12 -4.888E-07:13 
#C 1.5581253665E-08 19
-2.964E-04:1 3.300E00:2 3.300E00:3 3.300E00:4 3.300E00:5 3.229E00:6 3.985E00:7 -3.310E-12:8 3.310E-12:9 -4.439E-16:a 2.220E-16:b 
1.362E-04:c -4.428E-12:d -1.362E-04:e 0.000E00:f 3.875E-03:10 -3.201E-03:11 -6.737E-04:12 -4.888E-07:13 
#C 1.5606253855E-08 19
-2.349E-04:1 3.300E00:2 3.300E00:3 3.300E00:4 3.300E00:5 3.229E00:6 3.985E00:7 -3.310E-12:8 3.310E-12:9 9.733E-17:a 1.110E-16:b 
1.362E-04:c -4.428E-12:d -1.362E-04:e -1.110E-16:f 3.875E-03:10 -3.200E-03:11 -6.737E-04:12 -4.888E-07:13 
#C 1.5656254236E-08 19
-1.973E-04:1 3.300E00:2 3.300E00:3 3.300E00:4 3.300E00:5 3.229E00:6 3.985E00:7 -3.310E-12:8 3.310E-12:9 7.651E-17:a -5.551E-17:b 
1.362E-04:c -4.428E-12:d -1.362E-04:e 1.110E-16:f 3.874E-03:10 -3.200E-03:11 -6.737E-04:12 -4.888E-07:13 
#C 1.5731330477E-08 19
-1.663E-04:1 3.300E00:2 3.300E00:3 3.300E00:4 3.300E00:5 3.229E00:6 3.985E00:7 -3.310E-12:8 3.310E-12:9 1.810E-19:a -2.776E-17:b 
1.362E-04:c -4.428E-12:d -1.362E-04:e -5.551E-17:f 3.874E-03:10 -3.199E-03:11 -6.737E-04:12 -4.888E-07:13 
#C 1.5845219586E-08 19
-1.188E-04:1 3.300E00:2 3.300E00:3 3.300E00:4 3.300E00:5 3.229E00:6 3.985E00:7 -3.310E-12:8 3.310E-12:9 5.916E-17:a -5.551E-17:b 
1.362E-04:c -4.428E-12:d -1.362E-04:e 1.388E-17:f 3.873E-03:10 -3.198E-03:11 -6.737E-04:12 -4.888E-07:13 
#C 1.6000000000E-08 19
-2.383E-05:1 3.300E00:2 3.300E00:3 3.300E00:4 3.300E00:5 3.229E00:6 3.985E00:7 -3.310E-12:8 3.310E-12:9 -2.584E-17:a 1.388E-17:b 
1.362E-04:c -4.428E-12:d -1.362E-04:e 0.000E00:f 3.874E-03:10 -3.201E-03:11 -6.744E-04:12 9.855E-07:13 
#C 1.6022777822E-08 19
-7.739E-05:1 3.300E00:2 3.300E00:3 3.300E00:4 3.300E00:5 3.229E00:6 3.985E00:7 -3.310E-12:8 3.310E-12:9 1.810E-19:a 0.000E00:b 
1.362E-04:c -4.428E-12:d -1.362E-04:e 0.000E00:f 3.875E-03:10 -3.201E-03:11 -6.741E-04:12 4.466E-07:13 
#C 1.6068331137E-08 19
-8.895E-06:1 3.300E00:2 3.300E00:3 3.300E00:4 3.300E00:5 3.229E00:6 3.985E00:7 -3.310E-12:8 3.310E-12:9 9.733E-17:a 0.000E00:b 
1.362E-04:c -4.428E-12:d -1.362E-04:e 1.110E-16:f 3.876E-03:10 -3.202E-03:11 -6.741E-04:12 4.466E-07:13 
#C 1.6159437768E-08 19
1.706E-05:1 3.300E00:2 3.300E00:3 3.300E00:4 3.300E00:5 3.229E00:6 3.985E00:7 -3.310E-12:8 3.310E-12:9 4.181E-17:a 0.000E00:b 
1.362E-04:c -4.428E-12:d -1.362E-04:e -2.776E-17:f 3.877E-03:10 -3.204E-03:11 -6.742E-04:12 4.466E-07:13 
#C 1.6341651030E-08 19
4.068E-06:1 3.300E00:2 3.300E00:3 3.300E00:4 3.300E00:5 3.229E00:6 3.985E00:7 -3.310E-12:8 3.310E-12:9 2.100E-17:a 0.000E00:b 
1.362E-04:c -4.428E-12:d -1.362E-04:e -1.388E-17:f 3.874E-03:10 -3.201E-03:11 -6.741E-04:12 3.599E-07:13 
#C 1.6706077553E-08 19
9.724E-07:1 3.300E00:2 3.300E00:3 3.300E00:4 3.300E00:5 3.229E00:6 3.985E00:7 -3.310E-12:8 3.310E-12:9 1.059E-17:a 0.000E00:b 
1.362E-04:c -4.428E-12:d -1.362E-04:e -6.939E-18:f 3.872E-03:10 -3.199E-03:11 -6.740E-04:12 2.532E-07:13 
#C 1.7434930600E-08 19
-2.909E-07:1 3.300E00:2 3.300E00:3 3.300E00:4 3.300E00:5 3.229E00:6 3.985E00:7 -3.310E-12:8 3.310E-12:9 2.783E-18:a -3.469E-18:b 
1.362E-04:c -4.428E-12:d -1.362E-04:e -3.469E-18:f 3.868E-03:10 -3.194E-03:11 -6.740E-04:12 3.097E-07:13 
#C 1.8434984781E-08 19
5.366E-08:1 3.300E00:2 3.300E00:3 3.300E00:4 3.300E00:5 3.229E00:6 3.985E00:7 -3.310E-12:8 3.310E-12:9 1.699E-18:a 0.000E00:b 
1.362E-04:c -4.428E-12:d -1.362E-04:e 5.204E-18:f 3.869E-03:10 -3.195E-03:11 -6.738E-04:12 -3.001E-08:13 
#C 1.9000000000E-08 19
8.556E-08:1 3.300E00:2 3.300E00:3 3.300E00:4 3.300E00:5 3.229E00:6 3.985E00:7 -3.310E-12:8 3.310E-12:9 4.843E-18:a 2.602E-18:b 
1.362E-04:c -4.428E-12:d -1.362E-04:e -6.072E-18:f 3.869E-03:10 -3.195E-03:11 -6.739E-04:12 9.449E-08:13 
#C 1.9100000000E-08 19
7.573E-06:1 3.300E00:2 3.300E00:3 3.300E00:4 3.300E00:5 3.229E00:6 3.985E00:7 -3.310E-12:8 3.310E-12:9 1.810E-19:a 0.000E00:b 
1.362E-04:c -4.428E-12:d -1.362E-04:e 0.000E00:f 3.875E-03:10 -3.201E-03:11 -6.733E-04:12 -1.292E-06:13 
#C 1.9300001523E-08 19
1.188E-04:1 3.300E00:2 3.300E00:3 3.300E00:4 3.300E00:5 3.229E00:6 3.985E00:7 -3.310E-12:8 3.310E-12:9 1.810E-19:a 0.000E00:b 
1.362E-04:c -4.428E-12:d -1.362E-04:e 0.000E00:f 3.873E-03:10 -3.199E-03:11 -6.738E-04:12 -2.251E-07:13 
#C 1.9700004569E-08 19
2.081E-03:1 3.300E00:2 3.300E00:3 3.300E00:4 3.300E00:5 3.229E00:6 3.985E00:7 -3.310E-12:8 3.310E-12:9 -1.283E-17:a -6.939E-18:b 
1.362E-04:c -4.428E-12:d -1.362E-04:e 6.939E-18:f 3.869E-03:10 -3.195E-03:11 -6.738E-04:12 -2.251E-07:13 
#C 2.0000000000E-08 19
1.240E-03:1 3.300E00:2 3.300E00:3 3.300E00:4 3.300E00:5 3.229E00:6 3.985E00:7 -3.310E-12:8 3.310E-12:9 -5.891E-18:a 3.469E-18:b 
1.362E-04:c -4.428E-12:d -1.362E-04:e 0.000E00:f 3.872E-03:10 -3.199E-03:11 -6.739E-04:12 4.053E-08:13 
#C 2.0065006316E-08 19
4.046E-04:1 3.300E00:2 3.300E00:3 3.300E00:4 3.300E00:5 3.229E00:6 3.985E00:7 -3.310E-12:8 3.310E-12:9 1.810E-19:a 0.000E00:b 
1.362E-04:c -4.428E-12:d -1.362E-04:e 0.000E00:f 3.873E-03:10 -3.199E-03:11 -6.739E-04:12 -3.918E-08:13 
#C 2.0195018947E-08 19
-1.351E-04:1 3.300E00:2 3.300E00:3 3.300E00:4 3.300E00:5 3.229E00:6 3.985E00:7 -3.310E-12:8 3.310E-12:9 3.141E-17:a -5.551E-17:b 
1.362E-04:c -4.428E-12:d -1.362E-04:e 2.776E-17:f 3.875E-03:10 -3.201E-03:11 -6.739E-04:12 -3.919E-08:13 
#C 2.0455044210E-08 19
-6.584E-05:1 3.300E00:2 3.300E00:3 3.300E00:4 3.300E00:5 3.229E00:6 3.985E00:7 -3.310E-12:8 3.310E-12:9 -1.554E-18:a -1.388E-17:b 
1.362E-04:c -4.428E-12:d -1.362E-04:e 0.000E00:f 3.873E-03:10 -3.200E-03:11 -6.739E-04:12 -7.216E-08:13 
#C 2.0975094736E-08 19
2.158E-06:1 3.300E00:2 3.300E00:3 3.300E00:4 3.300E00:5 3.229E00:6 3.985E00:7 -3.310E-12:8 3.310E-12:9 1.810E-19:a 6.939E-18:b 
1.362E-04:c -4.428E-12:d -1.362E-04:e 0.000E00:f 3.871E-03:10 -3.197E-03:11 -6.739E-04:12 -5.898E-08:13 
#C 2.1975148916E-08 19
1.388E-06:1 3.300E00:2 3.300E00:3 3.300E00:4 3.300E00:5 3.229E00:6 3.985E00:7 -3.310E-12:8 3.310E-12:9 3.217E-18:a 0.000E00:b 
1.362E-04:c -4.428E-12:d -1.362E-04:e -3.469E-18:f 3.869E-03:10 -3.195E-03:11 -6.739E-04:12 1.420E-07:13 
#C 2.2975203097E-08 19
1.074E-06:1 3.300E00:2 3.300E00:3 3.300E00:4 3.300E00:5 3.229E00:6 3.985E00:7 -3.310E-12:8 3.310E-12:9 3.217E-18:a 0.000E00:b 
1.362E-04:c -4.428E-12:d -1.362E-04:e -3.469E-18:f 3.869E-03:10 -3.195E-03:11 -6.739E-04:12 1.420E-07:13 
#C 2.3975257278E-08 19
7.419E-07:1 3.300E00:2 3.300E00:3 3.300E00:4 3.300E00:5 3.229E00:6 3.985E00:7 -3.310E-12:8 3.310E-12:9 3.217E-18:a 0.000E00:b 
1.362E-04:c -4.428E-12:d -1.362E-04:e -3.469E-18:f 3.869E-03:10 -3.195E-03:11 -6.739E-04:12 1.420E-07:13 
#C 2.4975311458E-08 19
5.369E-07:1 3.300E00:2 3.300E00:3 3.300E00:4 3.300E00:5 3.229E00:6 3.985E00:7 -3.310E-12:8 3.310E-12:9 3.217E-18:a 0.000E00:b 
1.362E-04:c -4.428E-12:d -1.362E-04:e -3.469E-18:f 3.869E-03:10 -3.195E-03:11 -6.739E-04:12 1.420E-07:13 
#C 2.5975365639E-08 19
5.078E-07:1 3.300E00:2 3.300E00:3 3.300E00:4 3.300E00:5 3.229E00:6 3.985E00:7 -3.310E-12:8 3.310E-12:9 3.217E-18:a 0.000E00:b 
1.362E-04:c -4.428E-12:d -1.362E-04:e -3.469E-18:f 3.869E-03:10 -3.195E-03:11 -6.739E-04:12 1.420E-07:13 
#C 2.6975419819E-08 19
5.104E-07:1 3.300E00:2 3.300E00:3 3.300E00:4 3.300E00:5 3.229E00:6 3.985E00:7 -3.310E-12:8 3.310E-12:9 3.217E-18:a 0.000E00:b 
1.362E-04:c -4.428E-12:d -1.362E-04:e -3.469E-18:f 3.869E-03:10 -3.195E-03:11 -6.739E-04:12 1.420E-07:13 
#C 2.7975474000E-08 19
5.104E-07:1 3.300E00:2 3.300E00:3 3.300E00:4 3.300E00:5 3.229E00:6 3.985E00:7 -3.310E-12:8 3.310E-12:9 3.217E-18:a 0.000E00:b 
1.362E-04:c -4.428E-12:d -1.362E-04:e -3.469E-18:f 3.869E-03:10 -3.195E-03:11 -6.739E-04:12 1.420E-07:13 
#C 2.8975528181E-08 19
5.104E-07:1 3.300E00:2 3.300E00:3 3.300E00:4 3.300E00:5 3.229E00:6 3.985E00:7 -3.310E-12:8 3.310E-12:9 3.217E-18:a 0.000E00:b 
