#H
SOURCE='PSPICE' VERSION='PSpice 16.0.0 (July 2006)'
TITLE='**** 05/18/10 12:08:24 ******* PSpice 16.0.0 (July 2006) ****** ID# 0 ********'
SUBTITLE=''
TIME='02:16:38' DATE='06/03/10' TEMPERATURE='2.700E01'
ANALYSIS='Transient Analysis' SERIALNO='61413'
ALLVALUES='NO' COMPLEXVALUES='NO' NODES='20'
SWEEPVAR='Time' SWEEPMODE='VAR_STEP'
XBEGIN='0.000E00' XEND='5.000E-07'
FORMAT='0 VOLTSorAMPS;EFLOAT : NODEorBRANCH;NODE  '
DGTLDATA='NO' 
#N 
'V(C_F_D_LSB)' 'V(C_F_D_2SB)' 'V(C_F_D_3SB)' 'V(C_F_D_4SB)' 'V(C_F_D_5SB)' 'V(C_F_D_MSB)' 'V(C_F_C1_NDNEG)' 'I(I_INY1)' 'ID(M_C_F_C1_M3)' 
'IB(M_C_F_C1_M3)' 'IS(M_C_F_C1_M3)' 'IG(M_C_F_C1_M3)' 'ID(M_C_F_C1_M1)' 'IB(M_C_F_C1_M1)' 'IS(M_C_F_C1_M1)' 'IG(M_C_F_C1_M1)' 
'ID(M_C_F_C1_M4)' 'IB(M_C_F_C1_M4)' 'IS(M_C_F_C1_M4)' 'IG(M_C_F_C1_M4)' 
#C 0.0000000000E00 20
3.300E00:1 3.300E00:2 3.300E00:3 3.300E00:4 3.300E00:5 3.229E00:6 2.425E00:7 0.000E00:8 -1.258E-04:9 8.850E-13:a 1.258E-04:b 
0.000E00:c 1.258E-04:d -2.862E-12:e -1.258E-04:f 0.000E00:10 -1.265E-04:11 1.579E-12:12 1.265E-04:13 0.000E00:14 
#C 2.0000000000E-11 20
3.300E00:1 3.300E00:2 3.300E00:3 3.300E00:4 3.300E00:5 3.229E00:6 2.425E00:7 0.000E00:8 -1.258E-04:9 -1.129E-13:a 1.258E-04:b 
8.178E-12:c 1.258E-04:d -4.549E-12:e -1.258E-04:f -1.060E-11:10 -1.265E-04:11 5.804E-13:12 1.265E-04:13 8.237E-12:14 
#C 4.0000000000E-11 20
3.300E00:1 3.300E00:2 3.300E00:3 3.300E00:4 3.300E00:5 3.229E00:6 2.425E00:7 0.000E00:8 -1.258E-04:9 -1.129E-13:a 1.258E-04:b 
8.178E-12:c 1.258E-04:d -4.549E-12:e -1.258E-04:f -1.060E-11:10 -1.265E-04:11 5.804E-13:12 1.265E-04:13 8.237E-12:14 
#C 8.0000304580E-11 20
3.300E00:1 3.300E00:2 3.300E00:3 3.300E00:4 3.300E00:5 3.229E00:6 2.425E00:7 0.000E00:8 -1.258E-04:9 8.850E-13:a 1.258E-04:b 
0.000E00:c 1.258E-04:d -2.862E-12:e -1.258E-04:f 0.000E00:10 -1.265E-04:11 1.579E-12:12 1.265E-04:13 0.000E00:14 
#C 1.6000091374E-10 20
3.300E00:1 3.300E00:2 3.300E00:3 3.300E00:4 3.300E00:5 3.229E00:6 2.425E00:7 0.000E00:8 -1.258E-04:9 8.850E-13:a 1.258E-04:b 
0.000E00:c 1.258E-04:d -2.862E-12:e -1.258E-04:f 0.000E00:10 -1.265E-04:11 1.579E-12:12 1.265E-04:13 0.000E00:14 
#C 3.2000213206E-10 20
3.300E00:1 3.300E00:2 3.300E00:3 3.300E00:4 3.300E00:5 3.229E00:6 2.425E00:7 0.000E00:8 -1.258E-04:9 8.850E-13:a 1.258E-04:b 
0.000E00:c 1.258E-04:d -2.862E-12:e -1.258E-04:f 0.000E00:10 -1.265E-04:11 1.579E-12:12 1.265E-04:13 0.000E00:14 
#C 6.4000456870E-10 20
3.300E00:1 3.300E00:2 3.300E00:3 3.300E00:4 3.300E00:5 3.229E00:6 2.425E00:7 0.000E00:8 -1.258E-04:9 8.850E-13:a 1.258E-04:b 
0.000E00:c 1.258E-04:d -2.862E-12:e -1.258E-04:f 0.000E00:10 -1.265E-04:11 1.579E-12:12 1.265E-04:13 0.000E00:14 
#C 1.2800094420E-09 20
3.300E00:1 3.300E00:2 3.300E00:3 3.300E00:4 3.300E00:5 3.229E00:6 2.425E00:7 0.000E00:8 -1.258E-04:9 8.850E-13:a 1.258E-04:b 
0.000E00:c 1.258E-04:d -2.862E-12:e -1.258E-04:f 0.000E00:10 -1.265E-04:11 1.579E-12:12 1.265E-04:13 0.000E00:14 
#C 2.0000000010E-09 20
3.300E00:1 3.300E00:2 3.300E00:3 3.300E00:4 3.300E00:5 3.229E00:6 2.425E00:7 1.333E-10:8 -1.258E-04:9 8.850E-13:a 1.258E-04:b 
0.000E00:c 1.258E-04:d -2.862E-12:e -1.258E-04:f 0.000E00:10 -1.265E-04:11 1.579E-12:12 1.265E-04:13 0.000E00:14 
#C 2.0200000009E-09 20
3.300E00:1 3.300E00:2 3.300E00:3 3.300E00:4 3.300E00:5 3.229E00:6 2.423E00:7 1.946E-03:8 4.078E-04:9 1.500E-04:a 6.716E-04:b 
-1.229E-03:c 1.125E-04:d 2.577E-06:e -1.256E-04:f 1.050E-05:10 4.150E-04:11 1.501E-04:12 6.721E-04:13 -1.237E-03:14 
#C 2.0600003055E-09 20
3.300E00:1 3.300E00:2 3.300E00:3 3.300E00:4 3.300E00:5 3.229E00:6 2.416E00:7 3.459E-03:8 8.189E-04:9 2.663E-04:a 1.098E-03:b 
-2.183E-03:c 1.023E-04:d 4.541E-06:e -1.253E-04:f 1.842E-05:10 8.323E-04:11 2.664E-04:12 1.098E-03:13 -2.197E-03:14 
#C 2.1400009146E-09 20
3.300E00:1 3.300E00:2 3.300E00:3 3.300E00:4 3.300E00:5 3.229E00:6 2.400E00:7 3.962E-03:8 9.479E-04:9 3.044E-04:a 1.245E-03:b 
-2.497E-03:c 1.023E-04:d 4.542E-06:e -1.253E-04:f 1.842E-05:10 9.635E-04:11 3.045E-04:12 1.245E-03:13 -2.513E-03:14 
#C 2.2000000010E-09 20
3.300E00:1 3.300E00:2 3.300E00:3 3.300E00:4 3.300E00:5 3.229E00:6 2.387E00:7 3.995E-03:8 9.471E-04:9 3.058E-04:a 1.257E-03:b 
-2.510E-03:c 9.350E-05:d 6.021E-06:e -1.223E-04:f 2.278E-05:10 9.629E-04:11 3.060E-04:12 1.257E-03:13 -2.526E-03:14 
#C 2.2160001228E-09 20
3.300E00:1 3.300E00:2 3.300E00:3 3.300E00:4 3.300E00:5 3.229E00:6 2.384E00:7 3.871E-03:8 9.426E-04:9 3.050E-04:a 1.256E-03:b 
-2.503E-03:c 9.788E-05:d 5.282E-06:e -1.238E-04:f 2.060E-05:10 9.584E-04:11 3.051E-04:12 1.256E-03:13 -2.519E-03:14 
#C 2.2480026948E-09 20
3.300E00:1 3.300E00:2 3.300E00:3 3.300E00:4 3.300E00:5 3.229E00:6 2.378E00:7 3.633E-03:8 8.439E-04:9 2.782E-04:a 1.161E-03:b 
-2.283E-03:c 1.053E-04:d 3.694E-06:e -1.221E-04:f 1.310E-05:10 8.588E-04:11 2.783E-04:12 1.162E-03:13 -2.299E-03:14 
#C 2.3120078387E-09 20
3.300E00:1 3.300E00:2 3.300E00:3 3.300E00:4 3.300E00:5 3.229E00:6 2.367E00:7 3.197E-03:8 7.161E-04:9 2.439E-04:a 1.043E-03:b 
-2.003E-03:c 1.053E-04:d 3.695E-06:e -1.221E-04:f 1.310E-05:10 7.289E-04:11 2.440E-04:12 1.043E-03:13 -2.016E-03:14 
#C 2.4400181266E-09 20
3.300E00:1 3.300E00:2 3.300E00:3 3.300E00:4 3.300E00:5 3.229E00:6 2.348E00:7 2.475E-03:8 5.050E-04:9 1.874E-04:a 8.479E-04:b 
-1.540E-03:c 1.115E-04:d 2.612E-06:e -1.238E-04:f 9.699E-06:10 5.151E-04:11 1.875E-04:12 8.486E-04:13 -1.551E-03:14 
#C 2.6960387024E-09 20
3.300E00:1 3.300E00:2 3.300E00:3 3.300E00:4 3.300E00:5 3.229E00:6 2.321E00:7 1.483E-03:8 2.132E-04:9 1.098E-04:a 5.802E-04:b 
-9.032E-04:c 1.169E-04:d 1.568E-06:e -1.240E-04:f 5.552E-06:10 2.194E-04:11 1.098E-04:12 5.810E-04:13 -9.102E-04:14 
#C 3.2080798539E-09 20
3.300E00:1 3.300E00:2 3.300E00:3 3.300E00:4 3.300E00:5 3.229E00:6 2.292E00:7 5.327E-04:8 -6.909E-05:9 3.540E-05:a 3.257E-04:b 
-2.920E-04:c 1.233E-04:d 3.155E-07:e -1.243E-04:f 6.193E-07:10 -6.684E-05:11 3.538E-05:12 3.265E-04:13 -2.951E-04:14 
#C 4.2321621570E-09 20
3.300E00:1 3.300E00:2 3.300E00:3 3.300E00:4 3.300E00:5 3.229E00:6 2.270E00:7 6.870E-05:8 -2.138E-04:9 -1.267E-06:a 2.050E-04:b 
1.009E-05:c 1.253E-04:d 4.952E-10:e -1.254E-04:f 4.932E-08:10 -2.139E-04:11 -1.281E-06:12 2.059E-04:13 9.327E-06:14 
#C 5.9247478041E-09 20
3.300E00:1 3.300E00:2 3.300E00:3 3.300E00:4 3.300E00:5 3.229E00:6 2.260E00:7 2.327E-06:8 -2.392E-04:9 -6.734E-06:a 1.906E-04:b 
5.539E-05:c 1.258E-04:d -1.126E-07:e -1.253E-04:f -4.506E-07:10 -2.401E-04:11 -6.738E-06:12 1.914E-04:13 5.543E-05:14 
#C 8.7522431406E-09 20
3.300E00:1 3.300E00:2 3.300E00:3 3.300E00:4 3.300E00:5 3.229E00:6 2.262E00:7 8.144E-09:8 -2.383E-04:9 -6.808E-06:a 1.890E-04:b 
5.608E-05:c 1.257E-04:d -5.689E-08:e -1.255E-04:f -9.579E-08:10 -2.395E-04:11 -6.807E-06:12 1.899E-04:13 5.644E-05:14 
#C 1.4088348964E-08 20
3.300E00:1 3.300E00:2 3.300E00:3 3.300E00:4 3.300E00:5 3.229E00:6 2.277E00:7 1.888E-13:8 -2.268E-04:9 -6.101E-06:a 1.826E-04:b 
5.025E-05:c 1.259E-04:d -1.027E-07:e -1.254E-04:f -4.115E-07:10 -2.280E-04:11 -6.100E-06:12 1.835E-04:13 5.063E-05:14 
#C 1.5000000001E-08 20
3.300E00:1 3.300E00:2 3.300E00:3 3.300E00:4 3.300E00:5 3.229E00:6 2.281E00:7 3.049E-14:8 -2.240E-04:9 -5.936E-06:a 1.810E-04:b 
4.886E-05:c 1.255E-04:d -2.106E-08:e -1.254E-04:f -5.150E-08:10 -2.251E-04:11 -5.935E-06:12 1.819E-04:13 4.920E-05:14 
#C 1.5100000001E-08 20
3.300E00:1 3.300E00:2 3.300E00:3 3.300E00:4 3.300E00:5 3.229E00:6 2.281E00:7 2.496E-14:8 -2.240E-04:9 -6.019E-06:a 1.805E-04:b 
4.955E-05:c 1.273E-04:d -3.650E-07:e -1.255E-04:f -1.403E-06:10 -2.252E-04:11 -6.018E-06:12 1.813E-04:13 4.992E-05:14 
#C 1.5300001524E-08 20
3.300E00:1 3.300E00:2 3.300E00:3 3.300E00:4 3.300E00:5 3.229E00:6 2.282E00:7 1.673E-14:8 -2.235E-04:9 -6.019E-06:a 1.800E-04:b 
4.955E-05:c 1.258E-04:d -8.805E-08:e -1.254E-04:f -3.239E-07:10 -2.247E-04:11 -6.018E-06:12 1.808E-04:13 4.992E-05:14 
#C 1.5350001905E-08 20
3.300E00:1 3.300E00:2 3.300E00:3 3.300E00:4 3.300E00:5 3.229E00:6 2.282E00:7 1.514E-14:8 -2.234E-04:9 -6.019E-06:a 1.799E-04:b 
4.955E-05:c 1.258E-04:d -8.805E-08:e -1.254E-04:f -3.239E-07:10 -2.246E-04:11 -6.018E-06:12 1.807E-04:13 4.992E-05:14 
#C 1.5450002666E-08 20
3.300E00:1 3.300E00:2 3.300E00:3 3.300E00:4 3.300E00:5 3.229E00:6 2.283E00:7 1.240E-14:8 -2.232E-04:9 -6.019E-06:a 1.796E-04:b 
4.956E-05:c 1.258E-04:d -8.805E-08:e -1.254E-04:f -3.239E-07:10 -2.244E-04:11 -6.018E-06:12 1.805E-04:13 4.992E-05:14 
#C 1.5475002856E-08 20
3.300E00:1 3.300E00:2 3.300E00:3 3.300E00:4 3.300E00:5 3.229E00:6 2.283E00:7 1.179E-14:8 -2.231E-04:9 -6.019E-06:a 1.796E-04:b 
4.956E-05:c 1.258E-04:d -8.805E-08:e -1.254E-04:f -3.239E-07:10 -2.243E-04:11 -6.018E-06:12 1.804E-04:13 4.992E-05:14 
#C 1.5525003237E-08 20
3.300E00:1 3.300E00:2 3.300E00:3 3.300E00:4 3.300E00:5 3.229E00:6 2.283E00:7 1.067E-14:8 -2.230E-04:9 -6.019E-06:a 1.794E-04:b 
4.956E-05:c 1.258E-04:d -8.805E-08:e -1.254E-04:f -3.239E-07:10 -2.242E-04:11 -6.018E-06:12 1.803E-04:13 4.992E-05:14 
#C 1.5537503332E-08 20
3.300E00:1 3.300E00:2 3.300E00:3 3.300E00:4 3.300E00:5 3.229E00:6 2.283E00:7 1.041E-14:8 -2.230E-04:9 -6.019E-06:a 1.794E-04:b 
4.956E-05:c 1.258E-04:d -8.805E-08:e -1.254E-04:f -3.239E-07:10 -2.241E-04:11 -6.018E-06:12 1.802E-04:13 4.992E-05:14 
#C 1.5562503523E-08 20
3.300E00:1 3.300E00:2 3.300E00:3 3.300E00:4 3.300E00:5 3.229E00:6 2.283E00:7 9.897E-15:8 -2.229E-04:9 -6.019E-06:a 1.794E-04:b 
4.956E-05:c 1.258E-04:d -8.805E-08:e -1.254E-04:f -3.239E-07:10 -2.241E-04:11 -6.019E-06:12 1.802E-04:13 4.992E-05:14 
#C 1.5568753570E-08 20
3.300E00:1 3.300E00:2 3.300E00:3 3.300E00:4 3.300E00:5 3.229E00:6 2.283E00:7 9.775E-15:8 -2.229E-04:9 -6.019E-06:a 1.793E-04:b 
4.956E-05:c 1.258E-04:d -8.805E-08:e -1.254E-04:f -3.239E-07:10 -2.241E-04:11 -6.019E-06:12 1.802E-04:13 4.992E-05:14 
#C 1.5581253665E-08 20
3.300E00:1 3.300E00:2 3.300E00:3 3.300E00:4 3.300E00:5 3.229E00:6 2.283E00:7 9.533E-15:8 -2.228E-04:9 -6.019E-06:a 1.793E-04:b 
4.956E-05:c 1.258E-04:d -8.805E-08:e -1.254E-04:f -3.239E-07:10 -2.240E-04:11 -6.019E-06:12 1.801E-04:13 4.992E-05:14 
#C 1.5606253856E-08 20
3.300E00:1 3.300E00:2 3.300E00:3 3.300E00:4 3.300E00:5 3.229E00:6 2.283E00:7 9.068E-15:8 -2.228E-04:9 -6.019E-06:a 1.793E-04:b 
4.956E-05:c 1.258E-04:d -8.805E-08:e -1.254E-04:f -3.239E-07:10 -2.240E-04:11 -6.019E-06:12 1.801E-04:13 4.992E-05:14 
#C 1.5656254236E-08 20
3.300E00:1 3.300E00:2 3.300E00:3 3.300E00:4 3.300E00:5 3.229E00:6 2.284E00:7 8.205E-15:8 -2.227E-04:9 -6.019E-06:a 1.791E-04:b 
4.956E-05:c 1.258E-04:d -8.805E-08:e -1.254E-04:f -3.239E-07:10 -2.239E-04:11 -6.019E-06:12 1.800E-04:13 4.992E-05:14 
#C 1.5731190779E-08 20
3.300E00:1 3.300E00:2 3.300E00:3 3.300E00:4 3.300E00:5 3.229E00:6 2.284E00:7 7.063E-15:8 -2.225E-04:9 -6.019E-06:a 1.789E-04:b 
4.956E-05:c 1.258E-04:d -8.805E-08:e -1.254E-04:f -3.239E-07:10 -2.237E-04:11 -6.019E-06:12 1.798E-04:13 4.992E-05:14 
#C 1.5845429134E-08 20
3.300E00:1 3.300E00:2 3.300E00:3 3.300E00:4 3.300E00:5 3.229E00:6 2.284E00:7 5.621E-15:8 -2.222E-04:9 -6.020E-06:a 1.787E-04:b 
4.956E-05:c 1.258E-04:d -8.805E-08:e -1.254E-04:f -3.239E-07:10 -2.234E-04:11 -6.019E-06:12 1.795E-04:13 4.992E-05:14 
#C 1.6000000001E-08 20
3.300E00:1 3.300E00:2 3.300E00:3 3.300E00:4 3.300E00:5 3.229E00:6 2.285E00:7 4.126E-15:8 -2.218E-04:9 -6.020E-06:a 1.783E-04:b 
4.956E-05:c 1.258E-04:d -8.805E-08:e -1.254E-04:f -3.239E-07:10 -2.230E-04:11 -6.019E-06:12 1.791E-04:13 4.992E-05:14 
#C 1.6022847672E-08 20
3.300E00:1 3.300E00:2 3.300E00:3 3.300E00:4 3.300E00:5 3.229E00:6 2.285E00:7 3.942E-15:8 -2.218E-04:9 -6.020E-06:a 1.782E-04:b 
4.956E-05:c 1.258E-04:d -8.805E-08:e -1.254E-04:f -3.239E-07:10 -2.230E-04:11 -6.019E-06:12 1.791E-04:13 4.992E-05:14 
#C 1.6068540686E-08 20
3.300E00:1 3.300E00:2 3.300E00:3 3.300E00:4 3.300E00:5 3.229E00:6 2.285E00:7 3.598E-15:8 -2.217E-04:9 -6.020E-06:a 1.781E-04:b 
4.956E-05:c 1.258E-04:d -8.805E-08:e -1.254E-04:f -3.239E-07:10 -2.229E-04:11 -6.019E-06:12 1.790E-04:13 4.992E-05:14 
#C 1.6159926714E-08 20
3.300E00:1 3.300E00:2 3.300E00:3 3.300E00:4 3.300E00:5 3.229E00:6 2.286E00:7 2.997E-15:8 -2.214E-04:9 -6.020E-06:a 1.779E-04:b 
4.956E-05:c 1.258E-04:d -8.805E-08:e -1.254E-04:f -3.239E-07:10 -2.226E-04:11 -6.019E-06:12 1.787E-04:13 4.992E-05:14 
#C 1.6342698769E-08 20
3.300E00:1 3.300E00:2 3.300E00:3 3.300E00:4 3.300E00:5 3.229E00:6 2.286E00:7 2.079E-15:8 -2.210E-04:9 -6.020E-06:a 1.775E-04:b 
4.956E-05:c 1.258E-04:d -8.805E-08:e -1.254E-04:f -3.239E-07:10 -2.222E-04:11 -6.019E-06:12 1.783E-04:13 4.992E-05:14 
#C 1.6708242879E-08 20
3.300E00:1 3.300E00:2 3.300E00:3 3.300E00:4 3.300E00:5 3.229E00:6 2.288E00:7 1.001E-15:8 -2.201E-04:9 -6.020E-06:a 1.766E-04:b 
4.956E-05:c 1.258E-04:d -8.805E-08:e -1.254E-04:f -3.239E-07:10 -2.213E-04:11 -6.020E-06:12 1.774E-04:13 4.992E-05:14 
#C 1.7439331100E-08 20
3.300E00:1 3.300E00:2 3.300E00:3 3.300E00:4 3.300E00:5 3.229E00:6 2.291E00:7 2.316E-16:8 -2.184E-04:9 -6.021E-06:a 1.748E-04:b 
4.956E-05:c 1.259E-04:d -8.804E-08:e -1.254E-04:f -3.239E-07:10 -2.173E-04:11 -5.428E-06:12 1.779E-04:13 4.483E-05:14 
#C 1.8901507543E-08 20
3.300E00:1 3.300E00:2 3.300E00:3 3.300E00:4 3.300E00:5 3.229E00:6 2.296E00:7 1.214E-17:8 -2.111E-04:9 -4.851E-06:a 1.760E-04:b 
3.992E-05:c 1.265E-04:d -3.136E-07:e -1.244E-04:f -1.784E-06:10 -2.141E-04:11 -5.385E-06:12 1.749E-04:13 4.463E-05:14 
#C 1.9000000001E-08 20
3.300E00:1 3.300E00:2 3.300E00:3 3.300E00:4 3.300E00:5 3.229E00:6 2.297E00:7 1.041E-17:8 -2.125E-04:9 -5.319E-06:a 1.741E-04:b 
4.377E-05:c 1.262E-04:d -2.234E-07:e -1.248E-04:f -1.200E-06:10 -2.143E-04:11 -5.497E-06:12 1.742E-04:13 4.553E-05:14 
#C 1.9100000001E-08 20
3.300E00:1 3.300E00:2 3.300E00:3 3.300E00:4 3.300E00:5 3.229E00:6 2.297E00:7 8.674E-18:8 -2.123E-04:9 -5.319E-06:a 1.739E-04:b 
4.377E-05:c 1.262E-04:d -2.234E-07:e -1.248E-04:f -1.200E-06:10 -2.141E-04:11 -5.497E-06:12 1.740E-04:13 4.553E-05:14 
#C 1.9276089817E-08 20
3.300E00:1 3.300E00:2 3.300E00:3 3.300E00:4 3.300E00:5 3.229E00:6 2.298E00:7 6.072E-18:8 -2.120E-04:9 -5.319E-06:a 1.735E-04:b 
4.377E-05:c 1.262E-04:d -2.234E-07:e -1.248E-04:f -1.200E-06:10 -2.137E-04:11 -5.497E-06:12 1.736E-04:13 4.553E-05:14 
#C 1.9628269448E-08 20
3.300E00:1 3.300E00:2 3.300E00:3 3.300E00:4 3.300E00:5 3.229E00:6 2.299E00:7 3.469E-18:8 -2.112E-04:9 -5.320E-06:a 1.728E-04:b 
4.377E-05:c 1.261E-04:d -2.234E-07:e -1.247E-04:f -1.200E-06:10 -2.129E-04:11 -5.498E-06:12 1.729E-04:13 4.553E-05:14 
#C 2.0000000001E-08 20
3.300E00:1 3.300E00:2 3.300E00:3 3.300E00:4 3.300E00:5 3.229E00:6 2.300E00:7 0.000E00:8 -2.104E-04:9 -5.320E-06:a 1.720E-04:b 
4.377E-05:c 1.261E-04:d -2.234E-07:e -1.247E-04:f -1.200E-06:10 -2.121E-04:11 -5.498E-06:12 1.721E-04:13 4.553E-05:14 
#C 2.0070435927E-08 20
3.300E00:1 3.300E00:2 3.300E00:3 3.300E00:4 3.300E00:5 3.229E00:6 2.301E00:7 0.000E00:8 -2.103E-04:9 -5.320E-06:a 1.718E-04:b 
4.377E-05:c 1.261E-04:d -2.234E-07:e -1.247E-04:f -1.200E-06:10 -2.119E-04:11 -5.498E-06:12 1.719E-04:13 4.553E-05:14 
#C 2.0211298467E-08 20
3.300E00:1 3.300E00:2 3.300E00:3 3.300E00:4 3.300E00:5 3.229E00:6 2.301E00:7 0.000E00:8 -2.100E-04:9 -5.320E-06:a 1.715E-04:b 
4.377E-05:c 1.261E-04:d -2.234E-07:e -1.247E-04:f -1.200E-06:10 -2.116E-04:11 -5.498E-06:12 1.716E-04:13 4.553E-05:14 
#C 2.0493023546E-08 20
3.300E00:1 3.300E00:2 3.300E00:3 3.300E00:4 3.300E00:5 3.229E00:6 2.302E00:7 0.000E00:8 -2.094E-04:9 -5.320E-06:a 1.709E-04:b 
4.377E-05:c 1.261E-04:d -2.234E-07:e -1.247E-04:f -1.200E-06:10 -2.110E-04:11 -5.498E-06:12 1.710E-04:13 4.553E-05:14 
#C 2.1056473703E-08 20
3.300E00:1 3.300E00:2 3.300E00:3 3.300E00:4 3.300E00:5 3.229E00:6 2.304E00:7 0.000E00:8 -2.082E-04:9 -5.321E-06:a 1.698E-04:b 
4.378E-05:c 1.237E-04:d 4.723E-07:e -1.273E-04:f 3.182E-06:10 -2.098E-04:11 -5.499E-06:12 1.698E-04:13 4.553E-05:14 
#C 2.2183374018E-08 20
3.300E00:1 3.300E00:2 3.300E00:3 3.300E00:4 3.300E00:5 3.229E00:6 2.308E00:7 0.000E00:8 -2.059E-04:9 -5.321E-06:a 1.674E-04:b 
4.378E-05:c 1.264E-04:d -2.915E-07:e -1.245E-04:f -1.648E-06:10 -2.038E-04:11 -4.432E-06:12 1.715E-04:13 3.669E-05:14 
#C 2.4437174649E-08 20
3.300E00:1 3.300E00:2 3.300E00:3 3.300E00:4 3.300E00:5 3.229E00:6 2.316E00:7 0.000E00:8 -1.977E-04:9 -4.164E-06:a 1.676E-04:b 
3.425E-05:c 1.257E-04:d -9.728E-08:e -1.252E-04:f -4.169E-07:10 -2.011E-04:11 -4.861E-06:12 1.657E-04:13 4.022E-05:14 
#C 2.8944775910E-08 20
3.300E00:1 3.300E00:2 3.300E00:3 3.300E00:4 3.300E00:5 3.229E00:6 2.329E00:7 0.000E00:8 -1.899E-04:9 -4.055E-06:a 1.606E-04:b 
3.334E-05:c 1.255E-04:d -4.404E-08:e -1.253E-04:f -1.465E-07:10 -1.898E-04:11 -3.757E-06:12 1.625E-04:13 3.106E-05:14 
#C 3.5000000001E-08 20
3.300E00:1 3.300E00:2 3.300E00:3 3.300E00:4 3.300E00:5 3.229E00:6 2.344E00:7 0.000E00:8 -1.786E-04:9 -3.197E-06:a 1.556E-04:b 
2.627E-05:c 1.255E-04:d -4.088E-08:e -1.254E-04:f -1.303E-07:10 -1.798E-04:11 -3.247E-06:12 1.562E-04:13 2.684E-05:14 
#C 3.5100000001E-08 20
3.300E00:1 3.300E00:2 3.300E00:3 3.300E00:4 3.300E00:5 3.229E00:6 2.344E00:7 0.000E00:8 -1.799E-04:9 -3.594E-06:a 1.540E-04:b 
2.953E-05:c 1.256E-04:d -4.979E-08:e -1.253E-04:f -1.756E-07:10 -1.809E-04:11 -3.594E-06:12 1.548E-04:13 2.972E-05:14 
#C 3.5300001524E-08 20
3.300E00:1 3.300E00:2 3.300E00:3 3.300E00:4 3.300E00:5 3.229E00:6 2.344E00:7 0.000E00:8 -1.797E-04:9 -3.594E-06:a 1.537E-04:b 
2.953E-05:c 1.256E-04:d -4.979E-08:e -1.253E-04:f -1.756E-07:10 -1.806E-04:11 -3.595E-06:12 1.545E-04:13 2.972E-05:14 
#C 3.5350001905E-08 20
3.300E00:1 3.300E00:2 3.300E00:3 3.300E00:4 3.300E00:5 3.229E00:6 2.345E00:7 0.000E00:8 -1.796E-04:9 -3.594E-06:a 1.537E-04:b 
2.953E-05:c 1.256E-04:d -4.979E-08:e -1.253E-04:f -1.756E-07:10 -1.805E-04:11 -3.595E-06:12 1.544E-04:13 2.972E-05:14 
#C 3.5450002666E-08 20
3.300E00:1 3.300E00:2 3.300E00:3 3.300E00:4 3.300E00:5 3.229E00:6 2.345E00:7 0.000E00:8 -1.795E-04:9 -3.594E-06:a 1.535E-04:b 
2.953E-05:c 1.256E-04:d -4.979E-08:e -1.253E-04:f -1.756E-07:10 -1.804E-04:11 -3.595E-06:12 1.543E-04:13 2.972E-05:14 
#C 3.5475002856E-08 20
3.300E00:1 3.300E00:2 3.300E00:3 3.300E00:4 3.300E00:5 3.229E00:6 2.345E00:7 0.000E00:8 -1.794E-04:9 -3.594E-06:a 1.535E-04:b 
2.953E-05:c 1.256E-04:d -4.979E-08:e -1.253E-04:f -1.756E-07:10 -1.804E-04:11 -3.595E-06:12 1.543E-04:13 2.972E-05:14 
#C 3.5525003237E-08 20
3.300E00:1 3.300E00:2 3.300E00:3 3.300E00:4 3.300E00:5 3.229E00:6 2.345E00:7 0.000E00:8 -1.794E-04:9 -3.594E-06:a 1.534E-04:b 
2.953E-05:c 1.256E-04:d -4.979E-08:e -1.253E-04:f -1.756E-07:10 -1.803E-04:11 -3.595E-06:12 1.542E-04:13 2.972E-05:14 
#C 3.5625003999E-08 20
3.300E00:1 3.300E00:2 3.300E00:3 3.300E00:4 3.300E00:5 3.229E00:6 2.345E00:7 0.000E00:8 -1.792E-04:9 -3.594E-06:a 1.533E-04:b 
2.953E-05:c 1.256E-04:d -4.979E-08:e -1.253E-04:f -1.756E-07:10 -1.802E-04:11 -3.595E-06:12 1.541E-04:13 2.972E-05:14 
#C 3.5650004189E-08 20
3.300E00:1 3.300E00:2 3.300E00:3 3.300E00:4 3.300E00:5 3.229E00:6 2.345E00:7 0.000E00:8 -1.792E-04:9 -3.594E-06:a 1.533E-04:b 
2.953E-05:c 1.256E-04:d -4.979E-08:e -1.253E-04:f -1.756E-07:10 -1.801E-04:11 -3.595E-06:12 1.540E-04:13 2.972E-05:14 
#C 3.5700004570E-08 20
3.300E00:1 3.300E00:2 3.300E00:3 3.300E00:4 3.300E00:5 3.229E00:6 2.346E00:7 0.000E00:8 -1.791E-04:9 -3.594E-06:a 1.532E-04:b 
2.953E-05:c 1.256E-04:d -4.979E-08:e -1.253E-04:f -1.756E-07:10 -1.801E-04:11 -3.595E-06:12 1.540E-04:13 2.972E-05:14 
#C 3.5800005331E-08 20
3.300E00:1 3.300E00:2 3.300E00:3 3.300E00:4 3.300E00:5 3.229E00:6 2.346E00:7 0.000E00:8 -1.790E-04:9 -3.594E-06:a 1.531E-04:b 
2.953E-05:c 1.256E-04:d -4.979E-08:e -1.253E-04:f -1.756E-07:10 -1.799E-04:11 -3.595E-06:12 1.538E-04:13 2.972E-05:14 
#C 3.6000000001E-08 20
3.300E00:1 3.300E00:2 3.300E00:3 3.300E00:4 3.300E00:5 3.229E00:6 2.346E00:7 0.000E00:8 -1.787E-04:9 -3.594E-06:a 1.528E-04:b 
2.953E-05:c 1.256E-04:d -4.979E-08:e -1.254E-04:f -1.756E-07:10 -1.797E-04:11 -3.595E-06:12 1.536E-04:13 2.972E-05:14 
#C 3.6020000153E-08 20
3.300E00:1 3.300E00:2 3.300E00:3 3.300E00:4 3.300E00:5 3.229E00:6 2.346E00:7 0.000E00:8 -1.787E-04:9 -3.594E-06:a 1.528E-04:b 
