#H
SOURCE='PSPICE' VERSION='PSpice 16.0.0 (July 2006)'
TITLE='Automated simulation file'
SUBTITLE=''
TIME='00:14:20' DATE='04/11/10' TEMPERATURE='2.700E01'
ANALYSIS='Transient Analysis' SERIALNO='61413'
ALLVALUES='NO' COMPLEXVALUES='NO' NODES='6'
SWEEPVAR='Time' SWEEPMODE='VAR_STEP'
XBEGIN='0.000E00' XEND='1.500E-08'
FORMAT='0 VOLTSorAMPS;EFLOAT : NODEorBRANCH;NODE  '
DGTLDATA='NO' 
#N 
'V(FLASH_F_D-MSB)' 'V(FLASH_F_D-5SB)' 'V(FLASH_F_D-4SB)' 'V(FLASH_F_D-3SB)' 'V(FLASH_F_D-2SB)' 'V(FLASH_F_D-LSB)' 
#C 0.0000000000E00 6
8.570E-06:1 9.399E-07:2 3.760E-06:3 2.350E-07:4 9.400E-07:5 3.300E00:6 
#C 1.0000000000E-14 6
8.570E-06:1 9.399E-07:2 3.760E-06:3 2.350E-07:4 9.400E-07:5 3.300E00:6 
#C 2.0000000000E-14 6
8.570E-06:1 9.399E-07:2 3.760E-06:3 2.350E-07:4 9.400E-07:5 3.300E00:6 
#C 4.0000356926E-14 6
8.570E-06:1 9.399E-07:2 3.760E-06:3 2.350E-07:4 9.400E-07:5 3.300E00:6 
#C 8.0001070779E-14 6
8.570E-06:1 9.399E-07:2 3.760E-06:3 2.350E-07:4 9.400E-07:5 3.300E00:6 
#C 1.6000249848E-13 6
8.570E-06:1 9.399E-07:2 3.760E-06:3 2.350E-07:4 9.400E-07:5 3.300E00:6 
#C 3.2000535389E-13 6
8.570E-06:1 9.399E-07:2 3.760E-06:3 2.350E-07:4 9.400E-07:5 3.300E00:6 
#C 6.4001106471E-13 6
8.570E-06:1 9.399E-07:2 3.760E-06:3 2.350E-07:4 9.400E-07:5 3.300E00:6 
#C 1.2800224863E-12 6
8.570E-06:1 9.399E-07:2 3.760E-06:3 2.350E-07:4 9.400E-07:5 3.300E00:6 
#C 2.2801028604E-12 6
8.570E-06:1 9.399E-07:2 3.760E-06:3 2.350E-07:4 9.400E-07:5 3.300E00:6 
#C 3.2801832345E-12 6
8.570E-06:1 9.399E-07:2 3.760E-06:3 2.350E-07:4 9.400E-07:5 3.300E00:6 
#C 4.2802636086E-12 6
8.570E-06:1 9.399E-07:2 3.760E-06:3 2.350E-07:4 9.400E-07:5 3.300E00:6 
#C 5.2803439826E-12 6
8.570E-06:1 9.399E-07:2 3.760E-06:3 2.350E-07:4 9.400E-07:5 3.300E00:6 
#C 6.2804243567E-12 6
8.570E-06:1 9.399E-07:2 3.760E-06:3 2.350E-07:4 9.400E-07:5 3.300E00:6 
#C 7.2805047308E-12 6
8.570E-06:1 9.399E-07:2 3.760E-06:3 2.350E-07:4 9.400E-07:5 3.300E00:6 
#C 8.2805851048E-12 6
8.570E-06:1 9.399E-07:2 3.760E-06:3 2.350E-07:4 9.400E-07:5 3.300E00:6 
#C 9.2806654789E-12 6
8.570E-06:1 9.399E-07:2 3.760E-06:3 2.350E-07:4 9.400E-07:5 3.300E00:6 
#C 1.0280745853E-11 6
8.570E-06:1 9.399E-07:2 3.760E-06:3 2.350E-07:4 9.400E-07:5 3.300E00:6 
#C 1.1280826227E-11 6
8.570E-06:1 9.399E-07:2 3.760E-06:3 2.350E-07:4 9.400E-07:5 3.300E00:6 
#C 1.2280906601E-11 6
8.570E-06:1 9.399E-07:2 3.760E-06:3 2.350E-07:4 9.400E-07:5 3.300E00:6 
#C 1.3280986975E-11 6
8.570E-06:1 9.399E-07:2 3.760E-06:3 2.350E-07:4 9.400E-07:5 3.300E00:6 
#C 1.4281067349E-11 6
8.570E-06:1 9.399E-07:2 3.760E-06:3 2.350E-07:4 9.400E-07:5 3.300E00:6 
#C 1.5281147723E-11 6
8.570E-06:1 9.399E-07:2 3.760E-06:3 2.350E-07:4 9.400E-07:5 3.300E00:6 
#C 1.6281228097E-11 6
8.570E-06:1 9.399E-07:2 3.760E-06:3 2.350E-07:4 9.400E-07:5 3.300E00:6 
#C 1.7281308471E-11 6
8.570E-06:1 9.399E-07:2 3.760E-06:3 2.350E-07:4 9.400E-07:5 3.300E00:6 
#C 1.8281388846E-11 6
8.570E-06:1 9.399E-07:2 3.760E-06:3 2.350E-07:4 9.400E-07:5 3.300E00:6 
#C 1.9281469220E-11 6
8.570E-06:1 9.399E-07:2 3.760E-06:3 2.350E-07:4 9.400E-07:5 3.300E00:6 
#C 2.0281549594E-11 6
8.570E-06:1 9.399E-07:2 3.760E-06:3 2.350E-07:4 9.400E-07:5 3.300E00:6 
#C 2.1281629968E-11 6
8.570E-06:1 9.399E-07:2 3.760E-06:3 2.350E-07:4 9.400E-07:5 3.300E00:6 
#C 2.2281710342E-11 6
8.570E-06:1 9.399E-07:2 3.760E-06:3 2.350E-07:4 9.400E-07:5 3.300E00:6 
#C 2.3281790716E-11 6
8.570E-06:1 9.399E-07:2 3.760E-06:3 2.350E-07:4 9.400E-07:5 3.300E00:6 
#C 2.4281871090E-11 6
8.570E-06:1 9.399E-07:2 3.760E-06:3 2.350E-07:4 9.400E-07:5 3.300E00:6 
#C 2.5281951464E-11 6
8.570E-06:1 9.399E-07:2 3.760E-06:3 2.350E-07:4 9.400E-07:5 3.300E00:6 
#C 2.6282031838E-11 6
8.570E-06:1 9.399E-07:2 3.760E-06:3 2.350E-07:4 9.400E-07:5 3.300E00:6 
#C 2.7282112212E-11 6
8.570E-06:1 9.399E-07:2 3.760E-06:3 2.350E-07:4 9.400E-07:5 3.300E00:6 
#C 2.8282192586E-11 6
8.570E-06:1 9.399E-07:2 3.760E-06:3 2.350E-07:4 9.400E-07:5 3.300E00:6 
#C 2.9282272960E-11 6
8.570E-06:1 9.399E-07:2 3.760E-06:3 2.350E-07:4 9.400E-07:5 3.300E00:6 
#C 3.0282353334E-11 6
8.570E-06:1 9.399E-07:2 3.760E-06:3 2.350E-07:4 9.400E-07:5 3.300E00:6 
#C 3.1282433708E-11 6
8.570E-06:1 9.399E-07:2 3.760E-06:3 2.350E-07:4 9.400E-07:5 3.300E00:6 
#C 3.2282514083E-11 6
8.570E-06:1 9.399E-07:2 3.760E-06:3 2.350E-07:4 9.400E-07:5 3.300E00:6 
#C 3.3282594457E-11 6
8.570E-06:1 9.399E-07:2 3.760E-06:3 2.350E-07:4 9.400E-07:5 3.300E00:6 
#C 3.4282674831E-11 6
8.570E-06:1 9.399E-07:2 3.760E-06:3 2.350E-07:4 9.400E-07:5 3.300E00:6 
#C 3.5282755205E-11 6
8.570E-06:1 9.399E-07:2 3.760E-06:3 2.350E-07:4 9.400E-07:5 3.300E00:6 
#C 3.6282835579E-11 6
8.570E-06:1 9.399E-07:2 3.760E-06:3 2.350E-07:4 9.400E-07:5 3.300E00:6 
#C 3.7282915953E-11 6
8.570E-06:1 9.399E-07:2 3.760E-06:3 2.350E-07:4 9.400E-07:5 3.300E00:6 
#C 3.8282996327E-11 6
8.570E-06:1 9.399E-07:2 3.760E-06:3 2.350E-07:4 9.400E-07:5 3.300E00:6 
#C 3.9283076701E-11 6
8.570E-06:1 9.399E-07:2 3.760E-06:3 2.350E-07:4 9.400E-07:5 3.300E00:6 
#C 4.0283157075E-11 6
8.570E-06:1 9.399E-07:2 3.760E-06:3 2.350E-07:4 9.400E-07:5 3.300E00:6 
#C 4.1283237449E-11 6
8.570E-06:1 9.399E-07:2 3.760E-06:3 2.350E-07:4 9.400E-07:5 3.300E00:6 
#C 4.2283317823E-11 6
8.570E-06:1 9.399E-07:2 3.760E-06:3 2.350E-07:4 9.400E-07:5 3.300E00:6 
#C 4.3283398197E-11 6
8.570E-06:1 9.399E-07:2 3.760E-06:3 2.350E-07:4 9.400E-07:5 3.300E00:6 
#C 4.4283478571E-11 6
8.570E-06:1 9.399E-07:2 3.760E-06:3 2.350E-07:4 9.400E-07:5 3.300E00:6 
#C 4.5283558945E-11 6
8.570E-06:1 9.399E-07:2 3.760E-06:3 2.350E-07:4 9.400E-07:5 3.300E00:6 
#C 4.6283639319E-11 6
8.570E-06:1 9.399E-07:2 3.760E-06:3 2.350E-07:4 9.400E-07:5 3.300E00:6 
#C 4.7283719694E-11 6
8.570E-06:1 9.399E-07:2 3.760E-06:3 2.350E-07:4 9.400E-07:5 3.300E00:6 
#C 4.8283800068E-11 6
8.570E-06:1 9.399E-07:2 3.760E-06:3 2.350E-07:4 9.400E-07:5 3.300E00:6 
#C 4.9283880442E-11 6
8.570E-06:1 9.399E-07:2 3.760E-06:3 2.350E-07:4 9.400E-07:5 3.300E00:6 
#C 5.0283960816E-11 6
8.570E-06:1 9.399E-07:2 3.760E-06:3 2.350E-07:4 9.400E-07:5 3.300E00:6 
#C 5.1284041190E-11 6
8.570E-06:1 9.399E-07:2 3.760E-06:3 2.350E-07:4 9.400E-07:5 3.300E00:6 
#C 5.2284121564E-11 6
8.570E-06:1 9.399E-07:2 3.760E-06:3 2.350E-07:4 9.400E-07:5 3.300E00:6 
#C 5.3284201938E-11 6
8.570E-06:1 9.399E-07:2 3.760E-06:3 2.350E-07:4 9.400E-07:5 3.300E00:6 
#C 5.4284282312E-11 6
8.570E-06:1 9.399E-07:2 3.760E-06:3 2.350E-07:4 9.400E-07:5 3.300E00:6 
#C 5.5284362686E-11 6
8.570E-06:1 9.399E-07:2 3.760E-06:3 2.350E-07:4 9.400E-07:5 3.300E00:6 
#C 5.6284443060E-11 6
8.570E-06:1 9.399E-07:2 3.760E-06:3 2.350E-07:4 9.400E-07:5 3.300E00:6 
#C 5.7284523434E-11 6
8.570E-06:1 9.399E-07:2 3.760E-06:3 2.350E-07:4 9.400E-07:5 3.300E00:6 
#C 5.8284603808E-11 6
8.570E-06:1 9.399E-07:2 3.760E-06:3 2.350E-07:4 9.400E-07:5 3.300E00:6 
#C 5.9284684182E-11 6
8.570E-06:1 9.399E-07:2 3.760E-06:3 2.350E-07:4 9.400E-07:5 3.300E00:6 
#C 6.0284764556E-11 6
8.570E-06:1 9.399E-07:2 3.760E-06:3 2.350E-07:4 9.400E-07:5 3.300E00:6 
#C 6.1284844931E-11 6
8.570E-06:1 9.399E-07:2 3.760E-06:3 2.350E-07:4 9.400E-07:5 3.300E00:6 
#C 6.2284925305E-11 6
8.570E-06:1 9.399E-07:2 3.760E-06:3 2.350E-07:4 9.400E-07:5 3.300E00:6 
#C 6.3285005679E-11 6
8.570E-06:1 9.399E-07:2 3.760E-06:3 2.350E-07:4 9.400E-07:5 3.300E00:6 
#C 6.4285086053E-11 6
8.570E-06:1 9.399E-07:2 3.760E-06:3 2.350E-07:4 9.400E-07:5 3.300E00:6 
#C 6.5285166427E-11 6
8.570E-06:1 9.399E-07:2 3.760E-06:3 2.350E-07:4 9.400E-07:5 3.300E00:6 
#C 6.6285246801E-11 6
8.570E-06:1 9.399E-07:2 3.760E-06:3 2.350E-07:4 9.400E-07:5 3.300E00:6 
#C 6.7285327175E-11 6
8.570E-06:1 9.399E-07:2 3.760E-06:3 2.350E-07:4 9.400E-07:5 3.300E00:6 
#C 6.8285407549E-11 6
8.570E-06:1 9.399E-07:2 3.760E-06:3 2.350E-07:4 9.400E-07:5 3.300E00:6 
#C 6.9285487923E-11 6
8.570E-06:1 9.399E-07:2 3.760E-06:3 2.350E-07:4 9.400E-07:5 3.300E00:6 
#C 7.0285568297E-11 6
8.570E-06:1 9.399E-07:2 3.760E-06:3 2.350E-07:4 9.400E-07:5 3.300E00:6 
#C 7.1285648671E-11 6
8.570E-06:1 9.399E-07:2 3.760E-06:3 2.350E-07:4 9.400E-07:5 3.300E00:6 
#C 7.2285729045E-11 6
8.570E-06:1 9.399E-07:2 3.760E-06:3 2.350E-07:4 9.400E-07:5 3.300E00:6 
#C 7.3285809419E-11 6
8.570E-06:1 9.399E-07:2 3.760E-06:3 2.350E-07:4 9.400E-07:5 3.300E00:6 
#C 7.4285889793E-11 6
8.570E-06:1 9.399E-07:2 3.760E-06:3 2.350E-07:4 9.400E-07:5 3.300E00:6 
#C 7.5285970167E-11 6
8.570E-06:1 9.399E-07:2 3.760E-06:3 2.350E-07:4 9.400E-07:5 3.300E00:6 
#C 7.6286050542E-11 6
8.570E-06:1 9.399E-07:2 3.760E-06:3 2.350E-07:4 9.400E-07:5 3.300E00:6 
#C 7.7286130916E-11 6
8.570E-06:1 9.399E-07:2 3.760E-06:3 2.350E-07:4 9.400E-07:5 3.300E00:6 
#C 7.8286211290E-11 6
8.570E-06:1 9.399E-07:2 3.760E-06:3 2.350E-07:4 9.400E-07:5 3.300E00:6 
#C 7.9286291664E-11 6
8.570E-06:1 9.399E-07:2 3.760E-06:3 2.350E-07:4 9.400E-07:5 3.300E00:6 
#C 8.0286372038E-11 6
8.570E-06:1 9.399E-07:2 3.760E-06:3 2.350E-07:4 9.400E-07:5 3.300E00:6 
#C 8.1286452412E-11 6
8.570E-06:1 9.399E-07:2 3.760E-06:3 2.350E-07:4 9.400E-07:5 3.300E00:6 
#C 8.2286532786E-11 6
8.570E-06:1 9.399E-07:2 3.760E-06:3 2.350E-07:4 9.400E-07:5 3.300E00:6 
#C 8.3286613160E-11 6
8.570E-06:1 9.399E-07:2 3.760E-06:3 2.350E-07:4 9.400E-07:5 3.300E00:6 
#C 8.4286693534E-11 6
8.570E-06:1 9.399E-07:2 3.760E-06:3 2.350E-07:4 9.400E-07:5 3.300E00:6 
#C 8.5286773908E-11 6
8.570E-06:1 9.399E-07:2 3.760E-06:3 2.350E-07:4 9.400E-07:5 3.300E00:6 
#C 8.6286854282E-11 6
8.570E-06:1 9.399E-07:2 3.760E-06:3 2.350E-07:4 9.400E-07:5 3.300E00:6 
#C 8.7286934656E-11 6
8.570E-06:1 9.399E-07:2 3.760E-06:3 2.350E-07:4 9.400E-07:5 3.300E00:6 
#C 8.8287015030E-11 6
8.570E-06:1 9.399E-07:2 3.760E-06:3 2.350E-07:4 9.400E-07:5 3.300E00:6 
#C 8.9287095404E-11 6
8.570E-06:1 9.399E-07:2 3.760E-06:3 2.350E-07:4 9.400E-07:5 3.300E00:6 
#C 9.0287175779E-11 6
8.570E-06:1 9.399E-07:2 3.760E-06:3 2.350E-07:4 9.400E-07:5 3.300E00:6 
#C 9.1287256153E-11 6
8.570E-06:1 9.399E-07:2 3.760E-06:3 2.350E-07:4 9.400E-07:5 3.300E00:6 
#C 9.2287336527E-11 6
8.570E-06:1 9.399E-07:2 3.760E-06:3 2.350E-07:4 9.400E-07:5 3.300E00:6 
#C 9.3287416901E-11 6
8.570E-06:1 9.399E-07:2 3.760E-06:3 2.350E-07:4 9.400E-07:5 3.300E00:6 
#C 9.4287497275E-11 6
8.570E-06:1 9.399E-07:2 3.760E-06:3 2.350E-07:4 9.400E-07:5 3.300E00:6 
#C 9.5287577649E-11 6
8.570E-06:1 9.399E-07:2 3.760E-06:3 2.350E-07:4 9.400E-07:5 3.300E00:6 
#C 9.6287658023E-11 6
8.570E-06:1 9.399E-07:2 3.760E-06:3 2.350E-07:4 9.400E-07:5 3.300E00:6 
#C 9.7287738397E-11 6
8.570E-06:1 9.399E-07:2 3.760E-06:3 2.350E-07:4 9.400E-07:5 3.300E00:6 
#C 9.8287818771E-11 6
8.570E-06:1 9.399E-07:2 3.760E-06:3 2.350E-07:4 9.400E-07:5 3.300E00:6 
#C 9.9287899145E-11 6
8.570E-06:1 9.399E-07:2 3.760E-06:3 2.350E-07:4 9.400E-07:5 3.300E00:6 
#C 1.0028797952E-10 6
8.570E-06:1 9.399E-07:2 3.760E-06:3 2.350E-07:4 9.400E-07:5 3.300E00:6 
#C 1.0128805989E-10 6
8.570E-06:1 9.399E-07:2 3.760E-06:3 2.350E-07:4 9.400E-07:5 3.300E00:6 
#C 1.0228814027E-10 6
8.570E-06:1 9.399E-07:2 3.760E-06:3 2.350E-07:4 9.400E-07:5 3.300E00:6 
#C 1.0328822064E-10 6
8.570E-06:1 9.399E-07:2 3.760E-06:3 2.350E-07:4 9.400E-07:5 3.300E00:6 
#C 1.0428830102E-10 6
8.570E-06:1 9.399E-07:2 3.760E-06:3 2.350E-07:4 9.400E-07:5 3.300E00:6 
#C 1.0528838139E-10 6
8.570E-06:1 9.399E-07:2 3.760E-06:3 2.350E-07:4 9.400E-07:5 3.300E00:6 
#C 1.0628846176E-10 6
8.570E-06:1 9.399E-07:2 3.760E-06:3 2.350E-07:4 9.400E-07:5 3.300E00:6 
#C 1.0728854214E-10 6
8.570E-06:1 9.399E-07:2 3.760E-06:3 2.350E-07:4 9.400E-07:5 3.300E00:6 
#C 1.0828862251E-10 6
8.570E-06:1 9.399E-07:2 3.760E-06:3 2.350E-07:4 9.400E-07:5 3.300E00:6 
#C 1.0928870289E-10 6
8.570E-06:1 9.399E-07:2 3.760E-06:3 2.350E-07:4 9.400E-07:5 3.300E00:6 
#C 1.1028878326E-10 6
8.570E-06:1 9.399E-07:2 3.760E-06:3 2.350E-07:4 9.400E-07:5 3.300E00:6 
#C 1.1128886363E-10 6
8.570E-06:1 9.399E-07:2 3.760E-06:3 2.350E-07:4 9.400E-07:5 3.300E00:6 
#C 1.1228894401E-10 6
8.570E-06:1 9.399E-07:2 3.760E-06:3 2.350E-07:4 9.400E-07:5 3.300E00:6 
#C 1.1328902438E-10 6
8.570E-06:1 9.399E-07:2 3.760E-06:3 2.350E-07:4 9.400E-07:5 3.300E00:6 
#C 1.1428910476E-10 6
8.570E-06:1 9.399E-07:2 3.760E-06:3 2.350E-07:4 9.400E-07:5 3.300E00:6 
#C 1.1528918513E-10 6
8.570E-06:1 9.399E-07:2 3.760E-06:3 2.350E-07:4 9.400E-07:5 3.300E00:6 
#C 1.1628926550E-10 6
8.570E-06:1 9.399E-07:2 3.760E-06:3 2.350E-07:4 9.400E-07:5 3.300E00:6 
#C 1.1728934588E-10 6
8.570E-06:1 9.399E-07:2 3.760E-06:3 2.350E-07:4 9.400E-07:5 3.300E00:6 
#C 1.1828942625E-10 6
8.570E-06:1 9.399E-07:2 3.760E-06:3 2.350E-07:4 9.400E-07:5 3.300E00:6 
#C 1.1928950663E-10 6
8.570E-06:1 9.399E-07:2 3.760E-06:3 2.350E-07:4 9.400E-07:5 3.300E00:6 
#C 1.2028958700E-10 6
8.570E-06:1 9.399E-07:2 3.760E-06:3 2.350E-07:4 9.400E-07:5 3.300E00:6 
#C 1.2128966737E-10 6
8.570E-06:1 9.399E-07:2 3.760E-06:3 2.350E-07:4 9.400E-07:5 3.300E00:6 
#C 1.2228974775E-10 6
8.570E-06:1 9.399E-07:2 3.760E-06:3 2.350E-07:4 9.400E-07:5 3.300E00:6 
#C 1.2328982812E-10 6
8.570E-06:1 9.399E-07:2 3.760E-06:3 2.350E-07:4 9.400E-07:5 3.300E00:6 
#C 1.2428990850E-10 6
8.570E-06:1 9.399E-07:2 3.760E-06:3 2.350E-07:4 9.400E-07:5 3.300E00:6 
#C 1.2528998887E-10 6
8.570E-06:1 9.399E-07:2 3.760E-06:3 2.350E-07:4 9.400E-07:5 3.300E00:6 
#C 1.2629006925E-10 6
8.570E-06:1 9.399E-07:2 3.760E-06:3 2.350E-07:4 9.400E-07:5 3.300E00:6 
#C 1.2729014962E-10 6
8.570E-06:1 9.399E-07:2 3.760E-06:3 2.350E-07:4 9.400E-07:5 3.300E00:6 
#C 1.2829022999E-10 6
8.570E-06:1 9.399E-07:2 3.760E-06:3 2.350E-07:4 9.400E-07:5 3.300E00:6 
#C 1.2929031037E-10 6
8.570E-06:1 9.399E-07:2 3.760E-06:3 2.350E-07:4 9.400E-07:5 3.300E00:6 
#C 1.3029039074E-10 6
8.570E-06:1 9.399E-07:2 3.760E-06:3 2.350E-07:4 9.400E-07:5 3.300E00:6 
#C 1.3129047112E-10 6
8.570E-06:1 9.399E-07:2 3.760E-06:3 2.350E-07:4 9.400E-07:5 3.300E00:6 
#C 1.3229055149E-10 6
8.570E-06:1 9.399E-07:2 3.760E-06:3 2.350E-07:4 9.400E-07:5 3.300E00:6 
#C 1.3329063186E-10 6
8.570E-06:1 9.399E-07:2 3.760E-06:3 2.350E-07:4 9.400E-07:5 3.300E00:6 
#C 1.3429071224E-10 6
8.570E-06:1 9.399E-07:2 3.760E-06:3 2.350E-07:4 9.400E-07:5 3.300E00:6 
#C 1.3529079261E-10 6
8.570E-06:1 9.399E-07:2 3.760E-06:3 2.350E-07:4 9.400E-07:5 3.300E00:6 
#C 1.3629087299E-10 6
8.570E-06:1 9.399E-07:2 3.760E-06:3 2.350E-07:4 9.400E-07:5 3.300E00:6 
#C 1.3729095336E-10 6
8.570E-06:1 9.399E-07:2 3.760E-06:3 2.350E-07:4 9.400E-07:5 3.300E00:6 
#C 1.3829103373E-10 6
8.570E-06:1 9.399E-07:2 3.760E-06:3 2.350E-07:4 9.400E-07:5 3.300E00:6 
#C 1.3929111411E-10 6
8.570E-06:1 9.399E-07:2 3.760E-06:3 2.350E-07:4 9.400E-07:5 3.300E00:6 
#C 1.4029119448E-10 6
8.570E-06:1 9.399E-07:2 3.760E-06:3 2.350E-07:4 9.400E-07:5 3.300E00:6 
#C 1.4129127486E-10 6
8.570E-06:1 9.399E-07:2 3.760E-06:3 2.350E-07:4 9.400E-07:5 3.300E00:6 
#C 1.4229135523E-10 6
8.570E-06:1 9.399E-07:2 3.760E-06:3 2.350E-07:4 9.400E-07:5 3.300E00:6 
#C 1.4329143560E-10 6
8.570E-06:1 9.399E-07:2 3.760E-06:3 2.350E-07:4 9.400E-07:5 3.300E00:6 
#C 1.4429151598E-10 6
8.570E-06:1 9.399E-07:2 3.760E-06:3 2.350E-07:4 9.400E-07:5 3.300E00:6 
#C 1.4529159635E-10 6
8.570E-06:1 9.399E-07:2 3.760E-06:3 2.350E-07:4 9.400E-07:5 3.300E00:6 
#C 1.4629167673E-10 6
8.570E-06:1 9.399E-07:2 3.760E-06:3 2.350E-07:4 9.400E-07:5 3.300E00:6 
#C 1.4729175710E-10 6
8.570E-06:1 9.399E-07:2 3.760E-06:3 2.350E-07:4 9.400E-07:5 3.300E00:6 
#C 1.4829183747E-10 6
8.570E-06:1 9.399E-07:2 3.760E-06:3 2.350E-07:4 9.400E-07:5 3.300E00:6 
#C 1.4929191785E-10 6
8.570E-06:1 9.399E-07:2 3.760E-06:3 2.350E-07:4 9.400E-07:5 3.300E00:6 
#C 1.5029199822E-10 6
8.570E-06:1 9.399E-07:2 3.760E-06:3 2.350E-07:4 9.400E-07:5 3.300E00:6 
#C 1.5129207860E-10 6
8.570E-06:1 9.399E-07:2 3.760E-06:3 2.350E-07:4 9.400E-07:5 3.300E00:6 
#C 1.5229215897E-10 6
8.570E-06:1 9.399E-07:2 3.760E-06:3 2.350E-07:4 9.400E-07:5 3.300E00:6 
#C 1.5329223934E-10 6
8.570E-06:1 9.399E-07:2 3.760E-06:3 2.350E-07:4 9.400E-07:5 3.300E00:6 
#C 1.5429231972E-10 6
8.570E-06:1 9.399E-07:2 3.760E-06:3 2.350E-07:4 9.400E-07:5 3.300E00:6 
#C 1.5529240009E-10 6
8.570E-06:1 9.399E-07:2 3.760E-06:3 2.350E-07:4 9.400E-07:5 3.300E00:6 
#C 1.5629248047E-10 6
8.570E-06:1 9.399E-07:2 3.760E-06:3 2.350E-07:4 9.400E-07:5 3.300E00:6 
#C 1.5729256084E-10 6
8.570E-06:1 9.399E-07:2 3.760E-06:3 2.350E-07:4 9.400E-07:5 3.300E00:6 
#C 1.5829264122E-10 6
8.570E-06:1 9.399E-07:2 3.760E-06:3 2.350E-07:4 9.400E-07:5 3.300E00:6 
#C 1.5929272159E-10 6
8.570E-06:1 9.399E-07:2 3.760E-06:3 2.350E-07:4 9.400E-07:5 3.300E00:6 
#C 1.6029280196E-10 6
8.570E-06:1 9.399E-07:2 3.760E-06:3 2.350E-07:4 9.400E-07:5 3.300E00:6 
#C 1.6129288234E-10 6
8.570E-06:1 9.399E-07:2 3.760E-06:3 2.350E-07:4 9.400E-07:5 3.300E00:6 
#C 1.6229296271E-10 6
8.570E-06:1 9.399E-07:2 3.760E-06:3 2.350E-07:4 9.400E-07:5 3.300E00:6 
#C 1.6329304309E-10 6
8.570E-06:1 9.399E-07:2 3.760E-06:3 2.350E-07:4 9.400E-07:5 3.300E00:6 
#C 1.6429312346E-10 6
8.570E-06:1 9.399E-07:2 3.760E-06:3 2.350E-07:4 9.400E-07:5 3.300E00:6 
#C 1.6529320383E-10 6
8.570E-06:1 9.399E-07:2 3.760E-06:3 2.350E-07:4 9.400E-07:5 3.300E00:6 
#C 1.6629328421E-10 6
8.570E-06:1 9.399E-07:2 3.760E-06:3 2.350E-07:4 9.400E-07:5 3.300E00:6 
#C 1.6729336458E-10 6
8.570E-06:1 9.399E-07:2 3.760E-06:3 2.350E-07:4 9.400E-07:5 3.300E00:6 
#C 1.6829344496E-10 6
8.570E-06:1 9.399E-07:2 3.760E-06:3 2.350E-07:4 9.400E-07:5 3.300E00:6 
#C 1.6929352533E-10 6
8.570E-06:1 9.399E-07:2 3.760E-06:3 2.350E-07:4 9.400E-07:5 3.300E00:6 
#C 1.7029360570E-10 6
8.570E-06:1 9.399E-07:2 3.760E-06:3 2.350E-07:4 9.400E-07:5 3.300E00:6 
#C 1.7129368608E-10 6
8.570E-06:1 9.399E-07:2 3.760E-06:3 2.350E-07:4 9.400E-07:5 3.300E00:6 
#C 1.7229376645E-10 6
8.570E-06:1 9.399E-07:2 3.760E-06:3 2.350E-07:4 9.400E-07:5 3.300E00:6 
#C 1.7329384683E-10 6
8.570E-06:1 9.399E-07:2 3.760E-06:3 2.350E-07:4 9.400E-07:5 3.300E00:6 
#C 1.7429392720E-10 6
8.570E-06:1 9.399E-07:2 3.760E-06:3 2.350E-07:4 9.400E-07:5 3.300E00:6 
#C 1.7529400757E-10 6
8.570E-06:1 9.399E-07:2 3.760E-06:3 2.350E-07:4 9.400E-07:5 3.300E00:6 
#C 1.7629408795E-10 6
8.570E-06:1 9.399E-07:2 3.760E-06:3 2.350E-07:4 9.400E-07:5 3.300E00:6 
#C 1.7729416832E-10 6
8.570E-06:1 9.399E-07:2 3.760E-06:3 2.350E-07:4 9.400E-07:5 3.300E00:6 
#C 1.7829424870E-10 6
8.570E-06:1 9.399E-07:2 3.760E-06:3 2.350E-07:4 9.400E-07:5 3.300E00:6 
#C 1.7929432907E-10 6
8.570E-06:1 9.399E-07:2 3.760E-06:3 2.350E-07:4 9.400E-07:5 3.300E00:6 
#C 1.8029440944E-10 6
8.570E-06:1 9.399E-07:2 3.760E-06:3 2.350E-07:4 9.400E-07:5 3.300E00:6 
#C 1.8129448982E-10 6
8.570E-06:1 9.399E-07:2 3.760E-06:3 2.350E-07:4 9.400E-07:5 3.300E00:6 
#C 1.8229457019E-10 6
8.570E-06:1 9.399E-07:2 3.760E-06:3 2.350E-07:4 9.400E-07:5 3.300E00:6 
#C 1.8329465057E-10 6
8.570E-06:1 9.399E-07:2 3.760E-06:3 2.350E-07:4 9.400E-07:5 3.300E00:6 
#C 1.8429473094E-10 6
8.570E-06:1 9.399E-07:2 3.760E-06:3 2.350E-07:4 9.400E-07:5 3.300E00:6 
#C 1.8529481132E-10 6
8.570E-06:1 9.399E-07:2 3.760E-06:3 2.350E-07:4 9.400E-07:5 3.300E00:6 
#C 1.8629489169E-10 6
8.570E-06:1 9.399E-07:2 3.760E-06:3 2.350E-07:4 9.400E-07:5 3.300E00:6 
#C 1.8729497206E-10 6
8.570E-06:1 9.399E-07:2 3.760E-06:3 2.350E-07:4 9.400E-07:5 3.300E00:6 
#C 1.8829505244E-10 6
8.570E-06:1 9.399E-07:2 3.760E-06:3 2.350E-07:4 9.400E-07:5 3.300E00:6 
#C 1.8929513281E-10 6
8.570E-06:1 9.399E-07:2 3.760E-06:3 2.350E-07:4 9.400E-07:5 3.300E00:6 
#C 1.9029521319E-10 6
8.570E-06:1 9.399E-07:2 3.760E-06:3 2.350E-07:4 9.400E-07:5 3.300E00:6 
#C 1.9129529356E-10 6
8.570E-06:1 9.399E-07:2 3.760E-06:3 2.350E-07:4 9.400E-07:5 3.300E00:6 
#C 1.9229537393E-10 6
8.570E-06:1 9.399E-07:2 3.760E-06:3 2.350E-07:4 9.400E-07:5 3.300E00:6 
#C 1.9329545431E-10 6
8.570E-06:1 9.399E-07:2 3.760E-06:3 2.350E-07:4 9.400E-07:5 3.300E00:6 
#C 1.9429553468E-10 6
8.570E-06:1 9.399E-07:2 3.760E-06:3 2.350E-07:4 9.400E-07:5 3.300E00:6 
#C 1.9529561506E-10 6
