#H
SOURCE='PSPICE' VERSION='PSpice 16.0.0 (July 2006)'
TITLE='**** 04/13/10 23:25:08 ******* PSpice 16.0.0 (July 2006) ****** ID# 0 ********'
SUBTITLE=''
TIME='19:33:39' DATE='04/24/10' TEMPERATURE='2.700E01'
ANALYSIS='Transient Analysis' SERIALNO='61413'
ALLVALUES='NO' COMPLEXVALUES='NO' NODES='8'
SWEEPVAR='Time' SWEEPMODE='VAR_STEP'
XBEGIN='0.000E00' XEND='1.500E-08'
FORMAT='0 VOLTSorAMPS;EFLOAT : NODEorBRANCH;NODE  '
DGTLDATA='NO' 
#N 
'V(C_F_D-MSB)' 'V(C_F_D-5SB)' 'V(C_F_D-4SB)' 'V(C_F_D-3SB)' 'V(C_F_D-2SB)' 'V(C_F_D-LSB)' 'ID(M_C_F_C38_M4)' 'V(C_F_C38_ND+)' 
#C 0.0000000000E00 8
8.570E-06:1 9.399E-07:2 3.760E-06:3 2.350E-07:4 9.400E-07:5 3.300E00:6 -6.613E-12:7 3.300E00:8 
#C 5.0000000000E-13 8
8.570E-06:1 9.399E-07:2 3.760E-06:3 2.350E-07:4 9.400E-07:5 3.300E00:6 -6.612E-12:7 3.300E00:8 
#C 1.0000000000E-12 8
8.570E-06:1 9.399E-07:2 3.760E-06:3 2.350E-07:4 9.400E-07:5 3.300E00:6 -6.612E-12:7 3.300E00:8 
#C 2.0000803741E-12 8
8.570E-06:1 9.399E-07:2 3.760E-06:3 2.350E-07:4 9.400E-07:5 3.300E00:6 -6.613E-12:7 3.300E00:8 
#C 4.0002411222E-12 8
8.570E-06:1 9.399E-07:2 3.760E-06:3 2.350E-07:4 9.400E-07:5 3.300E00:6 -6.613E-12:7 3.300E00:8 
#C 8.0005626185E-12 8
8.570E-06:1 9.399E-07:2 3.760E-06:3 2.350E-07:4 9.400E-07:5 3.300E00:6 -6.613E-12:7 3.300E00:8 
#C 1.6001205611E-11 8
8.570E-06:1 9.399E-07:2 3.760E-06:3 2.350E-07:4 9.400E-07:5 3.300E00:6 -6.613E-12:7 3.300E00:8 
#C 3.2002491596E-11 8
8.570E-06:1 9.399E-07:2 3.760E-06:3 2.350E-07:4 9.400E-07:5 3.300E00:6 -6.613E-12:7 3.300E00:8 
#C 6.4005063566E-11 8
8.570E-06:1 9.399E-07:2 3.760E-06:3 2.350E-07:4 9.400E-07:5 3.300E00:6 -6.613E-12:7 3.300E00:8 
#C 1.1400544429E-10 8
8.570E-06:1 9.399E-07:2 3.760E-06:3 2.350E-07:4 9.400E-07:5 3.300E00:6 -6.613E-12:7 3.300E00:8 
#C 1.6400582502E-10 8
8.570E-06:1 9.399E-07:2 3.760E-06:3 2.350E-07:4 9.400E-07:5 3.300E00:6 -6.613E-12:7 3.300E00:8 
#C 2.1400620574E-10 8
8.570E-06:1 9.399E-07:2 3.760E-06:3 2.350E-07:4 9.400E-07:5 3.300E00:6 -6.613E-12:7 3.300E00:8 
#C 2.6400658647E-10 8
8.570E-06:1 9.399E-07:2 3.760E-06:3 2.350E-07:4 9.400E-07:5 3.300E00:6 -6.613E-12:7 3.300E00:8 
#C 3.1400696719E-10 8
8.570E-06:1 9.399E-07:2 3.760E-06:3 2.350E-07:4 9.400E-07:5 3.300E00:6 -6.613E-12:7 3.300E00:8 
#C 3.6400734791E-10 8
8.570E-06:1 9.399E-07:2 3.760E-06:3 2.350E-07:4 9.400E-07:5 3.300E00:6 -6.613E-12:7 3.300E00:8 
#C 4.1400772864E-10 8
8.570E-06:1 9.399E-07:2 3.760E-06:3 2.350E-07:4 9.400E-07:5 3.300E00:6 -6.613E-12:7 3.300E00:8 
#C 4.6400810936E-10 8
8.570E-06:1 9.399E-07:2 3.760E-06:3 2.350E-07:4 9.400E-07:5 3.300E00:6 -6.613E-12:7 3.300E00:8 
#C 5.1400849009E-10 8
8.570E-06:1 9.399E-07:2 3.760E-06:3 2.350E-07:4 9.400E-07:5 3.300E00:6 -6.613E-12:7 3.300E00:8 
#C 5.6400887081E-10 8
8.570E-06:1 9.399E-07:2 3.760E-06:3 2.350E-07:4 9.400E-07:5 3.300E00:6 -6.613E-12:7 3.300E00:8 
#C 6.1400925154E-10 8
8.570E-06:1 9.399E-07:2 3.760E-06:3 2.350E-07:4 9.400E-07:5 3.300E00:6 -6.613E-12:7 3.300E00:8 
#C 6.6400963226E-10 8
8.570E-06:1 9.399E-07:2 3.760E-06:3 2.350E-07:4 9.400E-07:5 3.300E00:6 -6.613E-12:7 3.300E00:8 
#C 7.1401001299E-10 8
8.570E-06:1 9.399E-07:2 3.760E-06:3 2.350E-07:4 9.400E-07:5 3.300E00:6 -6.613E-12:7 3.300E00:8 
#C 7.6401039371E-10 8
8.570E-06:1 9.399E-07:2 3.760E-06:3 2.350E-07:4 9.400E-07:5 3.300E00:6 -6.613E-12:7 3.300E00:8 
#C 8.1401077444E-10 8
8.570E-06:1 9.399E-07:2 3.760E-06:3 2.350E-07:4 9.400E-07:5 3.300E00:6 -6.613E-12:7 3.300E00:8 
#C 8.6401115516E-10 8
8.570E-06:1 9.399E-07:2 3.760E-06:3 2.350E-07:4 9.400E-07:5 3.300E00:6 -6.613E-12:7 3.300E00:8 
#C 9.1401153589E-10 8
8.570E-06:1 9.399E-07:2 3.760E-06:3 2.350E-07:4 9.400E-07:5 3.300E00:6 -6.613E-12:7 3.300E00:8 
#C 9.6401191661E-10 8
8.570E-06:1 9.399E-07:2 3.760E-06:3 2.350E-07:4 9.400E-07:5 3.300E00:6 -6.613E-12:7 3.300E00:8 
#C 1.0140122973E-09 8
8.570E-06:1 9.399E-07:2 3.760E-06:3 2.350E-07:4 9.400E-07:5 3.300E00:6 -6.613E-12:7 3.300E00:8 
#C 1.0640126781E-09 8
8.570E-06:1 9.399E-07:2 3.760E-06:3 2.350E-07:4 9.400E-07:5 3.300E00:6 -6.613E-12:7 3.300E00:8 
#C 1.1140130588E-09 8
8.570E-06:1 9.399E-07:2 3.760E-06:3 2.350E-07:4 9.400E-07:5 3.300E00:6 -6.613E-12:7 3.300E00:8 
#C 1.1640134395E-09 8
8.570E-06:1 9.399E-07:2 3.760E-06:3 2.350E-07:4 9.400E-07:5 3.300E00:6 -6.613E-12:7 3.300E00:8 
#C 1.2140138202E-09 8
8.570E-06:1 9.399E-07:2 3.760E-06:3 2.350E-07:4 9.400E-07:5 3.300E00:6 -6.613E-12:7 3.300E00:8 
#C 1.2640142010E-09 8
8.570E-06:1 9.399E-07:2 3.760E-06:3 2.350E-07:4 9.400E-07:5 3.300E00:6 -6.613E-12:7 3.300E00:8 
#C 1.3140145817E-09 8
8.570E-06:1 9.399E-07:2 3.760E-06:3 2.350E-07:4 9.400E-07:5 3.300E00:6 -6.613E-12:7 3.300E00:8 
#C 1.3640149624E-09 8
8.570E-06:1 9.399E-07:2 3.760E-06:3 2.350E-07:4 9.400E-07:5 3.300E00:6 -6.613E-12:7 3.300E00:8 
#C 1.4140153431E-09 8
8.570E-06:1 9.399E-07:2 3.760E-06:3 2.350E-07:4 9.400E-07:5 3.300E00:6 -6.613E-12:7 3.300E00:8 
#C 1.4640157239E-09 8
8.570E-06:1 9.399E-07:2 3.760E-06:3 2.350E-07:4 9.400E-07:5 3.300E00:6 -6.613E-12:7 3.300E00:8 
#C 1.5140161046E-09 8
8.570E-06:1 9.399E-07:2 3.760E-06:3 2.350E-07:4 9.400E-07:5 3.300E00:6 -6.613E-12:7 3.300E00:8 
#C 1.5640164853E-09 8
8.570E-06:1 9.399E-07:2 3.760E-06:3 2.350E-07:4 9.400E-07:5 3.300E00:6 -6.613E-12:7 3.300E00:8 
#C 1.6140168660E-09 8
8.570E-06:1 9.399E-07:2 3.760E-06:3 2.350E-07:4 9.400E-07:5 3.300E00:6 -6.613E-12:7 3.300E00:8 
#C 1.6640172468E-09 8
8.570E-06:1 9.399E-07:2 3.760E-06:3 2.350E-07:4 9.400E-07:5 3.300E00:6 -6.613E-12:7 3.300E00:8 
#C 1.7140176275E-09 8
8.570E-06:1 9.399E-07:2 3.760E-06:3 2.350E-07:4 9.400E-07:5 3.300E00:6 -6.613E-12:7 3.300E00:8 
#C 1.7640180082E-09 8
8.570E-06:1 9.399E-07:2 3.760E-06:3 2.350E-07:4 9.400E-07:5 3.300E00:6 -6.613E-12:7 3.300E00:8 
#C 1.8140183889E-09 8
8.570E-06:1 9.399E-07:2 3.760E-06:3 2.350E-07:4 9.400E-07:5 3.300E00:6 -6.613E-12:7 3.300E00:8 
#C 1.8640187697E-09 8
8.570E-06:1 9.399E-07:2 3.760E-06:3 2.350E-07:4 9.400E-07:5 3.300E00:6 -6.613E-12:7 3.300E00:8 
#C 1.9140191504E-09 8
8.570E-06:1 9.399E-07:2 3.760E-06:3 2.350E-07:4 9.400E-07:5 3.300E00:6 -6.613E-12:7 3.300E00:8 
#C 1.9640195311E-09 8
8.570E-06:1 9.399E-07:2 3.760E-06:3 2.350E-07:4 9.400E-07:5 3.300E00:6 -6.613E-12:7 3.300E00:8 
#C 2.0000000000E-09 8
8.570E-06:1 9.399E-07:2 3.760E-06:3 2.350E-07:4 9.400E-07:5 3.300E00:6 -6.613E-12:7 3.300E00:8 
#C 2.0024123438E-09 8
-2.563E-05:1 4.696E-07:2 -2.346E-06:3 -7.498E-07:4 -2.053E-04:5 3.300E00:6 -5.199E-05:7 2.802E00:8 
#C 2.0072370313E-09 8
-3.408E-05:1 1.287E-06:2 -1.774E-05:3 4.493E-07:4 -1.948E-04:5 3.300E00:6 -1.011E-04:7 1.318E00:8 
#C 2.0080994141E-09 8
-1.596E-05:1 1.724E-06:2 -2.038E-05:3 1.241E-06:4 -3.959E-05:5 3.300E00:6 -1.262E-04:7 9.245E-01:8 
#C 2.0098241799E-09 8
3.575E-05:1 2.708E-06:2 -3.047E-05:3 2.101E-06:4 4.450E-04:5 3.300E00:6 -1.412E-04:7 1.021E-01:8 
#C 2.0102553713E-09 8
5.190E-05:1 2.843E-06:2 -3.304E-05:3 2.128E-06:4 6.118E-04:5 3.300E00:6 -1.457E-04:7 -1.092E-01:8 
#C 2.0111177542E-09 8
8.945E-05:1 3.345E-06:2 -4.198E-05:3 2.696E-06:4 1.000E-03:5 3.300E00:6 -1.536E-04:7 -5.361E-01:8 
#C 2.0128425200E-09 8
2.847E-04:1 6.609E-06:2 -5.080E-05:3 1.082E-05:4 2.479E-03:5 3.300E00:6 1.027E-05:7 -6.629E-01:8 
#C 2.0148703294E-09 8
7.968E-05:1 -3.893E-07:2 -6.812E-05:3 -6.283E-06:4 2.562E-03:5 3.300E00:6 -2.058E-05:7 -6.613E-01:8 
#C 2.0171469765E-09 8
-3.691E-04:1 -7.321E-06:2 -7.171E-05:3 -2.022E-05:4 1.045E-03:5 3.300E00:6 -2.705E-05:7 -6.638E-01:8 
#C 2.0217002708E-09 8
-1.074E-03:1 -8.730E-06:2 -3.460E-05:3 -6.895E-06:4 -3.482E-03:5 3.300E00:6 -4.161E-05:7 -6.687E-01:8 
#C 2.0308068593E-09 8
-1.344E-03:1 4.233E-06:2 4.812E-05:3 1.658E-05:4 -4.418E-03:5 3.300E00:6 -1.035E-04:7 -6.752E-01:8 
#C 2.0490200364E-09 8
-6.025E-04:1 7.190E-06:2 6.601E-05:3 1.367E-06:4 9.519E-03:5 3.300E00:6 -2.060E-04:7 -6.814E-01:8 
#C 2.0687378816E-09 8
-1.068E-03:1 -3.577E-06:2 6.386E-06:3 -3.979E-06:4 -4.954E-02:5 3.300E00:6 -2.548E-04:7 -6.843E-01:8 
#C 2.1081735718E-09 8
-2.191E-03:1 8.781E-07:2 -6.489E-06:3 3.228E-07:4 1.946E00:5 3.300E00:6 -2.785E-04:7 -6.864E-01:8 
#C 2.1134078957E-09 8
-2.067E-03:1 3.625E-06:2 9.340E-07:3 6.635E-07:4 2.363E00:5 3.300E00:6 -2.763E-04:7 -6.866E-01:8 
#C 2.1238765435E-09 8
-1.563E-03:1 3.609E-06:2 3.694E-06:3 7.528E-07:4 2.906E00:5 3.300E00:6 -2.733E-04:7 -6.868E-01:8 
#C 2.1264937055E-09 8
-1.443E-03:1 2.737E-06:2 2.150E-06:3 6.628E-07:4 2.992E00:5 3.300E00:6 -2.728E-04:7 -6.868E-01:8 
#C 2.1317280294E-09 8
-1.261E-03:1 1.903E-06:2 3.398E-07:3 5.870E-07:4 3.109E00:5 3.300E00:6 -2.722E-04:7 -6.869E-01:8 
#C 2.1421966772E-09 8
-1.013E-03:1 2.013E-06:2 1.206E-06:3 3.589E-07:4 3.231E00:5 3.300E00:6 -2.714E-04:7 -6.870E-01:8 
#C 2.1631339728E-09 8
-7.040E-04:1 1.402E-06:2 3.613E-06:3 1.109E-07:4 3.309E00:5 3.300E00:6 -2.717E-04:7 -6.871E-01:8 
#C 2.1982797585E-09 8
-3.650E-04:1 4.643E-07:2 3.836E-06:3 2.090E-07:4 3.319E00:5 3.300E00:6 -2.725E-04:7 -6.872E-01:8 
#C 2.2000000000E-09 8
-3.507E-04:1 6.021E-07:2 3.936E-06:3 5.309E-07:4 3.316E00:5 3.300E00:6 -2.726E-04:7 -6.872E-01:8 
#C 2.2034404366E-09 8
-3.232E-04:1 7.811E-07:2 4.006E-06:3 5.076E-07:4 3.313E00:5 3.300E00:6 -2.727E-04:7 -6.870E-01:8 
#C 2.2103213097E-09 8
-2.676E-04:1 9.148E-07:2 3.932E-06:3 5.154E-07:4 3.307E00:5 3.300E00:6 -2.729E-04:7 -6.866E-01:8 
#C 2.2240830559E-09 8
-1.689E-04:1 9.366E-07:2 3.847E-06:3 4.271E-07:4 3.302E00:5 3.300E00:6 -2.732E-04:7 -6.858E-01:8 
#C 2.2516065484E-09 8
-5.076E-06:1 9.011E-07:2 3.669E-06:3 3.564E-07:4 3.299E00:5 3.300E00:6 -2.733E-04:7 -6.841E-01:8 
#C 2.3016069291E-09 8
1.857E-04:1 1.010E-06:2 3.434E-06:3 3.331E-07:4 3.299E00:5 3.300E00:6 -2.735E-04:7 -6.811E-01:8 
#C 2.3516073098E-09 8
2.900E-04:1 1.139E-06:2 3.387E-06:3 3.317E-07:4 3.300E00:5 3.300E00:6 -2.736E-04:7 -6.779E-01:8 
#C 2.4016076906E-09 8
3.393E-04:1 1.178E-06:2 3.757E-06:3 3.316E-07:4 3.300E00:5 3.300E00:6 -2.735E-04:7 -6.747E-01:8 
#C 2.4516080713E-09 8
3.556E-04:1 1.138E-06:2 3.668E-06:3 3.317E-07:4 3.300E00:5 3.300E00:6 -2.734E-04:7 -6.715E-01:8 
#C 2.5016084520E-09 8
3.544E-04:1 1.208E-06:2 3.648E-06:3 3.318E-07:4 3.300E00:5 3.300E00:6 -2.733E-04:7 -6.681E-01:8 
#C 2.5516088327E-09 8
3.426E-04:1 9.913E-07:2 3.438E-06:3 3.320E-07:4 3.300E00:5 3.300E00:6 -2.731E-04:7 -6.646E-01:8 
#C 2.6016092135E-09 8
3.226E-04:1 9.858E-07:2 3.608E-06:3 3.315E-07:4 3.300E00:5 3.300E00:6 -2.730E-04:7 -6.610E-01:8 
#C 2.6516095942E-09 8
2.975E-04:1 9.200E-07:2 3.804E-06:3 3.316E-07:4 3.300E00:5 3.300E00:6 -2.729E-04:7 -6.572E-01:8 
#C 2.7016099749E-09 8
2.665E-04:1 9.825E-07:2 3.769E-06:3 3.312E-07:4 3.300E00:5 3.300E00:6 -2.725E-04:7 -6.533E-01:8 
#C 2.7516103556E-09 8
2.319E-04:1 9.949E-07:2 3.534E-06:3 3.318E-07:4 3.300E00:5 3.300E00:6 -2.720E-04:7 -6.491E-01:8 
#C 2.8016107364E-09 8
2.213E-04:1 9.497E-07:2 3.559E-06:3 3.314E-07:4 3.300E00:5 3.300E00:6 -2.718E-04:7 -6.447E-01:8 
#C 2.8516111171E-09 8
2.237E-04:1 9.584E-07:2 3.598E-06:3 3.316E-07:4 3.300E00:5 3.300E00:6 -2.717E-04:7 -6.398E-01:8 
#C 2.9016114978E-09 8
2.119E-04:1 9.629E-07:2 3.624E-06:3 3.319E-07:4 3.300E00:5 3.300E00:6 -2.711E-04:7 -6.345E-01:8 
#C 2.9516118785E-09 8
1.906E-04:1 9.637E-07:2 3.680E-06:3 3.319E-07:4 3.300E00:5 3.300E00:6 -2.705E-04:7 -6.286E-01:8 
#C 3.0016122593E-09 8
1.822E-04:1 9.654E-07:2 3.706E-06:3 3.317E-07:4 3.300E00:5 3.300E00:6 -2.700E-04:7 -6.218E-01:8 
#C 3.0516126400E-09 8
1.790E-04:1 9.694E-07:2 3.677E-06:3 3.317E-07:4 3.300E00:5 3.300E00:6 -2.694E-04:7 -6.135E-01:8 
#C 3.1016130207E-09 8
1.712E-04:1 9.728E-07:2 3.688E-06:3 3.319E-07:4 3.300E00:5 3.300E00:6 -2.685E-04:7 -6.029E-01:8 
#C 3.1516134014E-09 8
1.612E-04:1 9.745E-07:2 3.620E-06:3 3.319E-07:4 3.300E00:5 3.300E00:6 -2.672E-04:7 -5.875E-01:8 
#C 3.2016137822E-09 8
1.556E-04:1 9.571E-07:2 3.722E-06:3 3.319E-07:4 3.300E00:5 3.300E00:6 -2.646E-04:7 -5.573E-01:8 
#C 3.2516141629E-09 8
1.910E-04:1 9.617E-07:2 4.019E-06:3 3.325E-07:4 3.300E00:5 3.300E00:6 -2.544E-04:7 -4.323E-01:8 
#C 3.3016145436E-09 8
2.734E-04:1 1.010E-06:2 3.889E-06:3 3.312E-07:4 3.300E00:5 3.300E00:6 -2.347E-04:7 -2.177E-01:8 
#C 3.3516149243E-09 8
3.595E-04:1 9.881E-07:2 3.420E-06:3 3.302E-07:4 3.300E00:5 3.300E00:6 -2.128E-04:7 -1.382E-02:8 
#C 3.4016153051E-09 8
4.018E-04:1 9.915E-07:2 3.394E-06:3 3.299E-07:4 3.300E00:5 3.300E00:6 -1.920E-04:7 1.531E-01:8 
#C 3.4516156858E-09 8
3.798E-04:1 9.203E-07:2 3.492E-06:3 3.318E-07:4 3.300E00:5 3.300E00:6 -1.735E-04:7 2.888E-01:8 
#C 3.5016160665E-09 8
3.451E-04:1 8.806E-07:2 3.710E-06:3 3.318E-07:4 3.300E00:5 3.300E00:6 -1.571E-04:7 4.005E-01:8 
#C 3.5516164472E-09 8
2.899E-04:1 9.404E-07:2 3.719E-06:3 3.319E-07:4 3.300E00:5 3.300E00:6 -1.423E-04:7 4.937E-01:8 
#C 3.6016168280E-09 8
2.319E-04:1 9.879E-07:2 3.718E-06:3 3.317E-07:4 3.300E00:5 3.300E00:6 -1.289E-04:7 5.729E-01:8 
#C 3.6516172087E-09 8
1.780E-04:1 1.019E-06:2 3.754E-06:3 3.320E-07:4 3.300E00:5 3.300E00:6 -1.169E-04:7 6.414E-01:8 
#C 3.7016175894E-09 8
1.307E-04:1 9.997E-07:2 3.734E-06:3 3.320E-07:4 3.300E00:5 3.300E00:6 -1.060E-04:7 7.015E-01:8 
#C 3.7516179701E-09 8
9.153E-05:1 9.509E-07:2 3.651E-06:3 3.321E-07:4 3.300E00:5 3.300E00:6 -9.619E-05:7 7.545E-01:8 
#C 3.8016183509E-09 8
5.414E-05:1 9.596E-07:2 3.615E-06:3 2.809E-07:4 3.300E00:5 3.300E00:6 -8.728E-05:7 8.019E-01:8 
#C 3.8516187316E-09 8
1.344E-05:1 1.003E-06:2 3.713E-06:3 2.795E-07:4 3.300E00:5 3.300E00:6 -7.921E-05:7 8.441E-01:8 
#C 3.9016191123E-09 8
-5.582E-06:1 9.851E-07:2 3.748E-06:3 2.795E-07:4 3.300E00:5 3.300E00:6 -7.191E-05:7 8.820E-01:8 
#C 3.9516194930E-09 8
-1.351E-05:1 9.694E-07:2 3.782E-06:3 2.796E-07:4 3.300E00:5 3.300E00:6 -6.528E-05:7 9.161E-01:8 
#C 4.0016198738E-09 8
-1.830E-05:1 9.398E-07:2 3.732E-06:3 2.793E-07:4 3.300E00:5 3.300E00:6 -5.927E-05:7 9.469E-01:8 
#C 4.0516202545E-09 8
-1.422E-05:1 9.747E-07:2 3.565E-06:3 2.794E-07:4 3.300E00:5 3.300E00:6 -5.382E-05:7 9.746E-01:8 
#C 4.1016206352E-09 8
-1.524E-05:1 9.639E-07:2 3.712E-06:3 2.796E-07:4 3.300E00:5 3.300E00:6 -4.888E-05:7 9.996E-01:8 
#C 4.1516210159E-09 8
-2.389E-05:1 9.267E-07:2 3.731E-06:3 2.801E-07:4 3.300E00:5 3.300E00:6 -4.440E-05:7 1.022E00:8 
#C 4.2016213967E-09 8
-3.579E-05:1 9.350E-07:2 3.746E-06:3 2.796E-07:4 3.300E00:5 3.300E00:6 -4.034E-05:7 1.043E00:8 
#C 4.2516217774E-09 8
-5.307E-05:1 9.349E-07:2 3.849E-06:3 2.795E-07:4 3.300E00:5 3.300E00:6 -3.666E-05:7 1.062E00:8 
#C 4.3016221581E-09 8
-7.577E-05:1 9.843E-07:2 3.741E-06:3 2.793E-07:4 3.300E00:5 3.300E00:6 -3.332E-05:7 1.079E00:8 
#C 4.3516225388E-09 8
-8.530E-05:1 9.732E-07:2 3.708E-06:3 2.794E-07:4 3.300E00:5 3.300E00:6 -3.030E-05:7 1.095E00:8 
#C 4.4016229196E-09 8
-9.036E-05:1 9.744E-07:2 3.571E-06:3 2.800E-07:4 3.300E00:5 3.300E00:6 -2.756E-05:7 1.109E00:8 
#C 4.4516233003E-09 8
-9.451E-05:1 9.686E-07:2 3.647E-06:3 2.797E-07:4 3.300E00:5 3.300E00:6 -2.508E-05:7 1.122E00:8 
#C 4.5016236810E-09 8
-1.001E-04:1 9.618E-07:2 3.833E-06:3 2.797E-07:4 3.300E00:5 3.300E00:6 -2.283E-05:7 1.135E00:8 
#C 4.5516240617E-09 8
-9.760E-05:1 9.510E-07:2 3.801E-06:3 2.797E-07:4 3.300E00:5 3.300E00:6 -2.078E-05:7 1.146E00:8 
#C 4.6016244425E-09 8
-9.034E-05:1 9.581E-07:2 3.719E-06:3 2.796E-07:4 3.300E00:5 3.300E00:6 -1.891E-05:7 1.157E00:8 
#C 4.6516248232E-09 8
-8.114E-05:1 9.568E-07:2 3.694E-06:3 2.794E-07:4 3.300E00:5 3.300E00:6 -1.724E-05:7 1.166E00:8 
#C 4.7016252039E-09 8
-7.094E-05:1 9.598E-07:2 3.743E-06:3 2.796E-07:4 3.300E00:5 3.300E00:6 -1.572E-05:7 1.175E00:8 
#C 4.7516255846E-09 8
-6.180E-05:1 9.580E-07:2 3.702E-06:3 2.797E-07:4 3.300E00:5 3.300E00:6 -1.433E-05:7 1.184E00:8 
#C 4.8016259654E-09 8
-5.303E-05:1 9.589E-07:2 3.698E-06:3 2.796E-07:4 3.300E00:5 3.300E00:6 -1.307E-05:7 1.192E00:8 
#C 4.8516263461E-09 8
-5.322E-05:1 9.586E-07:2 3.733E-06:3 2.796E-07:4 3.300E00:5 3.300E00:6 -1.192E-05:7 1.200E00:8 
#C 4.9016267268E-09 8
-6.095E-05:1 9.568E-07:2 3.726E-06:3 2.796E-07:4 3.300E00:5 3.300E00:6 -1.088E-05:7 1.207E00:8 
#C 4.9516271075E-09 8
-5.659E-05:1 9.573E-07:2 3.730E-06:3 2.796E-07:4 3.300E00:5 3.300E00:6 -9.943E-06:7 1.214E00:8 
#C 5.0016274883E-09 8
-4.527E-05:1 9.589E-07:2 3.692E-06:3 2.797E-07:4 3.300E00:5 3.300E00:6 -9.088E-06:7 1.221E00:8 
#C 5.0516278690E-09 8
-4.381E-05:1 9.574E-07:2 3.690E-06:3 2.797E-07:4 3.300E00:5 3.300E00:6 -8.309E-06:7 1.227E00:8 
#C 5.1016282497E-09 8
-4.113E-05:1 9.579E-07:2 3.732E-06:3 2.795E-07:4 3.300E00:5 3.300E00:6 -7.595E-06:7 1.233E00:8 
#C 5.1516286304E-09 8
-3.777E-05:1 9.597E-07:2 3.726E-06:3 2.795E-07:4 3.300E00:5 3.300E00:6 -6.946E-06:7 1.239E00:8 
#C 5.2016290112E-09 8
-3.511E-05:1 9.574E-07:2 3.724E-06:3 2.796E-07:4 3.300E00:5 3.300E00:6 -6.358E-06:7 1.244E00:8 
#C 5.2516293919E-09 8
-3.175E-05:1 9.571E-07:2 3.731E-06:3 2.796E-07:4 3.300E00:5 3.300E00:6 -5.833E-06:7 1.250E00:8 
#C 5.3016297726E-09 8
-3.089E-05:1 9.561E-07:2 3.724E-06:3 2.795E-07:4 3.300E00:5 3.300E00:6 -5.351E-06:7 1.255E00:8 
#C 5.3516301533E-09 8
-3.155E-05:1 9.548E-07:2 3.676E-06:3 2.795E-07:4 3.300E00:5 3.300E00:6 -4.906E-06:7 1.260E00:8 
#C 5.4016305341E-09 8
-3.283E-05:1 9.520E-07:2 3.644E-06:3 2.795E-07:4 3.300E00:5 3.300E00:6 -4.501E-06:7 1.265E00:8 
#C 5.4516309148E-09 8
-3.355E-05:1 9.612E-07:2 3.717E-06:3 2.795E-07:4 3.300E00:5 3.300E00:6 -4.137E-06:7 1.270E00:8 
#C 5.5016312955E-09 8
-3.289E-05:1 9.603E-07:2 3.725E-06:3 2.795E-07:4 3.300E00:5 3.300E00:6 -3.808E-06:7 1.275E00:8 
#C 5.5516316762E-09 8
-3.557E-05:1 9.629E-07:2 3.673E-06:3 2.795E-07:4 3.300E00:5 3.300E00:6 -3.508E-06:7 1.280E00:8 
#C 5.6016320570E-09 8
-3.557E-05:1 9.610E-07:2 3.656E-06:3 2.796E-07:4 3.300E00:5 3.300E00:6 -3.234E-06:7 1.285E00:8 
#C 5.6516324377E-09 8
-3.227E-05:1 9.611E-07:2 3.659E-06:3 2.796E-07:4 3.300E00:5 3.300E00:6 -2.984E-06:7 1.290E00:8 
#C 5.7016328184E-09 8
-2.712E-05:1 9.610E-07:2 3.681E-06:3 2.796E-07:4 3.300E00:5 3.300E00:6 -2.756E-06:7 1.295E00:8 
#C 5.7516331991E-09 8
-2.115E-05:1 9.620E-07:2 3.680E-06:3 2.795E-07:4 3.300E00:5 3.300E00:6 -2.547E-06:7 1.300E00:8 
#C 5.8016335799E-09 8
-1.521E-05:1 9.625E-07:2 3.661E-06:3 2.796E-07:4 3.300E00:5 3.300E00:6 -2.356E-06:7 1.305E00:8 
#C 5.8516339606E-09 8
-8.422E-06:1 9.641E-07:2 3.641E-06:3 2.795E-07:4 3.300E00:5 3.300E00:6 -2.181E-06:7 1.310E00:8 
#C 5.9016343413E-09 8
-2.049E-06:1 9.605E-07:2 3.730E-06:3 2.796E-07:4 3.300E00:5 3.300E00:6 -2.021E-06:7 1.315E00:8 
#C 5.9516347220E-09 8
1.601E-06:1 9.617E-07:2 3.712E-06:3 2.796E-07:4 3.300E00:5 3.300E00:6 -1.874E-06:7 1.320E00:8 
#C 6.0016351027E-09 8
1.769E-06:1 9.613E-07:2 3.649E-06:3 2.795E-07:4 3.300E00:5 3.300E00:6 -1.739E-06:7 1.325E00:8 
#C 6.0516354835E-09 8
1.045E-06:1 9.627E-07:2 3.653E-06:3 2.795E-07:4 3.300E00:5 3.300E00:6 -1.617E-06:7 1.330E00:8 
#C 6.1016358642E-09 8
-4.512E-07:1 9.556E-07:2 3.639E-06:3 2.797E-07:4 3.300E00:5 3.300E00:6 -1.510E-06:7 1.336E00:8 
#C 6.1516362449E-09 8
1.958E-07:1 9.494E-07:2 3.714E-06:3 2.797E-07:4 3.300E00:5 3.300E00:6 -1.413E-06:7 1.341E00:8 
#C 6.2016366256E-09 8
5.327E-07:1 9.554E-07:2 3.699E-06:3 2.797E-07:4 3.300E00:5 3.300E00:6 -1.327E-06:7 1.346E00:8 
#C 6.2516370064E-09 8
4.239E-06:1 9.595E-07:2 3.715E-06:3 2.796E-07:4 3.300E00:5 3.300E00:6 -1.245E-06:7 1.352E00:8 
#C 6.3016373871E-09 8
1.640E-06:1 9.653E-07:2 3.660E-06:3 2.795E-07:4 3.300E00:5 3.300E00:6 -1.172E-06:7 1.358E00:8 
#C 6.3516377678E-09 8
-3.662E-06:1 9.594E-07:2 3.678E-06:3 2.795E-07:4 3.300E00:5 3.300E00:6 -1.107E-06:7 1.365E00:8 
#C 6.4016381485E-09 8
-1.021E-05:1 9.610E-07:2 3.659E-06:3 2.797E-07:4 3.300E00:5 3.300E00:6 -1.043E-06:7 1.371E00:8 
#C 6.4516385293E-09 8
-1.451E-05:1 9.624E-07:2 3.658E-06:3 2.797E-07:4 3.300E00:5 3.300E00:6 -9.873E-07:7 1.378E00:8 
#C 6.5016389100E-09 8
-8.387E-06:1 9.639E-07:2 3.682E-06:3 2.797E-07:4 3.300E00:5 3.300E00:6 -9.352E-07:7 1.385E00:8 
#C 6.5516392907E-09 8
5.390E-06:1 9.649E-07:2 3.681E-06:3 2.797E-07:4 3.300E00:5 3.300E00:6 -8.893E-07:7 1.392E00:8 
#C 6.6016396714E-09 8
1.463E-05:1 9.622E-07:2 3.683E-06:3 2.796E-07:4 3.300E00:5 3.300E00:6 -8.449E-07:7 1.400E00:8 
