#H
SOURCE='ADVANCED ANALYSIS OPTIMIZER' VERSION='16.0.0'
TITLE='** CSDF File generated from CurrentPlot.tbl **'
TIME='19:06:14' DATE='04/09/2010' TEMPERATURE='27'
ANALYSIS='DC' SERIALNO=''
COMPLEXVALUES='NO' NODES='1'
SWEEPVAR='"va::dc"' SWEEPMODE='VAR_STEP'
XBEGIN='2.000000e-001' XEND='2.900000e-001'
FORMAT='0 VOLTSorAMPS;EFLOAT : NODEorBRANCH;NODE '
#N
'"transient.sim::max(v(u7.u2.d-lsb))"' 
#C 0.2 1 
3.3004708290100 
#C 0.245 1 
0.0014092255150899 
#C 0.29 1 
3.3005616664887 
#;
