
**** 08/06/09 18:56:52 ******** PSpice Lite (Oct 2008) ******** ID# 10813 ****

 ** Profile: "SCHEMATIC1-transient"  [ D:\Documents\TESIS\TRUNK\Design\I-OPAMPB-01\i-opampb-01-pspicefiles\schematic1\transient.sim ]


 ****     CIRCUIT DESCRIPTION


******************************************************************************




** Creating circuit file "transient.cir" 
** WARNING: THIS AUTOMATICALLY GENERATED FILE MAY BE OVERWRITTEN BY SUBSEQUENT SIMULATIONS

*Libraries: 
* Profile Libraries :
* Local Libraries :
.LIB "../../../i-opampb-01-pspicefiles/i-opampb-01.lib" 
* From [PSPICE NETLIST] section of C:\OrCAD\OrCAD_16.2\tools\PSpice\PSpice.ini file:
.lib "nomd.lib" 

*Analysis directives: 
.TRAN  0 .5 0 0.0001 
.PROBE V(alias(*)) I(alias(*)) W(alias(*)) D(alias(*)) NOISE(alias(*)) 
.INC "..\SCHEMATIC1.net" 



**** INCLUDING SCHEMATIC1.net ****
* source I-OPAMPB-01
V_V1         N16153 0 5
M_M12         N14949 N15060 0 0 NMOS  
+ L=9.6u  
+ W=24.8u         
M_M4         N52937 0 N15828 N16153 PMOS  
+ L=4.8u  
+ W=420u         
V_V3         0 VIN-  
+SIN -1.1 .1 10 0 0 0
M_M5         N15242 N15242 N16153 N16153 PMOS  
+ L=9.6u  
+ W=77.6u         
M_M6         N15060 N15060 N15242 N16153 PMOS  
+ L=9.6u  
+ W=101.6u         
M_M7         N15060 N15060 0 0 NMOS  
+ L=9.6u  
+ W=24.8u         
M_M8         N52937 N15242 N14804 0 NMOS  
+ L=1.6u  
+ W=91.2u         
I_I1         TEST 0 DC 0Adc AC 0Aac
+PULSE 0 1m 100m 3p 7p 0 0
M_M3         N15828 N15828 N16153 N16153 PMOS  
+ L=4.8u  
+ W=420u         
V_V2         VIN+ 0  
+SIN 1.1 .1 10 0 0 0
C_C1         TEST 0  5p  TC=0,0 
M_M9         N14804 VIN+ N14949 0 NMOS  
+ L=1.6u  
+ W=91.2u         
M_M10         TEST N15242 N52017 0 NMOS  
+ L=1.6u  
+ W=91.2u         
M_M1         N52256 N15828 N16153 N16153 PMOS  
+ L=4.8u  
+ W=420u         
I_I2         TEST 0 DC 0Adc AC 0Aac
+PULSE 0 .3m 100m 1p 130p 9p 0
M_M11         N52017 VIN- N14949 0 NMOS  
+ L=1.6u  
+ W=91.2u         
M_M2         TEST 0 N52256 N16153 PMOS  
+ L=4.8u  
+ W=420u         

**** RESUMING transient.cir ****
.END

Mosfet M_M12, model NMOS: Using BSIM VERSION 3.1 or lower
WARNING -- Mosfet M_M12, model NMOS: Pd = 0 is less than W
WARNING -- Mosfet M_M12, model NMOS: Ps = 0 is less than W
Mosfet M_M8, model NMOS: Using BSIM VERSION 3.1 or lower
WARNING -- Mosfet M_M8, model NMOS: Pd = 0 is less than W
WARNING -- Mosfet M_M8, model NMOS: Ps = 0 is less than W
Mosfet M_M4, model PMOS: Using BSIM VERSION 3.1 or lower
WARNING -- Mosfet M_M4, model PMOS: Pd = 0 is less than W
WARNING -- Mosfet M_M4, model PMOS: Ps = 0 is less than W
Mosfet M_M5, model PMOS: Using BSIM VERSION 3.1 or lower
WARNING -- Mosfet M_M5, model PMOS: Pd = 0 is less than W
WARNING -- Mosfet M_M5, model PMOS: Ps = 0 is less than W
Mosfet M_M6, model PMOS: Using BSIM VERSION 3.1 or lower
WARNING -- Mosfet M_M6, model PMOS: Pd = 0 is less than W
WARNING -- Mosfet M_M6, model PMOS: Ps = 0 is less than W
**** 08/06/09 18:56:52 ******** PSpice Lite (Oct 2008) ******** ID# 10813 ****

 ** Profile: "SCHEMATIC1-transient"  [ D:\Documents\TESIS\TRUNK\Design\I-OPAMPB-01\i-opampb-01-pspicefiles\schematic1\transient.sim ]


 ****     MOSFET MODEL PARAMETERS


******************************************************************************




               NMOS            PMOS            
               NMOS            PMOS            
  T_Measured   27              27            
   T_Current   27              27            
       LEVEL    7               7            
           L  100.000000E-06  100.000000E-06 
           W  100.000000E-06  100.000000E-06 
         VTO     .552594        -.84764      
          KP   66.406610E-06   66.406610E-06 
       GAMMA    0               0            
      LAMBDA    0               0            
         RSH   52.7            76            
          IS    1.000000E-15    1.000000E-15 
          JS  100.000000E-06  100.000000E-06 
          PB     .99             .8          
        PBSW     .99             .988295     
          CJ  273.755200E-06  308.598800E-06 
        CJSW  135.927700E-12  158.319000E-12 
          MJ     .548193         .439453     
        MJSW     .1              .100317     
        CGSO  175.000000E-12  210.000000E-12 
        CGDO  175.000000E-12  210.000000E-12 
        CGBO    1.000000E-09    1.000000E-09 
         TOX   31.200000E-09   31.200000E-09 
          XJ  300.000000E-09  300.000000E-09 
       UCRIT   10.000000E+03   10.000000E+03 
       DELTA     .01             .01         
      DIOMOD    2               2            
          K1     .968402         .451361     
          K2    -.087558       23.796990E-06 
        LETA    0               0            
        WETA    0               0            
          U0  649.4789        236.8924       
       XPART     .5              .5          
        VTH0     .552594        -.84764      
          K3    4.608661       13.32784      
          W0  671.456300E-09  957.723600E-09 
         NLX   12.171970E-09    1.000000E-06 
        DVT0     .529357        2.490785     
        DVT1     .443214         .665622     
          UA    1.313648E-09    3.833306E-09 
          UB    2.836687E-18    1.487688E-21 
          UC   24.583630E-12 -108.562000E-12 
        VSAT  117.058700E+03  200.000000E+03 
        RDSW    3.000000E+03    3.000000E+03 
        VOFF    -.073146        -.087718     
     NFACTOR     .567383         .250834     
        CDSC    7.627884E-06   29.248060E-06 
        PCLM    1.848118      112.059500E-12 
      PDIBL1    8.801319E-03  450.247800E-06 
      PDIBL2    1.584140E-03    1.090076E-03 
       DROUT     .068138      924.353800E-06 
      PSCBE1    6.290635E+09    3.500883E+09 
      PSCBE2    1.441641E-09  525.238300E-12 
          A0     .652834         .420595     
          A1    0               0            
          A2    1                .364        
       NPEAK   75.000000E+15   24.000000E+15 
         LDD    0               0            
        LITL  167.570900E-09  167.570900E-09 
         UA1    4.310000E-09    4.310000E-09 
         UB1   -7.610000E-18   -7.610000E-18 
         UC1  -56.000000E-12  -56.000000E-12 
        PVAG     .91451        15            
        KETA   -8.095926E-03    5.754484E-03 
        ETA0    -.61012          .26103      
        ETAB    -.300202     -814.824400E-06 
         K3B   -2.012806       -2.223833     
        DVT2    -.5             -.037222     
       CDSCB   46.912940E-06  109.148800E-06 
        DSUB     .879973         .2873       
      MOBMOD    1               1            
       CDSCD    8.475154E-06  149.757200E-06 
         AGS     .113668         .214098     
       DVT1W    0               0            
       DVT2W    0               0            
        PRWG -507.319900E-06     .242512     
        PRWB    -.061885        -.210846     
     PDIBLCB    -.1            -1.000000E-03 
         DWG  -24.963150E-09  -21.391700E-09 
         DWB   16.695650E-09   38.575440E-09 
          B0    1.489912E-06    6.620808E-06 
          B1    5.000000E-06    5.000000E-06 
        LINT  181.968500E-09   32.188130E-09 
        WINT  775.572600E-09  756.506500E-09 
         DLC  181.968500E-09   32.188130E-09 
         DWC  775.572600E-09  756.506500E-09 
          CF    0               0            
        NOIA  100.000000E+18    9.900001E+18 
        NOIB   50.000000E+03    2.400000E+03 
        NOIC   -1.400000E-12    1.400000E-12 
         VTM     .025864         .025864     
     VERSION    3.1             3.1          
       PBSWG     .99             .988295     
       MJSWG     .1              .100317     
       CJSWG   64.000000E-12   39.000000E-12 


Mosfet M_M12, model NMOS: Using BSIM VERSION 3.1 or lower
WARNING -- Mosfet M_M12, model NMOS: Pd = 0 is less than W
WARNING -- Mosfet M_M12, model NMOS: Ps = 0 is less than W
Mosfet M_M8, model NMOS: Using BSIM VERSION 3.1 or lower
WARNING -- Mosfet M_M8, model NMOS: Pd = 0 is less than W
WARNING -- Mosfet M_M8, model NMOS: Ps = 0 is less than W
Mosfet M_M4, model PMOS: Using BSIM VERSION 3.1 or lower
WARNING -- Mosfet M_M4, model PMOS: Pd = 0 is less than W
WARNING -- Mosfet M_M4, model PMOS: Ps = 0 is less than W
Mosfet M_M5, model PMOS: Using BSIM VERSION 3.1 or lower
WARNING -- Mosfet M_M5, model PMOS: Pd = 0 is less than W
WARNING -- Mosfet M_M5, model PMOS: Ps = 0 is less than W
Mosfet M_M6, model PMOS: Using BSIM VERSION 3.1 or lower
WARNING -- Mosfet M_M6, model PMOS: Pd = 0 is less than W
WARNING -- Mosfet M_M6, model PMOS: Ps = 0 is less than W
**** 08/06/09 18:56:52 ******** PSpice Lite (Oct 2008) ******** ID# 10813 ****

 ** Profile: "SCHEMATIC1-transient"  [ D:\Documents\TESIS\TRUNK\Design\I-OPAMPB-01\i-opampb-01-pspicefiles\schematic1\transient.sim ]


 ****     INITIAL TRANSIENT SOLUTION       TEMPERATURE =   27.000 DEG C


******************************************************************************



 NODE   VOLTAGE     NODE   VOLTAGE     NODE   VOLTAGE     NODE   VOLTAGE


( TEST)    3.9865  ( VIN+)    1.1000  ( VIN-)    1.1000  (N14804)    2.1765     

(N14949)     .3629 (N15060)    1.4306 (N15242)    3.3227 (N15828)    3.9940     

(N16153)    5.0000 (N52017)    2.1765 (N52256)    3.9940 (N52937)    3.9865 




    VOLTAGE SOURCE CURRENTS
    NAME         CURRENT

    V_V1        -8.557E-05
    V_V3         0.000E+00
    V_V2         0.000E+00

    TOTAL POWER DISSIPATION   4.28E-04  WATTS



          JOB CONCLUDED

**** 08/06/09 18:56:52 ******** PSpice Lite (Oct 2008) ******** ID# 10813 ****

 ** Profile: "SCHEMATIC1-transient"  [ D:\Documents\TESIS\TRUNK\Design\I-OPAMPB-01\i-opampb-01-pspicefiles\schematic1\transient.sim ]


 ****     JOB STATISTICS SUMMARY


******************************************************************************



  Total job time (using Solver 1)   =        1.29
