
**** 10/05/09 11:19:29 ******** PSpice Lite (Oct 2008) ******** ID# 10813 ****

 ** Profile: "NAND-bias"  [ D:\Documents\TESIS\TRUNK\Design\I-NAND\I-NAND-PSpiceFiles\NAND\bias.sim ] 


 ****     CIRCUIT DESCRIPTION


******************************************************************************




** Creating circuit file "bias.cir" 
** WARNING: THIS AUTOMATICALLY GENERATED FILE MAY BE OVERWRITTEN BY SUBSEQUENT SIMULATIONS

*Libraries: 
* Profile Libraries :
* Local Libraries :
* From [PSPICE NETLIST] section of C:\Program Files\OrCAD 16\tools\PSpice\PSpice.ini file:
.lib "nomd.lib" 

*Analysis directives: 
.PROBE V(alias(*)) I(alias(*)) W(alias(*)) D(alias(*)) NOISE(alias(*)) 
.INC "..\NAND.net" 



**** INCLUDING NAND.net ****
* source I-NAND
M_NAND_A1_M1         N00219 N00079 NAND_A1_N14393 0 MbreakN           
M_NAND_A1_M2         NAND_A1_N14393 N00079 0 0 MbreakN           
M_NAND_A1_M3         N00219 N00079 N00079 N00079 MbreakP           
M_NAND_A1_M4         N00219 N00079 N00079 N00079 MbreakP           
V_V1         N00079 0 5v
R_R1         0 N00219  1k TC=0,0 

**** RESUMING bias.cir ****
.END

**** 10/05/09 11:19:29 ******** PSpice Lite (Oct 2008) ******** ID# 10813 ****

 ** Profile: "NAND-bias"  [ D:\Documents\TESIS\TRUNK\Design\I-NAND\I-NAND-PSpiceFiles\NAND\bias.sim ] 


 ****     MOSFET MODEL PARAMETERS


******************************************************************************




               MbreakN         MbreakP         
               NMOS            PMOS            
       LEVEL    1               1            
           L  100.000000E-06  100.000000E-06 
           W  100.000000E-06  100.000000E-06 
         VTO    0               0            
          KP   20.000000E-06   20.000000E-06 
       GAMMA    0               0            
         PHI     .6              .6          
      LAMBDA    0               0            
          IS   10.000000E-15   10.000000E-15 
          JS    0               0            
          PB     .8              .8          
        PBSW     .8              .8          
          CJ    0               0            
        CJSW    0               0            
        CGSO    0               0            
        CGDO    0               0            
        CGBO    0               0            
         TOX    0               0            
          XJ    0               0            
       UCRIT   10.000000E+03   10.000000E+03 
      DIOMOD    1               1            
         VFB    0               0            
        LETA    0               0            
        WETA    0               0            
          U0    0               0            
        TEMP    0               0            
         VDD    5               5            
       XPART    0               0            


**** 10/05/09 11:19:29 ******** PSpice Lite (Oct 2008) ******** ID# 10813 ****

 ** Profile: "NAND-bias"  [ D:\Documents\TESIS\TRUNK\Design\I-NAND\I-NAND-PSpiceFiles\NAND\bias.sim ] 


 ****     SMALL SIGNAL BIAS SOLUTION       TEMPERATURE =   27.000 DEG C


******************************************************************************



 NODE   VOLTAGE     NODE   VOLTAGE     NODE   VOLTAGE     NODE   VOLTAGE


(N00079)    5.0000 (N00219) 9.543E-09 (NAND_A1_N14393) 4.771E-09            




    VOLTAGE SOURCE CURRENTS
    NAME         CURRENT

    V_V1        -1.002E-11

    TOTAL POWER DISSIPATION   5.01E-11  WATTS



          JOB CONCLUDED

**** 10/05/09 11:19:29 ******** PSpice Lite (Oct 2008) ******** ID# 10813 ****

 ** Profile: "NAND-bias"  [ D:\Documents\TESIS\TRUNK\Design\I-NAND\I-NAND-PSpiceFiles\NAND\bias.sim ] 


 ****     JOB STATISTICS SUMMARY


******************************************************************************



  Total job time (using Solver 1)   =         .02
