#H
SOURCE='ADVANCED ANALYSIS OPTIMIZER' VERSION='16.0.0'
TITLE='** CSDF File generated from CurrentPlot.tbl **'
TIME='18:29:49' DATE='04/09/2010' TEMPERATURE='27'
ANALYSIS='DC' SERIALNO=''
COMPLEXVALUES='NO' NODES='1'
SWEEPVAR='"va::dc"' SWEEPMODE='VAR_STEP'
XBEGIN='2.000000e-001' XEND='2.900000e-001'
FORMAT='0 VOLTSorAMPS;EFLOAT : NODEorBRANCH;NODE '
#N
'"transient.sim::max(v(lsb))"' 
#C 0.2 1 
0.18698833882809 
#C 0.245 1 
0.18699802458286 
#C 0.29 1 
0.18698927760124 
#;
