#H
SOURCE='PSPICE' VERSION='PSpice 16.0.0 (July 2006)'
TITLE='**** 05/18/10 12:08:24 ******* PSpice 16.0.0 (July 2006) ****** ID# 0 ********'
SUBTITLE=''
TIME='20:15:11' DATE='05/30/10' TEMPERATURE='2.700E01'
ANALYSIS='Transient Analysis' SERIALNO='61413'
ALLVALUES='NO' COMPLEXVALUES='NO' NODES='20'
SWEEPVAR='Time' SWEEPMODE='VAR_STEP'
XBEGIN='0.000E00' XEND='5.000E-08'
FORMAT='0 VOLTSorAMPS;EFLOAT : NODEorBRANCH;NODE  '
DGTLDATA='NO' 
#N 
'V(C_F_D_LSB)' 'V(C_F_D_2SB)' 'V(C_F_D_3SB)' 'V(C_F_D_4SB)' 'V(C_F_D_5SB)' 'V(C_F_D_MSB)' 'V(C_F_C1_NDNEG)' 'I(I_INY1)' 'ID(M_C_F_C1_M3)' 
'IB(M_C_F_C1_M3)' 'IS(M_C_F_C1_M3)' 'IG(M_C_F_C1_M3)' 'ID(M_C_F_C1_M1)' 'IB(M_C_F_C1_M1)' 'IS(M_C_F_C1_M1)' 'IG(M_C_F_C1_M1)' 
'ID(M_C_F_C1_M4)' 'IB(M_C_F_C1_M4)' 'IS(M_C_F_C1_M4)' 'IG(M_C_F_C1_M4)' 
#C 0.0000000000E00 20
3.300E00:1 3.300E00:2 3.300E00:3 3.300E00:4 3.300E00:5 3.229E00:6 2.425E00:7 0.000E00:8 -1.258E-04:9 8.850E-13:a 1.258E-04:b 
0.000E00:c 1.258E-04:d -2.862E-12:e -1.258E-04:f 0.000E00:10 -1.265E-04:11 1.579E-12:12 1.265E-04:13 0.000E00:14 
#C 1.0000000000E-11 20
3.300E00:1 3.300E00:2 3.300E00:3 3.300E00:4 3.300E00:5 3.229E00:6 2.425E00:7 0.000E00:8 -1.258E-04:9 -1.116E-13:a 1.258E-04:b 
8.167E-12:c 1.258E-04:d -4.554E-12:e -1.258E-04:f -1.062E-11:10 -1.265E-04:11 5.817E-13:12 1.265E-04:13 8.225E-12:14 
#C 2.0000000000E-11 20
3.300E00:1 3.300E00:2 3.300E00:3 3.300E00:4 3.300E00:5 3.229E00:6 2.425E00:7 0.000E00:8 -1.258E-04:9 -1.116E-13:a 1.258E-04:b 
8.167E-12:c 1.258E-04:d -4.554E-12:e -1.258E-04:f -1.062E-11:10 -1.265E-04:11 5.817E-13:12 1.265E-04:13 8.225E-12:14 
#C 4.0000152290E-11 20
3.300E00:1 3.300E00:2 3.300E00:3 3.300E00:4 3.300E00:5 3.229E00:6 2.425E00:7 0.000E00:8 -1.258E-04:9 8.850E-13:a 1.258E-04:b 
0.000E00:c 1.258E-04:d -2.862E-12:e -1.258E-04:f 0.000E00:10 -1.265E-04:11 1.579E-12:12 1.265E-04:13 0.000E00:14 
#C 8.0000456870E-11 20
3.300E00:1 3.300E00:2 3.300E00:3 3.300E00:4 3.300E00:5 3.229E00:6 2.425E00:7 0.000E00:8 -1.258E-04:9 8.850E-13:a 1.258E-04:b 
0.000E00:c 1.258E-04:d -2.862E-12:e -1.258E-04:f 0.000E00:10 -1.265E-04:11 1.579E-12:12 1.265E-04:13 0.000E00:14 
#C 1.6000106603E-10 20
3.300E00:1 3.300E00:2 3.300E00:3 3.300E00:4 3.300E00:5 3.229E00:6 2.425E00:7 0.000E00:8 -1.258E-04:9 8.850E-13:a 1.258E-04:b 
0.000E00:c 1.258E-04:d -2.862E-12:e -1.258E-04:f 0.000E00:10 -1.265E-04:11 1.579E-12:12 1.265E-04:13 0.000E00:14 
#C 3.2000228435E-10 20
3.300E00:1 3.300E00:2 3.300E00:3 3.300E00:4 3.300E00:5 3.229E00:6 2.425E00:7 0.000E00:8 -1.258E-04:9 8.850E-13:a 1.258E-04:b 
0.000E00:c 1.258E-04:d -2.862E-12:e -1.258E-04:f 0.000E00:10 -1.265E-04:11 1.579E-12:12 1.265E-04:13 0.000E00:14 
#C 6.4000472099E-10 20
3.300E00:1 3.300E00:2 3.300E00:3 3.300E00:4 3.300E00:5 3.229E00:6 2.425E00:7 0.000E00:8 -1.258E-04:9 8.850E-13:a 1.258E-04:b 
0.000E00:c 1.258E-04:d -2.862E-12:e -1.258E-04:f 0.000E00:10 -1.265E-04:11 1.579E-12:12 1.265E-04:13 0.000E00:14 
#C 1.2800095943E-09 20
3.300E00:1 3.300E00:2 3.300E00:3 3.300E00:4 3.300E00:5 3.229E00:6 2.425E00:7 0.000E00:8 -1.258E-04:9 8.850E-13:a 1.258E-04:b 
0.000E00:c 1.258E-04:d -2.862E-12:e -1.258E-04:f 0.000E00:10 -1.265E-04:11 1.579E-12:12 1.265E-04:13 0.000E00:14 
#C 2.0000000001E-09 20
3.300E00:1 3.300E00:2 3.300E00:3 3.300E00:4 3.300E00:5 3.229E00:6 2.425E00:7 1.333E-11:8 -1.258E-04:9 8.850E-13:a 1.258E-04:b 
0.000E00:c 1.258E-04:d -2.862E-12:e -1.258E-04:f 0.000E00:10 -1.265E-04:11 1.579E-12:12 1.265E-04:13 0.000E00:14 
#C 2.0200000001E-09 20
3.300E00:1 3.300E00:2 3.300E00:3 3.300E00:4 3.300E00:5 3.229E00:6 2.423E00:7 1.946E-03:8 4.078E-04:9 1.500E-04:a 6.716E-04:b 
-1.229E-03:c 1.125E-04:d 2.577E-06:e -1.256E-04:f 1.050E-05:10 4.150E-04:11 1.501E-04:12 6.721E-04:13 -1.237E-03:14 
#C 2.0600003047E-09 20
3.300E00:1 3.300E00:2 3.300E00:3 3.300E00:4 3.300E00:5 3.229E00:6 2.416E00:7 3.459E-03:8 8.189E-04:9 2.663E-04:a 1.098E-03:b 
-2.183E-03:c 1.023E-04:d 4.541E-06:e -1.253E-04:f 1.842E-05:10 8.323E-04:11 2.664E-04:12 1.098E-03:13 -2.197E-03:14 
#C 2.1400009138E-09 20
3.300E00:1 3.300E00:2 3.300E00:3 3.300E00:4 3.300E00:5 3.229E00:6 2.400E00:7 3.962E-03:8 9.479E-04:9 3.044E-04:a 1.245E-03:b 
-2.497E-03:c 1.023E-04:d 4.542E-06:e -1.253E-04:f 1.842E-05:10 9.635E-04:11 3.045E-04:12 1.245E-03:13 -2.513E-03:14 
#C 2.2000000001E-09 20
3.300E00:1 3.300E00:2 3.300E00:3 3.300E00:4 3.300E00:5 3.229E00:6 2.387E00:7 3.995E-03:8 9.471E-04:9 3.058E-04:a 1.257E-03:b 
-2.510E-03:c 9.350E-05:d 6.021E-06:e -1.223E-04:f 2.278E-05:10 9.629E-04:11 3.060E-04:12 1.257E-03:13 -2.526E-03:14 
#C 2.2160001219E-09 20
3.300E00:1 3.300E00:2 3.300E00:3 3.300E00:4 3.300E00:5 3.229E00:6 2.384E00:7 3.871E-03:8 9.426E-04:9 3.050E-04:a 1.256E-03:b 
-2.503E-03:c 9.788E-05:d 5.282E-06:e -1.238E-04:f 2.060E-05:10 9.584E-04:11 3.051E-04:12 1.256E-03:13 -2.519E-03:14 
#C 2.2480026939E-09 20
3.300E00:1 3.300E00:2 3.300E00:3 3.300E00:4 3.300E00:5 3.229E00:6 2.378E00:7 3.633E-03:8 8.439E-04:9 2.782E-04:a 1.161E-03:b 
-2.283E-03:c 1.053E-04:d 3.694E-06:e -1.221E-04:f 1.310E-05:10 8.588E-04:11 2.783E-04:12 1.162E-03:13 -2.299E-03:14 
#C 2.3120078378E-09 20
3.300E00:1 3.300E00:2 3.300E00:3 3.300E00:4 3.300E00:5 3.229E00:6 2.367E00:7 3.197E-03:8 7.161E-04:9 2.439E-04:a 1.043E-03:b 
-2.003E-03:c 1.053E-04:d 3.695E-06:e -1.221E-04:f 1.310E-05:10 7.289E-04:11 2.440E-04:12 1.043E-03:13 -2.016E-03:14 
#C 2.4400181257E-09 20
3.300E00:1 3.300E00:2 3.300E00:3 3.300E00:4 3.300E00:5 3.229E00:6 2.348E00:7 2.475E-03:8 5.050E-04:9 1.874E-04:a 8.479E-04:b 
-1.540E-03:c 1.115E-04:d 2.612E-06:e -1.238E-04:f 9.699E-06:10 5.151E-04:11 1.875E-04:12 8.486E-04:13 -1.551E-03:14 
#C 2.6960387015E-09 20
3.300E00:1 3.300E00:2 3.300E00:3 3.300E00:4 3.300E00:5 3.229E00:6 2.321E00:7 1.483E-03:8 2.132E-04:9 1.098E-04:a 5.802E-04:b 
-9.032E-04:c 1.169E-04:d 1.568E-06:e -1.240E-04:f 5.552E-06:10 2.194E-04:11 1.098E-04:12 5.810E-04:13 -9.102E-04:14 
#C 3.2080798530E-09 20
3.300E00:1 3.300E00:2 3.300E00:3 3.300E00:4 3.300E00:5 3.229E00:6 2.292E00:7 5.327E-04:8 -6.909E-05:9 3.540E-05:a 3.257E-04:b 
-2.920E-04:c 1.233E-04:d 3.155E-07:e -1.243E-04:f 6.193E-07:10 -6.684E-05:11 3.538E-05:12 3.265E-04:13 -2.951E-04:14 
#C 4.2081340336E-09 20
3.300E00:1 3.300E00:2 3.300E00:3 3.300E00:4 3.300E00:5 3.229E00:6 2.270E00:7 7.208E-05:8 -2.125E-04:9 -9.842E-07:a 2.057E-04:b 
7.763E-06:c 1.253E-04:d 4.036E-09:e -1.254E-04:f 6.076E-08:10 -2.126E-04:11 -9.978E-07:12 2.066E-04:13 6.983E-06:14 
#C 5.2081882143E-09 20
3.300E00:1 3.300E00:2 3.300E00:3 3.300E00:4 3.300E00:5 3.229E00:6 2.265E00:7 9.754E-06:8 -2.332E-04:9 -5.942E-06:a 1.902E-04:b 
4.889E-05:c 1.257E-04:d -5.870E-08:e -1.255E-04:f -1.410E-07:10 -2.339E-04:11 -5.947E-06:12 1.911E-04:13 4.876E-05:14 
#C 6.2082423949E-09 20
3.300E00:1 3.300E00:2 3.300E00:3 3.300E00:4 3.300E00:5 3.229E00:6 2.267E00:7 1.320E-06:8 -2.344E-04:9 -6.511E-06:a 1.873E-04:b 
5.363E-05:c 1.257E-04:d -3.887E-08:e -1.256E-04:f 6.232E-09:10 -2.354E-04:11 -6.512E-06:12 1.881E-04:13 5.376E-05:14 
#C 7.2082965755E-09 20
3.300E00:1 3.300E00:2 3.300E00:3 3.300E00:4 3.300E00:5 3.229E00:6 2.270E00:7 1.786E-07:8 -2.321E-04:9 -6.439E-06:a 1.855E-04:b 
5.303E-05:c 1.256E-04:d 3.145E-09:e -1.258E-04:f 2.681E-07:10 -2.332E-04:11 -6.439E-06:12 1.863E-04:13 5.329E-05:14 
#C 8.2083507561E-09 20
3.300E00:1 3.300E00:2 3.300E00:3 3.300E00:4 3.300E00:5 3.229E00:6 2.275E00:7 2.417E-08:8 -2.285E-04:9 -6.175E-06:a 1.839E-04:b 
5.085E-05:c 1.255E-04:d 6.304E-09:e -1.257E-04:f 1.764E-07:10 -2.297E-04:11 -6.175E-06:12 1.847E-04:13 5.113E-05:14 
#C 9.2084049367E-09 20
3.300E00:1 3.300E00:2 3.300E00:3 3.300E00:4 3.300E00:5 3.229E00:6 2.279E00:7 3.271E-09:8 -2.264E-04:9 -6.308E-06:a 1.808E-04:b 
5.194E-05:c 1.265E-04:d -2.401E-07:e -1.251E-04:f -1.181E-06:10 -2.275E-04:11 -6.308E-06:12 1.816E-04:13 5.221E-05:14 
#C 1.0208459117E-08 20
3.300E00:1 3.300E00:2 3.300E00:3 3.300E00:4 3.300E00:5 3.229E00:6 2.283E00:7 4.426E-10:8 -2.239E-04:9 -6.309E-06:a 1.783E-04:b 
5.194E-05:c 1.259E-04:d -7.687E-08:e -1.255E-04:f -2.453E-07:10 -2.235E-04:11 -5.825E-06:12 1.809E-04:13 4.839E-05:14 
#C 1.1208513298E-08 20
3.300E00:1 3.300E00:2 3.300E00:3 3.300E00:4 3.300E00:5 3.229E00:6 2.287E00:7 5.989E-11:8 -2.182E-04:9 -5.352E-06:a 1.795E-04:b 
4.406E-05:c 1.258E-04:d -8.090E-08:e -1.253E-04:f -3.755E-07:10 -2.219E-04:11 -6.068E-06:12 1.776E-04:13 5.030E-05:14 
#C 1.2208567479E-08 20
3.300E00:1 3.300E00:2 3.300E00:3 3.300E00:4 3.300E00:5 3.229E00:6 2.291E00:7 8.105E-12:8 -2.182E-04:9 -5.991E-06:a 1.749E-04:b 
4.931E-05:c 1.260E-04:d -1.326E-07:e -1.253E-04:f -6.005E-07:10 -2.159E-04:11 -5.088E-06:12 1.790E-04:13 4.203E-05:14 
#C 1.3208621659E-08 20
3.300E00:1 3.300E00:2 3.300E00:3 3.300E00:4 3.300E00:5 3.229E00:6 2.295E00:7 1.097E-12:8 -2.148E-04:9 -5.673E-06:a 1.738E-04:b 
4.669E-05:c 1.259E-04:d -1.068E-07:e -1.253E-04:f -4.880E-07:10 -2.155E-04:11 -5.579E-06:12 1.749E-04:13 4.617E-05:14 
#C 1.4208675840E-08 20
3.300E00:1 3.300E00:2 3.300E00:3 3.300E00:4 3.300E00:5 3.229E00:6 2.299E00:7 1.484E-13:8 -2.125E-04:9 -5.674E-06:a 1.715E-04:b 
4.669E-05:c 1.262E-04:d -1.642E-07:e -1.253E-04:f -7.212E-07:10 -2.133E-04:11 -5.580E-06:12 1.727E-04:13 4.617E-05:14 
#C 1.5000000000E-08 20
3.300E00:1 3.300E00:2 3.300E00:3 3.300E00:4 3.300E00:5 3.229E00:6 2.302E00:7 3.049E-14:8 -2.108E-04:9 -5.674E-06:a 1.697E-04:b 
4.669E-05:c 1.261E-04:d -1.450E-07:e -1.253E-04:f -6.434E-07:10 -2.101E-04:11 -5.091E-06:12 1.729E-04:13 4.231E-05:14 
#C 1.5100000000E-08 20
3.300E00:1 3.300E00:2 3.300E00:3 3.300E00:4 3.300E00:5 3.229E00:6 2.302E00:7 2.496E-14:8 -2.105E-04:9 -5.674E-06:a 1.695E-04:b 
4.669E-05:c 1.261E-04:d -1.450E-07:e -1.253E-04:f -6.434E-07:10 -2.104E-04:11 -5.241E-06:12 1.721E-04:13 4.349E-05:14 
#C 1.5300001523E-08 20
3.300E00:1 3.300E00:2 3.300E00:3 3.300E00:4 3.300E00:5 3.229E00:6 2.303E00:7 1.673E-14:8 -2.101E-04:9 -5.674E-06:a 1.691E-04:b 
4.669E-05:c 1.261E-04:d -1.450E-07:e -1.253E-04:f -6.434E-07:10 -2.100E-04:11 -5.241E-06:12 1.717E-04:13 4.349E-05:14 
#C 1.5350001904E-08 20
3.300E00:1 3.300E00:2 3.300E00:3 3.300E00:4 3.300E00:5 3.229E00:6 2.303E00:7 1.514E-14:8 -2.100E-04:9 -5.675E-06:a 1.690E-04:b 
4.669E-05:c 1.261E-04:d -1.450E-07:e -1.253E-04:f -6.434E-07:10 -2.099E-04:11 -5.241E-06:12 1.716E-04:13 4.349E-05:14 
#C 1.5450002665E-08 20
3.300E00:1 3.300E00:2 3.300E00:3 3.300E00:4 3.300E00:5 3.229E00:6 2.304E00:7 1.240E-14:8 -2.098E-04:9 -5.675E-06:a 1.687E-04:b 
4.669E-05:c 1.261E-04:d -1.450E-07:e -1.253E-04:f -6.434E-07:10 -2.097E-04:11 -5.241E-06:12 1.714E-04:13 4.349E-05:14 
#C 1.5475002856E-08 20
3.300E00:1 3.300E00:2 3.300E00:3 3.300E00:4 3.300E00:5 3.229E00:6 2.304E00:7 1.179E-14:8 -2.097E-04:9 -5.675E-06:a 1.687E-04:b 
4.669E-05:c 1.261E-04:d -1.450E-07:e -1.253E-04:f -6.434E-07:10 -2.096E-04:11 -5.241E-06:12 1.713E-04:13 4.349E-05:14 
#C 1.5525003236E-08 20
3.300E00:1 3.300E00:2 3.300E00:3 3.300E00:4 3.300E00:5 3.229E00:6 2.304E00:7 1.067E-14:8 -2.096E-04:9 -5.675E-06:a 1.686E-04:b 
4.669E-05:c 1.261E-04:d -1.450E-07:e -1.253E-04:f -6.434E-07:10 -2.095E-04:11 -5.241E-06:12 1.712E-04:13 4.349E-05:14 
#C 1.5537503331E-08 20
3.300E00:1 3.300E00:2 3.300E00:3 3.300E00:4 3.300E00:5 3.229E00:6 2.304E00:7 1.041E-14:8 -2.096E-04:9 -5.675E-06:a 1.686E-04:b 
4.669E-05:c 1.261E-04:d -1.450E-07:e -1.253E-04:f -6.434E-07:10 -2.095E-04:11 -5.241E-06:12 1.712E-04:13 4.349E-05:14 
#C 1.5562503522E-08 20
3.300E00:1 3.300E00:2 3.300E00:3 3.300E00:4 3.300E00:5 3.229E00:6 2.304E00:7 9.897E-15:8 -2.095E-04:9 -5.675E-06:a 1.685E-04:b 
4.669E-05:c 1.261E-04:d -1.450E-07:e -1.253E-04:f -6.434E-07:10 -2.094E-04:11 -5.241E-06:12 1.712E-04:13 4.349E-05:14 
#C 1.5568753569E-08 20
3.300E00:1 3.300E00:2 3.300E00:3 3.300E00:4 3.300E00:5 3.229E00:6 2.304E00:7 9.775E-15:8 -2.095E-04:9 -5.675E-06:a 1.685E-04:b 
4.669E-05:c 1.261E-04:d -1.450E-07:e -1.253E-04:f -6.434E-07:10 -2.094E-04:11 -5.241E-06:12 1.712E-04:13 4.349E-05:14 
#C 1.5581253665E-08 20
3.300E00:1 3.300E00:2 3.300E00:3 3.300E00:4 3.300E00:5 3.229E00:6 2.304E00:7 9.533E-15:8 -2.095E-04:9 -5.675E-06:a 1.685E-04:b 
4.669E-05:c 1.261E-04:d -1.450E-07:e -1.253E-04:f -6.434E-07:10 -2.094E-04:11 -5.241E-06:12 1.711E-04:13 4.349E-05:14 
#C 1.5606253855E-08 20
3.300E00:1 3.300E00:2 3.300E00:3 3.300E00:4 3.300E00:5 3.229E00:6 2.304E00:7 9.068E-15:8 -2.094E-04:9 -5.675E-06:a 1.684E-04:b 
4.669E-05:c 1.210E-04:d 3.092E-07:e -1.185E-04:f -2.753E-06:10 -2.093E-04:11 -5.241E-06:12 1.711E-04:13 4.349E-05:14 
#C 1.5656254236E-08 20
3.300E00:1 3.300E00:2 3.300E00:3 3.300E00:4 3.300E00:5 3.229E00:6 2.304E00:7 8.205E-15:8 -1.492E-04:9 1.118E-05:a 2.300E-04:b 
-9.196E-05:c 1.321E-04:d -1.472E-06:e -1.235E-04:f -7.156E-06:10 -2.092E-04:11 -5.241E-06:12 1.710E-04:13 4.349E-05:14 
#C 1.5731190778E-08 20
3.300E00:1 3.300E00:2 3.300E00:3 3.300E00:4 3.300E00:5 3.229E00:6 2.304E00:7 7.063E-15:8 -1.734E-04:9 4.436E-06:a 2.055E-04:b 
-3.650E-05:c 1.284E-04:d -8.323E-07:e -1.225E-04:f -5.057E-06:10 -2.059E-04:11 -4.837E-06:12 1.724E-04:13 3.839E-05:14 
#C 1.5845429134E-08 20
3.300E00:1 3.300E00:2 3.300E00:3 3.300E00:4 3.300E00:5 3.229E00:6 2.305E00:7 5.621E-15:8 -2.346E-04:9 -1.273E-05:a 1.426E-04:b 
1.048E-04:c 1.284E-04:d -8.323E-07:e -1.225E-04:f -5.057E-06:10 -1.925E-04:11 -5.844E-07:12 1.877E-04:13 5.410E-06:14 
#C 1.6000000000E-08 20
3.300E00:1 3.300E00:2 3.300E00:3 3.300E00:4 3.300E00:5 3.229E00:6 2.305E00:7 4.126E-15:8 -2.111E-04:9 -6.268E-06:a 1.658E-04:b 
5.157E-05:c 1.283E-04:d -8.323E-07:e -1.224E-04:f -5.057E-06:10 -1.978E-04:11 -2.243E-06:12 1.815E-04:13 1.855E-05:14 
#C 1.6022847671E-08 20
3.300E00:1 3.300E00:2 3.300E00:3 3.300E00:4 3.300E00:5 3.229E00:6 2.305E00:7 3.942E-15:8 -2.110E-04:9 -6.268E-06:a 1.657E-04:b 
5.157E-05:c 1.283E-04:d -8.323E-07:e -1.224E-04:f -5.057E-06:10 -1.978E-04:11 -2.243E-06:12 1.815E-04:13 1.855E-05:14 
#C 1.6068540685E-08 20
3.300E00:1 3.300E00:2 3.300E00:3 3.300E00:4 3.300E00:5 3.229E00:6 2.305E00:7 3.598E-15:8 -1.431E-04:9 1.273E-05:a 2.351E-04:b 
-1.047E-04:c 1.283E-04:d -8.323E-07:e -1.224E-04:f -5.057E-06:10 -1.978E-04:11 -2.243E-06:12 1.815E-04:13 1.855E-05:14 
#C 1.6159926713E-08 20
3.300E00:1 3.300E00:2 3.300E00:3 3.300E00:4 3.300E00:5 3.229E00:6 2.305E00:7 2.997E-15:8 -2.035E-04:9 -4.141E-06:a 1.736E-04:b 
3.407E-05:c 1.282E-04:d -8.323E-07:e -1.223E-04:f -5.057E-06:10 -1.977E-04:11 -2.243E-06:12 1.814E-04:13 1.855E-05:14 
#C 1.6342698768E-08 20
3.300E00:1 3.300E00:2 3.300E00:3 3.300E00:4 3.300E00:5 3.229E00:6 2.306E00:7 2.079E-15:8 -1.902E-04:9 -4.328E-07:a 1.871E-04:b 
3.561E-06:c 1.281E-04:d -8.323E-07:e -1.222E-04:f -5.057E-06:10 -1.975E-04:11 -2.243E-06:12 1.812E-04:13 1.855E-05:14 
#C 1.6708242878E-08 20
3.300E00:1 3.300E00:2 3.300E00:3 3.300E00:4 3.300E00:5 3.229E00:6 2.306E00:7 1.001E-15:8 -2.104E-04:9 -6.248E-06:a 1.653E-04:b 
5.140E-05:c 1.219E-04:d 8.124E-07:e -1.276E-04:f 4.904E-06:10 -2.051E-04:11 -4.501E-06:12 1.725E-04:13 3.712E-05:14 
#C 1.7439331099E-08 20
3.300E00:1 3.300E00:2 3.300E00:3 3.300E00:4 3.300E00:5 3.229E00:6 2.308E00:7 2.316E-16:8 -2.010E-04:9 -3.922E-06:a 1.727E-04:b 
3.227E-05:c 1.249E-04:d 1.161E-07:e -1.261E-04:f 1.047E-06:10 -2.053E-04:11 -4.867E-06:12 1.699E-04:13 4.031E-05:14 
#C 1.8439385280E-08 20
3.300E00:1 3.300E00:2 3.300E00:3 3.300E00:4 3.300E00:5 3.229E00:6 2.311E00:7 3.123E-17:8 -2.035E-04:9 -5.120E-06:a 1.665E-04:b 
4.211E-05:c 1.249E-04:d 1.315E-07:e -1.260E-04:f 9.961E-07:10 -2.018E-04:11 -4.360E-06:12 1.700E-04:13 3.607E-05:14 
#C 1.9000000000E-08 20
3.300E00:1 3.300E00:2 3.300E00:3 3.300E00:4 3.300E00:5 3.229E00:6 2.313E00:7 1.041E-17:8 -2.009E-04:9 -4.682E-06:a 1.670E-04:b 
3.851E-05:c 1.250E-04:d 1.315E-07:e -1.261E-04:f 9.961E-07:10 -2.008E-04:11 -4.360E-06:12 1.691E-04:13 3.607E-05:14 
#C 1.9100000000E-08 20
3.300E00:1 3.300E00:2 3.300E00:3 3.300E00:4 3.300E00:5 3.229E00:6 2.313E00:7 8.674E-18:8 -2.007E-04:9 -4.682E-06:a 1.669E-04:b 
3.851E-05:c 1.250E-04:d 1.315E-07:e -1.261E-04:f 9.961E-07:10 -2.006E-04:11 -4.360E-06:12 1.689E-04:13 3.607E-05:14 
#C 1.9300001523E-08 20
3.300E00:1 3.300E00:2 3.300E00:3 3.300E00:4 3.300E00:5 3.229E00:6 2.314E00:7 6.072E-18:8 -2.003E-04:9 -4.682E-06:a 1.665E-04:b 
3.851E-05:c 1.250E-04:d 1.315E-07:e -1.261E-04:f 9.961E-07:10 -2.003E-04:11 -4.360E-06:12 1.686E-04:13 3.607E-05:14 
#C 1.9700004569E-08 20
3.300E00:1 3.300E00:2 3.300E00:3 3.300E00:4 3.300E00:5 3.229E00:6 2.315E00:7 0.000E00:8 -1.996E-04:9 -4.682E-06:a 1.658E-04:b 
3.851E-05:c 1.251E-04:d 1.315E-07:e -1.262E-04:f 9.961E-07:10 -1.996E-04:11 -4.361E-06:12 1.679E-04:13 3.607E-05:14 
#C 2.0000000000E-08 20
3.300E00:1 3.300E00:2 3.300E00:3 3.300E00:4 3.300E00:5 3.229E00:6 2.316E00:7 0.000E00:8 -1.991E-04:9 -4.682E-06:a 1.652E-04:b 
3.851E-05:c 1.251E-04:d 1.315E-07:e -1.262E-04:f 9.961E-07:10 -1.991E-04:11 -4.361E-06:12 1.674E-04:13 3.607E-05:14 
#C 2.0065006316E-08 20
3.300E00:1 3.300E00:2 3.300E00:3 3.300E00:4 3.300E00:5 3.229E00:6 2.316E00:7 0.000E00:8 -1.989E-04:9 -4.682E-06:a 1.651E-04:b 
3.851E-05:c 1.251E-04:d 1.315E-07:e -1.262E-04:f 9.961E-07:10 -1.990E-04:11 -4.361E-06:12 1.673E-04:13 3.607E-05:14 
#C 2.0195018947E-08 20
3.300E00:1 3.300E00:2 3.300E00:3 3.300E00:4 3.300E00:5 3.229E00:6 2.317E00:7 0.000E00:8 -1.987E-04:9 -4.682E-06:a 1.649E-04:b 
3.851E-05:c 1.251E-04:d 1.315E-07:e -1.262E-04:f 9.962E-07:10 -1.988E-04:11 -4.361E-06:12 1.671E-04:13 3.607E-05:14 
#C 2.0455044210E-08 20
3.300E00:1 3.300E00:2 3.300E00:3 3.300E00:4 3.300E00:5 3.229E00:6 2.318E00:7 0.000E00:8 -1.982E-04:9 -4.683E-06:a 1.644E-04:b 
3.851E-05:c 1.252E-04:d 1.315E-07:e -1.263E-04:f 9.962E-07:10 -1.983E-04:11 -4.361E-06:12 1.666E-04:13 3.607E-05:14 
#C 2.0975094736E-08 20
3.300E00:1 3.300E00:2 3.300E00:3 3.300E00:4 3.300E00:5 3.229E00:6 2.319E00:7 0.000E00:8 -1.906E-04:9 -2.731E-06:a 1.708E-04:b 
2.246E-05:c 1.252E-04:d 1.315E-07:e -1.264E-04:f 9.962E-07:10 -1.975E-04:11 -4.361E-06:12 1.658E-04:13 3.607E-05:14 
#C 2.1975148916E-08 20
3.300E00:1 3.300E00:2 3.300E00:3 3.300E00:4 3.300E00:5 3.229E00:6 2.322E00:7 0.000E00:8 -1.920E-04:9 -3.512E-06:a 1.666E-04:b 
2.888E-05:c 1.264E-04:d -2.064E-07:e -1.251E-04:f -1.146E-06:10 -1.958E-04:11 -4.362E-06:12 1.641E-04:13 3.607E-05:14 
#C 2.2975203097E-08 20
3.300E00:1 3.300E00:2 3.300E00:3 3.300E00:4 3.300E00:5 3.229E00:6 2.325E00:7 0.000E00:8 -1.952E-04:9 -4.877E-06:a 1.600E-04:b 
4.011E-05:c 1.260E-04:d -7.233E-08:e -1.256E-04:f -2.960E-07:10 -1.912E-04:11 -3.501E-06:12 1.658E-04:13 2.896E-05:14 
#C 2.3975257278E-08 20
3.300E00:1 3.300E00:2 3.300E00:3 3.300E00:4 3.300E00:5 3.229E00:6 2.327E00:7 0.000E00:8 -1.894E-04:9 -3.682E-06:a 1.628E-04:b 
3.027E-05:c 1.260E-04:d -7.233E-08:e -1.256E-04:f -2.960E-07:10 -1.917E-04:11 -3.992E-06:12 1.625E-04:13 3.321E-05:14 
#C 2.4975311458E-08 20
3.300E00:1 3.300E00:2 3.300E00:3 3.300E00:4 3.300E00:5 3.229E00:6 2.330E00:7 0.000E00:8 -1.888E-04:9 -3.929E-06:a 1.604E-04:b 
3.230E-05:c 1.260E-04:d -7.233E-08:e -1.256E-04:f -2.960E-07:10 -1.899E-04:11 -3.924E-06:12 1.612E-04:13 3.258E-05:14 
#C 2.5975365639E-08 20
3.300E00:1 3.300E00:2 3.300E00:3 3.300E00:4 3.300E00:5 3.229E00:6 2.333E00:7 0.000E00:8 -1.873E-04:9 -3.929E-06:a 1.589E-04:b 
3.230E-05:c 1.260E-04:d -7.233E-08:e -1.256E-04:f -2.960E-07:10 -1.875E-04:11 -3.685E-06:12 1.607E-04:13 3.050E-05:14 
#C 2.6975419819E-08 20
3.300E00:1 3.300E00:2 3.300E00:3 3.300E00:4 3.300E00:5 3.229E00:6 2.335E00:7 0.000E00:8 -1.858E-04:9 -3.930E-06:a 1.575E-04:b 
3.230E-05:c 1.260E-04:d -7.233E-08:e -1.256E-04:f -2.960E-07:10 -1.864E-04:11 -3.766E-06:12 1.590E-04:13 3.120E-05:14 
#C 2.7975474000E-08 20
3.300E00:1 3.300E00:2 3.300E00:3 3.300E00:4 3.300E00:5 3.229E00:6 2.338E00:7 0.000E00:8 -1.816E-04:9 -3.100E-06:a 1.592E-04:b 
2.548E-05:c 1.260E-04:d -7.232E-08:e -1.256E-04:f -2.960E-07:10 -1.850E-04:11 -3.766E-06:12 1.576E-04:13 3.120E-05:14 
#C 2.8975528181E-08 20
3.300E00:1 3.300E00:2 3.300E00:3 3.300E00:4 3.300E00:5 3.229E00:6 2.340E00:7 0.000E00:8 -1.813E-04:9 -3.377E-06:a 1.570E-04:b 
