#H
SOURCE='PSPICE' VERSION='PSpice 16.0.0 (July 2006)'
TITLE='**** 05/18/10 12:08:24 ******* PSpice 16.0.0 (July 2006) ****** ID# 0 ********'
SUBTITLE=''
TIME='02:17:02' DATE='06/03/10' TEMPERATURE='2.700E01'
ANALYSIS='Transient Analysis' SERIALNO='61413'
ALLVALUES='NO' COMPLEXVALUES='NO' NODES='20'
SWEEPVAR='Time' SWEEPMODE='VAR_STEP'
XBEGIN='0.000E00' XEND='5.000E-07'
FORMAT='0 VOLTSorAMPS;EFLOAT : NODEorBRANCH;NODE  '
DGTLDATA='NO' 
#N 
'V(C_F_D_LSB)' 'V(C_F_D_2SB)' 'V(C_F_D_3SB)' 'V(C_F_D_4SB)' 'V(C_F_D_5SB)' 'V(C_F_D_MSB)' 'V(C_F_C1_NDPOS)' 'I(I_INY1)' 'ID(M_C_F_C1_M12)' 
'IB(M_C_F_C1_M12)' 'IS(M_C_F_C1_M12)' 'IG(M_C_F_C1_M12)' 'ID(M_C_F_C1_M2)' 'IB(M_C_F_C1_M2)' 'IS(M_C_F_C1_M2)' 'IG(M_C_F_C1_M2)' 
'ID(M_C_F_C1_M4)' 'IB(M_C_F_C1_M4)' 'IS(M_C_F_C1_M4)' 'IG(M_C_F_C1_M4)' 
#C 0.0000000000E00 20
3.300E00:1 3.300E00:2 3.300E00:3 3.300E00:4 3.300E00:5 3.229E00:6 1.731E00:7 0.000E00:8 -8.147E-04:9 1.332E-13:a 8.147E-04:b 
0.000E00:c 1.265E-04:d -2.168E-12:e -1.265E-04:f 0.000E00:10 -1.265E-04:11 1.579E-12:12 1.265E-04:13 0.000E00:14 
#C 2.0000000000E-11 20
3.300E00:1 3.300E00:2 3.300E00:3 3.300E00:4 3.300E00:5 3.229E00:6 1.731E00:7 0.000E00:8 -8.147E-04:9 -1.591E-12:a 8.147E-04:b 
2.100E-12:c 1.265E-04:d -5.271E-12:e -1.265E-04:f -2.998E-15:10 -1.265E-04:11 5.802E-13:12 1.265E-04:13 8.237E-12:14 
#C 4.0000000000E-11 20
3.300E00:1 3.300E00:2 3.300E00:3 3.300E00:4 3.300E00:5 3.229E00:6 1.731E00:7 0.000E00:8 -8.147E-04:9 -1.591E-12:a 8.147E-04:b 
2.100E-12:c 1.265E-04:d -5.271E-12:e -1.265E-04:f -2.998E-15:10 -1.265E-04:11 5.802E-13:12 1.265E-04:13 8.237E-12:14 
#C 8.0000304580E-11 20
3.300E00:1 3.300E00:2 3.300E00:3 3.300E00:4 3.300E00:5 3.229E00:6 1.731E00:7 0.000E00:8 -8.147E-04:9 1.332E-13:a 8.147E-04:b 
0.000E00:c 1.265E-04:d -2.168E-12:e -1.265E-04:f 0.000E00:10 -1.265E-04:11 1.579E-12:12 1.265E-04:13 0.000E00:14 
#C 1.6000091374E-10 20
3.300E00:1 3.300E00:2 3.300E00:3 3.300E00:4 3.300E00:5 3.229E00:6 1.731E00:7 0.000E00:8 -8.147E-04:9 1.332E-13:a 8.147E-04:b 
0.000E00:c 1.265E-04:d -2.168E-12:e -1.265E-04:f 0.000E00:10 -1.265E-04:11 1.579E-12:12 1.265E-04:13 0.000E00:14 
#C 3.2000213206E-10 20
3.300E00:1 3.300E00:2 3.300E00:3 3.300E00:4 3.300E00:5 3.229E00:6 1.731E00:7 0.000E00:8 -8.147E-04:9 1.332E-13:a 8.147E-04:b 
0.000E00:c 1.265E-04:d -2.168E-12:e -1.265E-04:f 0.000E00:10 -1.265E-04:11 1.579E-12:12 1.265E-04:13 0.000E00:14 
#C 6.4000456870E-10 20
3.300E00:1 3.300E00:2 3.300E00:3 3.300E00:4 3.300E00:5 3.229E00:6 1.731E00:7 0.000E00:8 -8.147E-04:9 1.332E-13:a 8.147E-04:b 
0.000E00:c 1.265E-04:d -2.168E-12:e -1.265E-04:f 0.000E00:10 -1.265E-04:11 1.579E-12:12 1.265E-04:13 0.000E00:14 
#C 1.2800094420E-09 20
3.300E00:1 3.300E00:2 3.300E00:3 3.300E00:4 3.300E00:5 3.229E00:6 1.731E00:7 0.000E00:8 -8.147E-04:9 1.332E-13:a 8.147E-04:b 
0.000E00:c 1.265E-04:d -2.168E-12:e -1.265E-04:f 0.000E00:10 -1.265E-04:11 1.579E-12:12 1.265E-04:13 0.000E00:14 
#C 2.0000000010E-09 20
3.300E00:1 3.300E00:2 3.300E00:3 3.300E00:4 3.300E00:5 3.229E00:6 1.731E00:7 1.333E-10:8 -8.147E-04:9 1.332E-13:a 8.147E-04:b 
0.000E00:c 1.265E-04:d -2.168E-12:e -1.265E-04:f 0.000E00:10 -1.265E-04:11 1.579E-12:12 1.265E-04:13 0.000E00:14 
#C 2.0200000009E-09 20
3.300E00:1 3.300E00:2 3.300E00:3 3.300E00:4 3.300E00:5 3.229E00:6 1.730E00:7 1.946E-03:8 -8.031E-04:9 1.812E-03:a 9.266E-04:b 
-1.936E-03:c 1.198E-04:d 3.066E-06:e -1.229E-04:f 3.109E-09:10 -1.331E-04:11 3.999E-07:12 1.278E-04:13 4.951E-06:14 
#C 2.0600003055E-09 20
3.300E00:1 3.300E00:2 3.300E00:3 3.300E00:4 3.300E00:5 3.229E00:6 1.724E00:7 3.459E-03:8 -7.957E-04:9 3.139E-03:a 1.095E-03:b 
-3.439E-03:c 1.151E-04:d 4.672E-06:e -1.198E-04:f 1.180E-08:10 -1.383E-04:11 6.092E-07:12 1.284E-04:13 9.360E-06:14 
#C 2.1400009146E-09 20
3.300E00:1 3.300E00:2 3.300E00:3 3.300E00:4 3.300E00:5 3.229E00:6 1.713E00:7 3.962E-03:8 -7.960E-04:9 3.395E-03:a 1.338E-03:b 
-3.937E-03:c 1.150E-04:d 4.674E-06:e -1.197E-04:f 1.665E-08:10 -1.383E-04:11 6.065E-07:12 1.284E-04:13 9.353E-06:14 
#C 2.2000000010E-09 20
3.300E00:1 3.300E00:2 3.300E00:3 3.300E00:4 3.300E00:5 3.229E00:6 1.704E00:7 3.995E-03:8 -8.762E-04:9 3.233E-03:a 1.425E-03:b 
-3.781E-03:c 1.156E-04:d -2.446E-07:e -1.154E-04:f 2.841E-08:10 -1.436E-04:11 -1.146E-07:12 1.257E-04:13 1.797E-05:14 
#C 2.2160001228E-09 20
3.300E00:1 3.300E00:2 3.300E00:3 3.300E00:4 3.300E00:5 3.229E00:6 1.702E00:7 3.871E-03:8 -8.941E-04:9 3.230E-03:a 1.453E-03:b 
-3.789E-03:c 1.154E-04:d 1.232E-06:e -1.166E-04:f 2.617E-08:10 -1.420E-04:11 1.011E-07:12 1.265E-04:13 1.539E-05:14 
#C 2.2480026948E-09 20
3.300E00:1 3.300E00:2 3.300E00:3 3.300E00:4 3.300E00:5 3.229E00:6 1.698E00:7 3.633E-03:8 -7.951E-04:9 2.791E-03:a 1.615E-03:b 
-3.611E-03:c 1.184E-04:d -1.119E-07:e -1.183E-04:f 2.586E-08:10 -1.401E-04:11 -3.947E-07:12 1.248E-04:13 1.571E-05:14 
#C 2.3120078387E-09 20
3.300E00:1 3.300E00:2 3.300E00:3 3.300E00:4 3.300E00:5 3.229E00:6 1.691E00:7 3.197E-03:8 -8.006E-04:9 2.247E-03:a 1.731E-03:b 
-3.177E-03:c 1.183E-04:d -1.108E-07:e -1.182E-04:f 2.842E-08:10 -1.401E-04:11 -3.960E-07:12 1.248E-04:13 1.571E-05:14 
#C 2.4400181266E-09 20
3.300E00:1 3.300E00:2 3.300E00:3 3.300E00:4 3.300E00:5 3.229E00:6 1.679E00:7 2.475E-03:8 -8.073E-04:9 1.374E-03:a 1.900E-03:b 
-2.467E-03:c 1.197E-04:d 4.075E-06:e -1.238E-04:f 3.431E-08:10 -1.320E-04:11 3.377E-07:12 1.276E-04:13 3.978E-06:14 
#C 2.6960387024E-09 20
3.300E00:1 3.300E00:2 3.300E00:3 3.300E00:4 3.300E00:5 3.229E00:6 1.667E00:7 1.483E-03:8 -7.992E-04:9 2.280E-04:a 2.067E-03:b 
-1.496E-03:c 1.241E-04:d 2.257E-07:e -1.243E-04:f 4.513E-08:10 -1.292E-04:11 2.146E-09:12 1.265E-04:13 2.620E-06:14 
#C 3.2080798539E-09 20
3.300E00:1 3.300E00:2 3.300E00:3 3.300E00:4 3.300E00:5 3.229E00:6 1.664E00:7 5.327E-04:8 -8.179E-04:9 -5.910E-04:a 1.943E-03:b 
-5.340E-04:c 1.270E-04:d -5.987E-07:e -1.264E-04:f 3.913E-08:10 -1.257E-04:11 -1.463E-07:12 1.261E-04:13 -2.244E-07:14 
#C 4.2321621570E-09 20
3.300E00:1 3.300E00:2 3.300E00:3 3.300E00:4 3.300E00:5 3.229E00:6 1.678E00:7 6.870E-05:8 -8.073E-04:9 -5.515E-04:a 1.442E-03:b 
-8.358E-05:c 1.270E-04:d -1.078E-07:e -1.269E-04:f 2.276E-08:10 -1.251E-04:11 -3.745E-08:12 1.264E-04:13 -1.270E-06:14 
#C 6.2803267631E-09 20
3.300E00:1 3.300E00:2 3.300E00:3 3.300E00:4 3.300E00:5 3.229E00:6 1.694E00:7 1.143E-06:8 -8.152E-04:9 -1.064E-04:a 9.229E-04:b 
-1.358E-06:c 1.263E-04:d 1.060E-07:e -1.264E-04:f 2.035E-08:10 -1.261E-04:11 2.223E-08:12 1.266E-04:13 -5.327E-07:14 
#C 1.0376655975E-08 20
3.300E00:1 3.300E00:2 3.300E00:3 3.300E00:4 3.300E00:5 3.229E00:6 1.699E00:7 3.162E-10:8 -8.145E-04:9 2.826E-05:a 7.859E-04:b 
3.885E-07:c 1.262E-04:d -5.276E-08:e -1.262E-04:f 2.918E-08:10 -1.266E-04:11 1.320E-08:12 1.266E-04:13 -1.711E-08:14 
#C 1.5000000001E-08 20
3.300E00:1 3.300E00:2 3.300E00:3 3.300E00:4 3.300E00:5 3.229E00:6 1.699E00:7 3.049E-14:8 -8.140E-04:9 2.257E-05:a 7.915E-04:b 
-7.578E-08:c 1.262E-04:d -5.795E-09:e -1.262E-04:f 2.891E-08:10 -1.266E-04:11 4.212E-09:12 1.266E-04:13 4.254E-08:14 
#C 1.5100000001E-08 20
3.300E00:1 3.300E00:2 3.300E00:3 3.300E00:4 3.300E00:5 3.229E00:6 1.699E00:7 2.496E-14:8 -8.146E-04:9 2.233E-05:a 7.929E-04:b 
-5.810E-07:c 1.262E-04:d 5.437E-09:e -1.262E-04:f 2.747E-08:10 -1.265E-04:11 8.891E-09:12 1.266E-04:13 -6.746E-08:14 
#C 1.5300001524E-08 20
3.300E00:1 3.300E00:2 3.300E00:3 3.300E00:4 3.300E00:5 3.229E00:6 1.699E00:7 1.673E-14:8 -8.166E-04:9 2.233E-05:a 7.948E-04:b 
-5.875E-07:c 1.262E-04:d 5.437E-09:e -1.262E-04:f 2.747E-08:10 -1.265E-04:11 8.891E-09:12 1.266E-04:13 -6.746E-08:14 
#C 1.5350001905E-08 20
3.300E00:1 3.300E00:2 3.300E00:3 3.300E00:4 3.300E00:5 3.229E00:6 1.699E00:7 1.514E-14:8 -8.171E-04:9 2.233E-05:a 7.953E-04:b 
-5.941E-07:c 1.262E-04:d 5.437E-09:e -1.262E-04:f 2.747E-08:10 -1.265E-04:11 8.891E-09:12 1.266E-04:13 -6.746E-08:14 
#C 1.5450002666E-08 20
3.300E00:1 3.300E00:2 3.300E00:3 3.300E00:4 3.300E00:5 3.229E00:6 1.699E00:7 1.240E-14:8 -8.181E-04:9 2.233E-05:a 7.963E-04:b 
-5.984E-07:c 1.262E-04:d 5.437E-09:e -1.262E-04:f 2.747E-08:10 -1.265E-04:11 8.891E-09:12 1.266E-04:13 -6.746E-08:14 
#C 1.5475002856E-08 20
3.300E00:1 3.300E00:2 3.300E00:3 3.300E00:4 3.300E00:5 3.229E00:6 1.699E00:7 1.179E-14:8 -8.183E-04:9 2.232E-05:a 7.966E-04:b 
-5.995E-07:c 1.262E-04:d 5.437E-09:e -1.262E-04:f 2.747E-08:10 -1.265E-04:11 8.891E-09:12 1.266E-04:13 -6.746E-08:14 
#C 1.5525003237E-08 20
3.300E00:1 3.300E00:2 3.300E00:3 3.300E00:4 3.300E00:5 3.229E00:6 1.699E00:7 1.067E-14:8 -8.188E-04:9 2.232E-05:a 7.971E-04:b 
-6.017E-07:c 1.262E-04:d 5.437E-09:e -1.262E-04:f 2.747E-08:10 -1.265E-04:11 8.891E-09:12 1.266E-04:13 -6.746E-08:14 
#C 1.5537503332E-08 20
3.300E00:1 3.300E00:2 3.300E00:3 3.300E00:4 3.300E00:5 3.229E00:6 1.699E00:7 1.041E-14:8 -8.189E-04:9 2.232E-05:a 7.972E-04:b 
-6.023E-07:c 1.262E-04:d 5.437E-09:e -1.262E-04:f 2.747E-08:10 -1.265E-04:11 8.891E-09:12 1.266E-04:13 -6.746E-08:14 
#C 1.5562503523E-08 20
3.300E00:1 3.300E00:2 3.300E00:3 3.300E00:4 3.300E00:5 3.229E00:6 1.699E00:7 9.897E-15:8 -8.192E-04:9 2.232E-05:a 7.975E-04:b 
-6.034E-07:c 1.262E-04:d 5.437E-09:e -1.262E-04:f 2.747E-08:10 -1.265E-04:11 8.891E-09:12 1.266E-04:13 -6.746E-08:14 
#C 1.5568753570E-08 20
3.300E00:1 3.300E00:2 3.300E00:3 3.300E00:4 3.300E00:5 3.229E00:6 1.699E00:7 9.775E-15:8 -8.192E-04:9 2.232E-05:a 7.975E-04:b 
-6.036E-07:c 1.262E-04:d 5.437E-09:e -1.262E-04:f 2.747E-08:10 -1.265E-04:11 8.891E-09:12 1.266E-04:13 -6.746E-08:14 
#C 1.5581253665E-08 20
3.300E00:1 3.300E00:2 3.300E00:3 3.300E00:4 3.300E00:5 3.229E00:6 1.699E00:7 9.533E-15:8 -8.194E-04:9 2.232E-05:a 7.976E-04:b 
-6.042E-07:c 1.262E-04:d 5.437E-09:e -1.262E-04:f 2.747E-08:10 -1.265E-04:11 8.891E-09:12 1.266E-04:13 -6.746E-08:14 
#C 1.5606253856E-08 20
3.300E00:1 3.300E00:2 3.300E00:3 3.300E00:4 3.300E00:5 3.229E00:6 1.699E00:7 9.068E-15:8 -8.196E-04:9 2.232E-05:a 7.979E-04:b 
-6.053E-07:c 1.262E-04:d 5.437E-09:e -1.262E-04:f 2.747E-08:10 -1.265E-04:11 8.891E-09:12 1.266E-04:13 -6.746E-08:14 
#C 1.5656254236E-08 20
3.300E00:1 3.300E00:2 3.300E00:3 3.300E00:4 3.300E00:5 3.229E00:6 1.698E00:7 8.205E-15:8 -8.201E-04:9 2.232E-05:a 7.984E-04:b 
-6.074E-07:c 1.262E-04:d 5.437E-09:e -1.262E-04:f 2.747E-08:10 -1.265E-04:11 8.891E-09:12 1.266E-04:13 -6.746E-08:14 
#C 1.5731190779E-08 20
3.300E00:1 3.300E00:2 3.300E00:3 3.300E00:4 3.300E00:5 3.229E00:6 1.698E00:7 7.063E-15:8 -8.209E-04:9 2.232E-05:a 7.991E-04:b 
-6.107E-07:c 1.262E-04:d 5.437E-09:e -1.262E-04:f 2.747E-08:10 -1.265E-04:11 8.891E-09:12 1.266E-04:13 -6.746E-08:14 
#C 1.5845429134E-08 20
3.300E00:1 3.300E00:2 3.300E00:3 3.300E00:4 3.300E00:5 3.229E00:6 1.698E00:7 5.621E-15:8 -8.220E-04:9 2.232E-05:a 8.003E-04:b 
-6.157E-07:c 1.262E-04:d 5.437E-09:e -1.262E-04:f 2.747E-08:10 -1.265E-04:11 8.891E-09:12 1.266E-04:13 -6.746E-08:14 
#C 1.6000000001E-08 20
3.300E00:1 3.300E00:2 3.300E00:3 3.300E00:4 3.300E00:5 3.229E00:6 1.698E00:7 4.126E-15:8 -8.235E-04:9 2.232E-05:a 8.018E-04:b 
-6.225E-07:c 1.262E-04:d 5.437E-09:e -1.263E-04:f 2.747E-08:10 -1.265E-04:11 8.891E-09:12 1.266E-04:13 -6.746E-08:14 
#C 1.6022847672E-08 20
3.300E00:1 3.300E00:2 3.300E00:3 3.300E00:4 3.300E00:5 3.229E00:6 1.698E00:7 3.942E-15:8 -8.237E-04:9 2.232E-05:a 8.020E-04:b 
-6.230E-07:c 1.262E-04:d 5.437E-09:e -1.263E-04:f 2.747E-08:10 -1.265E-04:11 8.891E-09:12 1.266E-04:13 -6.746E-08:14 
#C 1.6068540686E-08 20
3.300E00:1 3.300E00:2 3.300E00:3 3.300E00:4 3.300E00:5 3.229E00:6 1.698E00:7 3.598E-15:8 -8.242E-04:9 2.232E-05:a 8.025E-04:b 
-6.255E-07:c 1.283E-04:d -7.640E-06:e -1.207E-04:f 1.559E-08:10 -1.265E-04:11 8.891E-09:12 1.266E-04:13 -6.746E-08:14 
#C 1.6159926714E-08 20
3.300E00:1 3.300E00:2 3.300E00:3 3.300E00:4 3.300E00:5 3.229E00:6 1.698E00:7 2.997E-15:8 -8.251E-04:9 2.231E-05:a 8.034E-04:b 
-6.294E-07:c 1.262E-04:d 1.274E-06:e -1.275E-04:f 9.403E-09:10 -1.265E-04:11 8.891E-09:12 1.266E-04:13 -6.746E-08:14 
#C 1.6342698769E-08 20
3.300E00:1 3.300E00:2 3.300E00:3 3.300E00:4 3.300E00:5 3.229E00:6 1.698E00:7 2.079E-15:8 -8.137E-04:9 -2.429E-06:a 8.150E-04:b 
1.144E-06:c 1.267E-04:d -1.068E-06:e -1.256E-04:f 1.378E-08:10 -1.269E-04:11 1.094E-07:12 1.269E-04:13 -1.494E-07:14 
#C 1.6708242879E-08 20
3.300E00:1 3.300E00:2 3.300E00:3 3.300E00:4 3.300E00:5 3.229E00:6 1.698E00:7 1.001E-15:8 -8.142E-04:9 -1.739E-06:a 8.152E-04:b 
8.031E-07:c 1.266E-04:d -1.068E-06:e -1.256E-04:f 1.378E-08:10 -1.263E-04:11 -6.768E-09:12 1.265E-04:13 -2.381E-07:14 
#C 1.7439331100E-08 20
3.300E00:1 3.300E00:2 3.300E00:3 3.300E00:4 3.300E00:5 3.229E00:6 1.698E00:7 2.316E-16:8 -8.167E-04:9 1.944E-06:a 8.141E-04:b 
6.559E-07:c 1.254E-04:d 1.817E-06:e -1.272E-04:f 2.808E-09:10 -1.265E-04:11 2.363E-08:12 1.266E-04:13 -1.895E-07:14 
#C 1.8901507543E-08 20
3.300E00:1 3.300E00:2 3.300E00:3 3.300E00:4 3.300E00:5 3.229E00:6 1.698E00:7 1.214E-17:8 -8.146E-04:9 -1.596E-06:a 8.158E-04:b 
4.108E-07:c 1.260E-04:d 6.628E-07:e -1.266E-04:f 7.197E-09:10 -1.265E-04:11 2.363E-08:12 1.267E-04:13 -1.895E-07:14 
#C 1.9000000001E-08 20
3.300E00:1 3.300E00:2 3.300E00:3 3.300E00:4 3.300E00:5 3.229E00:6 1.698E00:7 1.041E-17:8 -8.154E-04:9 -1.799E-07:a 8.151E-04:b 
5.088E-07:c 1.260E-04:d 6.628E-07:e -1.267E-04:f 7.197E-09:10 -1.265E-04:11 2.363E-08:12 1.267E-04:13 -1.895E-07:14 
#C 1.9100000001E-08 20
3.300E00:1 3.300E00:2 3.300E00:3 3.300E00:4 3.300E00:5 3.229E00:6 1.698E00:7 8.674E-18:8 -8.154E-04:9 -1.799E-07:a 8.151E-04:b 
5.088E-07:c 1.260E-04:d 6.628E-07:e -1.267E-04:f 7.198E-09:10 -1.265E-04:11 2.363E-08:12 1.267E-04:13 -1.895E-07:14 
#C 1.9276089817E-08 20
3.300E00:1 3.300E00:2 3.300E00:3 3.300E00:4 3.300E00:5 3.229E00:6 1.698E00:7 6.072E-18:8 -8.154E-04:9 -1.799E-07:a 8.151E-04:b 
5.088E-07:c 1.260E-04:d 6.629E-07:e -1.267E-04:f 7.198E-09:10 -1.265E-04:11 2.363E-08:12 1.267E-04:13 -1.895E-07:14 
#C 1.9628269448E-08 20
3.300E00:1 3.300E00:2 3.300E00:3 3.300E00:4 3.300E00:5 3.229E00:6 1.698E00:7 3.469E-18:8 -8.154E-04:9 -1.799E-07:a 8.150E-04:b 
5.088E-07:c 1.282E-04:d -4.407E-06:e -1.238E-04:f 2.655E-08:10 -1.265E-04:11 2.363E-08:12 1.267E-04:13 -1.895E-07:14 
#C 2.0000000001E-08 20
3.300E00:1 3.300E00:2 3.300E00:3 3.300E00:4 3.300E00:5 3.229E00:6 1.698E00:7 0.000E00:8 -8.153E-04:9 -1.799E-07:a 8.150E-04:b 
5.088E-07:c 1.272E-04:d -2.379E-06:e -1.248E-04:f 1.881E-08:10 -1.265E-04:11 2.363E-08:12 1.267E-04:13 -1.895E-07:14 
#C 2.0070435927E-08 20
3.300E00:1 3.300E00:2 3.300E00:3 3.300E00:4 3.300E00:5 3.229E00:6 1.698E00:7 0.000E00:8 -8.153E-04:9 -1.799E-07:a 8.150E-04:b 
5.088E-07:c 1.232E-04:d 7.132E-06:e -1.304E-04:f 2.395E-09:10 -1.265E-04:11 2.363E-08:12 1.267E-04:13 -1.895E-07:14 
#C 2.0211298467E-08 20
3.300E00:1 3.300E00:2 3.300E00:3 3.300E00:4 3.300E00:5 3.229E00:6 1.698E00:7 0.000E00:8 -8.153E-04:9 -1.799E-07:a 8.150E-04:b 
5.088E-07:c 1.271E-04:d -2.423E-06:e -1.246E-04:f 1.482E-08:10 -1.265E-04:11 2.363E-08:12 1.267E-04:13 -1.895E-07:14 
#C 2.0493023546E-08 20
3.300E00:1 3.300E00:2 3.300E00:3 3.300E00:4 3.300E00:5 3.229E00:6 1.698E00:7 0.000E00:8 -8.153E-04:9 -1.799E-07:a 8.150E-04:b 
5.088E-07:c 1.256E-04:d 1.399E-06:e -1.270E-04:f 9.852E-09:10 -1.265E-04:11 2.363E-08:12 1.267E-04:13 -1.895E-07:14 
#C 2.1056473703E-08 20
3.300E00:1 3.300E00:2 3.300E00:3 3.300E00:4 3.300E00:5 3.229E00:6 1.698E00:7 0.000E00:8 -8.152E-04:9 -1.799E-07:a 8.149E-04:b 
5.088E-07:c 1.256E-04:d 1.399E-06:e -1.270E-04:f 9.854E-09:10 -1.265E-04:11 2.363E-08:12 1.267E-04:13 -1.895E-07:14 
#C 2.2183374018E-08 20
3.300E00:1 3.300E00:2 3.300E00:3 3.300E00:4 3.300E00:5 3.229E00:6 1.698E00:7 0.000E00:8 -8.151E-04:9 -1.799E-07:a 8.148E-04:b 
5.088E-07:c 1.273E-04:d -2.219E-06:e -1.251E-04:f 3.413E-08:10 -1.265E-04:11 2.363E-08:12 1.267E-04:13 -1.895E-07:14 
#C 2.4437174649E-08 20
3.300E00:1 3.300E00:2 3.300E00:3 3.300E00:4 3.300E00:5 3.229E00:6 1.698E00:7 0.000E00:8 -8.150E-04:9 -1.799E-07:a 8.146E-04:b 
5.088E-07:c 1.260E-04:d 5.815E-07:e -1.266E-04:f 3.903E-08:10 -1.265E-04:11 2.363E-08:12 1.267E-04:13 -1.895E-07:14 
#C 2.8944775910E-08 20
3.300E00:1 3.300E00:2 3.300E00:3 3.300E00:4 3.300E00:5 3.229E00:6 1.698E00:7 0.000E00:8 -8.146E-04:9 -1.799E-07:a 8.143E-04:b 
5.088E-07:c 1.263E-04:d 4.021E-08:e -1.263E-04:f 3.319E-08:10 -1.266E-04:11 2.363E-08:12 1.267E-04:13 -1.895E-07:14 
#C 3.5000000001E-08 20
3.300E00:1 3.300E00:2 3.300E00:3 3.300E00:4 3.300E00:5 3.229E00:6 1.698E00:7 0.000E00:8 -8.141E-04:9 -1.799E-07:a 8.138E-04:b 
5.088E-07:c 1.263E-04:d 4.022E-08:e -1.264E-04:f 3.319E-08:10 -1.267E-04:11 -1.820E-08:12 1.266E-04:13 1.261E-07:14 
#C 3.5100000001E-08 20
3.300E00:1 3.300E00:2 3.300E00:3 3.300E00:4 3.300E00:5 3.229E00:6 1.698E00:7 0.000E00:8 -8.141E-04:9 -1.799E-07:a 8.138E-04:b 
5.088E-07:c 1.263E-04:d 4.022E-08:e -1.264E-04:f 3.319E-08:10 -1.266E-04:11 -2.960E-09:12 1.266E-04:13 1.109E-08:14 
#C 3.5300001524E-08 20
3.300E00:1 3.300E00:2 3.300E00:3 3.300E00:4 3.300E00:5 3.229E00:6 1.698E00:7 0.000E00:8 -8.141E-04:9 -1.799E-07:a 8.137E-04:b 
5.088E-07:c 1.263E-04:d 4.022E-08:e -1.264E-04:f 3.319E-08:10 -1.266E-04:11 -2.960E-09:12 1.266E-04:13 1.109E-08:14 
#C 3.5350001905E-08 20
3.300E00:1 3.300E00:2 3.300E00:3 3.300E00:4 3.300E00:5 3.229E00:6 1.698E00:7 0.000E00:8 -8.141E-04:9 -1.799E-07:a 8.137E-04:b 
5.088E-07:c 1.263E-04:d 4.022E-08:e -1.264E-04:f 3.319E-08:10 -1.266E-04:11 -2.960E-09:12 1.266E-04:13 1.109E-08:14 
#C 3.5450002666E-08 20
3.300E00:1 3.300E00:2 3.300E00:3 3.300E00:4 3.300E00:5 3.229E00:6 1.698E00:7 0.000E00:8 -8.141E-04:9 -1.799E-07:a 8.137E-04:b 
5.088E-07:c 1.263E-04:d 4.022E-08:e -1.264E-04:f 3.319E-08:10 -1.266E-04:11 -2.960E-09:12 1.266E-04:13 1.109E-08:14 
#C 3.5475002856E-08 20
3.300E00:1 3.300E00:2 3.300E00:3 3.300E00:4 3.300E00:5 3.229E00:6 1.698E00:7 0.000E00:8 -8.141E-04:9 -1.799E-07:a 8.137E-04:b 
5.088E-07:c 1.263E-04:d 4.022E-08:e -1.264E-04:f 3.319E-08:10 -1.266E-04:11 -2.960E-09:12 1.266E-04:13 1.109E-08:14 
#C 3.5525003237E-08 20
3.300E00:1 3.300E00:2 3.300E00:3 3.300E00:4 3.300E00:5 3.229E00:6 1.698E00:7 0.000E00:8 -8.140E-04:9 -1.799E-07:a 8.137E-04:b 
5.088E-07:c 1.263E-04:d 4.022E-08:e -1.264E-04:f 3.319E-08:10 -1.266E-04:11 -2.960E-09:12 1.266E-04:13 1.109E-08:14 
#C 3.5625003999E-08 20
3.300E00:1 3.300E00:2 3.300E00:3 3.300E00:4 3.300E00:5 3.229E00:6 1.698E00:7 0.000E00:8 -8.140E-04:9 -1.799E-07:a 8.137E-04:b 
5.088E-07:c 1.263E-04:d 4.022E-08:e -1.264E-04:f 3.319E-08:10 -1.266E-04:11 -2.960E-09:12 1.266E-04:13 1.109E-08:14 
#C 3.5650004189E-08 20
3.300E00:1 3.300E00:2 3.300E00:3 3.300E00:4 3.300E00:5 3.229E00:6 1.698E00:7 0.000E00:8 -8.140E-04:9 -1.799E-07:a 8.137E-04:b 
5.088E-07:c 1.263E-04:d 4.022E-08:e -1.264E-04:f 3.319E-08:10 -1.266E-04:11 -2.960E-09:12 1.266E-04:13 1.109E-08:14 
#C 3.5700004570E-08 20
3.300E00:1 3.300E00:2 3.300E00:3 3.300E00:4 3.300E00:5 3.229E00:6 1.698E00:7 0.000E00:8 -8.140E-04:9 -1.799E-07:a 8.137E-04:b 
5.088E-07:c 1.263E-04:d 4.022E-08:e -1.264E-04:f 3.319E-08:10 -1.266E-04:11 -2.960E-09:12 1.266E-04:13 1.109E-08:14 
#C 3.5800005331E-08 20
3.300E00:1 3.300E00:2 3.300E00:3 3.300E00:4 3.300E00:5 3.229E00:6 1.698E00:7 0.000E00:8 -8.140E-04:9 -1.799E-07:a 8.137E-04:b 
5.088E-07:c 1.263E-04:d 4.022E-08:e -1.264E-04:f 3.319E-08:10 -1.266E-04:11 -2.960E-09:12 1.266E-04:13 1.109E-08:14 
#C 3.6000000001E-08 20
3.300E00:1 3.300E00:2 3.300E00:3 3.300E00:4 3.300E00:5 3.229E00:6 1.698E00:7 0.000E00:8 -8.140E-04:9 -1.799E-07:a 8.137E-04:b 
5.088E-07:c 1.263E-04:d 4.022E-08:e -1.264E-04:f 3.319E-08:10 -1.266E-04:11 -2.960E-09:12 1.266E-04:13 1.109E-08:14 
#C 3.6020000153E-08 20
3.300E00:1 3.300E00:2 3.300E00:3 3.300E00:4 3.300E00:5 3.229E00:6 1.698E00:7 0.000E00:8 -8.140E-04:9 -1.799E-07:a 8.137E-04:b 
5.088E-07:c 1.263E-04:d 4.022E-08:e -1.264E-04:f 3.319E-08:10 -1.266E-04:11 -2.960E-09:12 1.266E-04:13 1.109E-08:14 
#C 3.6060000458E-08 20
3.300E00:1 3.300E00:2 3.300E00:3 3.300E00:4 3.300E00:5 3.229E00:6 1.698E00:7 0.000E00:8 -8.140E-04:9 -1.799E-07:a 8.137E-04:b 
5.088E-07:c 1.263E-04:d 4.022E-08:e -1.264E-04:f 3.319E-08:10 -1.266E-04:11 -2.960E-09:12 1.266E-04:13 1.109E-08:14 
