#H
SOURCE='PSPICE' VERSION='PSpice 16.0.0 (July 2006)'
TITLE='**** 05/18/10 12:08:24 ******* PSpice 16.0.0 (July 2006) ****** ID# 0 ********'
SUBTITLE=''
TIME='16:03:07' DATE='05/30/10' TEMPERATURE='2.700E01'
ANALYSIS='Transient Analysis' SERIALNO='61413'
ALLVALUES='NO' COMPLEXVALUES='NO' NODES='19'
SWEEPVAR='Time' SWEEPMODE='VAR_STEP'
XBEGIN='0.000E00' XEND='5.000E-08'
FORMAT='0 VOLTSorAMPS;EFLOAT : NODEorBRANCH;NODE  '
DGTLDATA='NO' 
#N 
'V(C_F_D_LSB)' 'V(C_F_D_2SB)' 'V(C_F_D_3SB)' 'V(C_F_D_4SB)' 'V(C_F_D_5SB)' 'V(C_F_D_MSB)' 'V(C_F_C62_NDPOS)' 'ID(M_C_F_C62_M2)' 
'IB(M_C_F_C62_M2)' 'IS(M_C_F_C62_M2)' 'IG(M_C_F_C62_M2)' 'ID(M_C_F_C62_M12)' 'IB(M_C_F_C62_M12)' 'IS(M_C_F_C62_M12)' 'IG(M_C_F_C62_M12)' 
'ID(M_C_F_C62_M4)' 'IB(M_C_F_C62_M4)' 'IS(M_C_F_C62_M4)' 'IG(M_C_F_C62_M4)' 
#C 0.0000000000E00 19
3.300E00:1 3.300E00:2 3.300E00:3 3.300E00:4 3.300E00:5 3.229E00:6 3.988E00:7 2.806E-04:8 -4.882E-12:9 -2.806E-04:a 0.000E00:b 
-3.310E-12:c 3.310E-12:d 1.654E-19:e 0.000E00:f 3.719E-03:10 -3.580E-03:11 -1.399E-04:12 0.000E00:13 
#C 1.0000000000E-11 19
3.300E00:1 3.300E00:2 3.300E00:3 3.300E00:4 3.300E00:5 3.229E00:6 3.988E00:7 2.806E-04:8 -4.861E-12:9 -2.806E-04:a 2.220E-16:b 
-3.310E-12:c 3.292E-12:d -2.759E-17:e 1.776E-14:f 3.719E-03:10 -3.580E-03:11 -1.399E-04:12 -1.110E-15:13 
#C 2.0000000000E-11 19
3.300E00:1 3.300E00:2 3.300E00:3 3.300E00:4 3.300E00:5 3.229E00:6 3.988E00:7 2.806E-04:8 -4.861E-12:9 -2.806E-04:a 2.220E-16:b 
-3.310E-12:c 3.292E-12:d -2.759E-17:e 1.776E-14:f 3.719E-03:10 -3.580E-03:11 -1.399E-04:12 -1.110E-15:13 
#C 4.0000152290E-11 19
3.300E00:1 3.300E00:2 3.300E00:3 3.300E00:4 3.300E00:5 3.229E00:6 3.988E00:7 2.806E-04:8 -4.882E-12:9 -2.806E-04:a 0.000E00:b 
-3.310E-12:c 3.310E-12:d 1.654E-19:e 0.000E00:f 3.719E-03:10 -3.580E-03:11 -1.399E-04:12 0.000E00:13 
#C 8.0000456870E-11 19
3.300E00:1 3.300E00:2 3.300E00:3 3.300E00:4 3.300E00:5 3.229E00:6 3.988E00:7 2.806E-04:8 -4.882E-12:9 -2.806E-04:a 0.000E00:b 
-3.310E-12:c 3.310E-12:d 1.654E-19:e 0.000E00:f 3.719E-03:10 -3.580E-03:11 -1.399E-04:12 0.000E00:13 
#C 1.6000106603E-10 19
3.300E00:1 3.300E00:2 3.300E00:3 3.300E00:4 3.300E00:5 3.229E00:6 3.988E00:7 2.806E-04:8 -4.882E-12:9 -2.806E-04:a 0.000E00:b 
-3.310E-12:c 3.310E-12:d 1.654E-19:e 0.000E00:f 3.719E-03:10 -3.580E-03:11 -1.399E-04:12 0.000E00:13 
#C 3.2000228435E-10 19
3.300E00:1 3.300E00:2 3.300E00:3 3.300E00:4 3.300E00:5 3.229E00:6 3.988E00:7 2.806E-04:8 -4.882E-12:9 -2.806E-04:a 0.000E00:b 
-3.310E-12:c 3.310E-12:d 1.654E-19:e 0.000E00:f 3.719E-03:10 -3.580E-03:11 -1.399E-04:12 0.000E00:13 
#C 6.4000472099E-10 19
3.300E00:1 3.300E00:2 3.300E00:3 3.300E00:4 3.300E00:5 3.229E00:6 3.988E00:7 2.806E-04:8 -4.882E-12:9 -2.806E-04:a 0.000E00:b 
-3.310E-12:c 3.310E-12:d 1.654E-19:e 0.000E00:f 3.719E-03:10 -3.580E-03:11 -1.399E-04:12 0.000E00:13 
#C 1.2800095943E-09 19
3.300E00:1 3.300E00:2 3.300E00:3 3.300E00:4 3.300E00:5 3.229E00:6 3.988E00:7 2.806E-04:8 -4.882E-12:9 -2.806E-04:a 0.000E00:b 
-3.310E-12:c 3.310E-12:d 1.654E-19:e 0.000E00:f 3.719E-03:10 -3.580E-03:11 -1.399E-04:12 0.000E00:13 
#C 2.0000000001E-09 19
3.300E00:1 3.300E00:2 3.300E00:3 3.300E00:4 3.300E00:5 3.229E00:6 3.988E00:7 2.806E-04:8 -4.882E-12:9 -2.806E-04:a 0.000E00:b 
-3.310E-12:c 3.310E-12:d 1.654E-19:e 0.000E00:f 3.719E-03:10 -3.580E-03:11 -1.399E-04:12 0.000E00:13 
#C 2.0200000001E-09 19
3.300E00:1 3.300E00:2 3.300E00:3 3.300E00:4 3.300E00:5 3.229E00:6 3.987E00:7 2.806E-04:8 -4.882E-12:9 -2.806E-04:a 0.000E00:b 
2.122E-05:c 1.690E-03:d 2.248E-05:e -1.734E-03:f 3.515E-03:10 -3.417E-03:11 -2.308E-04:12 1.333E-04:13 
#C 2.0600003047E-09 19
3.300E00:1 3.300E00:2 3.300E00:3 3.300E00:4 3.300E00:5 3.229E00:6 3.985E00:7 2.699E-04:8 1.026E-05:9 -2.802E-04:a 1.868E-08:b 
3.406E-05:c 2.770E-03:d 3.691E-05:e -2.841E-03:f 3.116E-03:10 -3.047E-03:11 -2.893E-04:12 2.201E-04:13 
#C 2.1400009138E-09 19
3.300E00:1 3.300E00:2 3.300E00:3 3.300E00:4 3.300E00:5 3.229E00:6 3.979E00:7 2.699E-04:8 1.026E-05:9 -2.802E-04:a 1.915E-08:b 
3.406E-05:c 2.745E-03:d 3.691E-05:e -2.816E-03:f 2.543E-03:10 -2.472E-03:11 -2.853E-04:12 2.141E-04:13 
#C 2.2000000001E-09 19
3.300E00:1 3.300E00:2 3.300E00:3 3.300E00:4 3.300E00:5 3.229E00:6 3.976E00:7 2.824E-04:8 -1.731E-06:9 -2.807E-04:a 6.750E-08:b 
3.406E-05:c 2.741E-03:d 3.691E-05:e -2.812E-03:f 2.210E-03:10 -2.131E-03:11 -2.706E-04:12 1.914E-04:13 
#C 2.2160001219E-09 19
3.300E00:1 3.300E00:2 3.300E00:3 3.300E00:4 3.300E00:5 3.229E00:6 3.975E00:7 2.761E-04:8 4.263E-06:9 -2.804E-04:a 4.335E-08:b 
3.406E-05:c 2.735E-03:d 3.691E-05:e -2.806E-03:f 2.106E-03:10 -2.031E-03:11 -2.839E-04:12 2.091E-04:13 
#C 2.2480026939E-09 19
3.300E00:1 3.300E00:2 3.300E00:3 3.300E00:4 3.300E00:5 3.229E00:6 3.973E00:7 2.761E-04:8 4.263E-06:9 -2.804E-04:a 4.337E-08:b 
3.406E-05:c 2.731E-03:d 3.691E-05:e -2.801E-03:f 2.006E-03:10 -1.923E-03:11 -2.536E-04:12 1.702E-04:13 
#C 2.3120078378E-09 19
3.300E00:1 3.300E00:2 3.300E00:3 3.300E00:4 3.300E00:5 3.229E00:6 3.969E00:7 2.761E-04:8 4.263E-06:9 -2.804E-04:a 4.342E-08:b 
1.790E-05:c 1.176E-03:d 1.602E-05:e -1.210E-03:f 1.746E-03:10 -1.667E-03:11 -2.627E-04:12 1.841E-04:13 
#C 2.4400181257E-09 19
3.300E00:1 3.300E00:2 3.300E00:3 3.300E00:4 3.300E00:5 3.229E00:6 3.966E00:7 2.761E-04:8 4.263E-06:9 -2.804E-04:a 4.350E-08:b 
4.526E-06:c 4.023E-04:d 5.524E-06:e -4.123E-04:f 1.678E-03:10 -1.546E-03:11 -1.424E-04:12 1.079E-05:13 
#C 2.6960387015E-09 19
3.300E00:1 3.300E00:2 3.300E00:3 3.300E00:4 3.300E00:5 3.229E00:6 3.966E00:7 2.826E-04:8 -2.008E-06:9 -2.807E-04:a 1.195E-07:b 
-6.766E-06:c -5.560E-04:d -7.559E-06:e 5.703E-04:f 1.693E-03:10 -1.545E-03:11 -1.052E-04:12 -4.263E-05:13 
#C 3.2080798530E-09 19
3.300E00:1 3.300E00:2 3.300E00:3 3.300E00:4 3.300E00:5 3.229E00:6 3.975E00:7 2.829E-04:8 -2.340E-06:9 -2.806E-04:a 6.862E-08:b 
-1.148E-05:c -9.201E-04:d -1.245E-05:e 9.440E-04:f 2.328E-03:10 -2.169E-03:11 -8.874E-05:12 -6.998E-05:13 
#C 4.2081340336E-09 19
3.300E00:1 3.300E00:2 3.300E00:3 3.300E00:4 3.300E00:5 3.229E00:6 3.986E00:7 2.813E-04:8 -7.456E-07:9 -2.806E-04:a 8.591E-09:b 
-3.364E-06:c -2.617E-04:d -3.433E-06:e 2.685E-04:f 3.413E-03:10 -3.266E-03:11 -1.241E-04:12 -2.237E-05:13 
#C 5.2081882143E-09 19
3.300E00:1 3.300E00:2 3.300E00:3 3.300E00:4 3.300E00:5 3.229E00:6 3.989E00:7 2.805E-04:8 4.135E-08:9 -2.806E-04:a -1.009E-08:b 
8.172E-07:c 7.098E-05:d 9.672E-07:e -7.277E-05:f 3.784E-03:10 -3.646E-03:11 -1.424E-04:12 3.474E-06:13 
#C 6.2082423949E-09 19
3.300E00:1 3.300E00:2 3.300E00:3 3.300E00:4 3.300E00:5 3.229E00:6 3.989E00:7 2.803E-04:8 3.158E-07:9 -2.806E-04:a -6.821E-09:b 
5.666E-07:c 4.790E-05:d 6.372E-07:e -4.910E-05:f 3.775E-03:10 -3.637E-03:11 -1.435E-04:12 5.233E-06:13 
#C 7.2082965755E-09 19
3.300E00:1 3.300E00:2 3.300E00:3 3.300E00:4 3.300E00:5 3.229E00:6 3.988E00:7 2.803E-04:8 3.158E-07:9 -2.806E-04:a -6.821E-09:b 
5.666E-07:c 4.790E-05:d 6.372E-07:e -4.910E-05:f 3.778E-03:10 -3.637E-03:11 -1.367E-04:12 -4.636E-06:13 
#C 8.2083507561E-09 19
3.300E00:1 3.300E00:2 3.300E00:3 3.300E00:4 3.300E00:5 3.229E00:6 3.988E00:7 2.809E-04:8 -3.158E-07:9 -2.806E-04:a 6.821E-09:b 
-5.666E-07:c -4.790E-05:d -6.372E-07:e 4.910E-05:f 3.716E-03:10 -3.578E-03:11 -1.449E-04:12 7.207E-06:13 
#C 9.2084049367E-09 19
3.300E00:1 3.300E00:2 3.300E00:3 3.300E00:4 3.300E00:5 3.229E00:6 3.988E00:7 2.806E-04:8 -4.882E-12:9 -2.806E-04:a 5.204E-18:b 
-3.310E-12:c 3.310E-12:d 2.114E-18:e -1.735E-18:f 3.744E-03:10 -3.604E-03:11 -1.390E-04:12 -1.357E-06:13 
#C 1.0208459117E-08 19
3.300E00:1 3.300E00:2 3.300E00:3 3.300E00:4 3.300E00:5 3.229E00:6 3.988E00:7 2.806E-04:8 -4.882E-12:9 -2.806E-04:a 5.204E-18:b 
-3.310E-12:c 3.310E-12:d 2.114E-18:e -1.735E-18:f 3.743E-03:10 -3.603E-03:11 -1.401E-04:12 2.806E-07:13 
#C 1.1208513298E-08 19
3.300E00:1 3.300E00:2 3.300E00:3 3.300E00:4 3.300E00:5 3.229E00:6 3.988E00:7 2.806E-04:8 -4.882E-12:9 -2.806E-04:a 5.204E-18:b 
-3.310E-12:c 3.310E-12:d 2.114E-18:e -1.735E-18:f 3.743E-03:10 -3.603E-03:11 -1.401E-04:12 2.806E-07:13 
#C 1.2208567479E-08 19
3.300E00:1 3.300E00:2 3.300E00:3 3.300E00:4 3.300E00:5 3.229E00:6 3.988E00:7 2.806E-04:8 -4.882E-12:9 -2.806E-04:a 5.204E-18:b 
-3.310E-12:c 3.310E-12:d 2.114E-18:e -1.735E-18:f 3.743E-03:10 -3.603E-03:11 -1.401E-04:12 2.806E-07:13 
#C 1.3208621659E-08 19
3.300E00:1 3.300E00:2 3.300E00:3 3.300E00:4 3.300E00:5 3.229E00:6 3.988E00:7 2.806E-04:8 -4.882E-12:9 -2.806E-04:a 5.204E-18:b 
-3.310E-12:c 3.310E-12:d 2.114E-18:e -1.735E-18:f 3.743E-03:10 -3.603E-03:11 -1.401E-04:12 2.806E-07:13 
#C 1.4208675840E-08 19
3.300E00:1 3.300E00:2 3.300E00:3 3.300E00:4 3.300E00:5 3.229E00:6 3.988E00:7 2.806E-04:8 -4.882E-12:9 -2.806E-04:a 5.204E-18:b 
-3.310E-12:c 3.310E-12:d 2.114E-18:e -1.735E-18:f 3.743E-03:10 -3.603E-03:11 -1.401E-04:12 2.806E-07:13 
#C 1.5000000000E-08 19
3.300E00:1 3.300E00:2 3.300E00:3 3.300E00:4 3.300E00:5 3.229E00:6 3.988E00:7 2.806E-04:8 -4.882E-12:9 -2.806E-04:a -6.939E-18:b 
-3.310E-12:c 3.310E-12:d 2.114E-18:e 2.602E-18:f 3.743E-03:10 -3.604E-03:11 -1.399E-04:12 1.735E-18:13 
#C 1.5100000000E-08 19
3.300E00:1 3.300E00:2 3.300E00:3 3.300E00:4 3.300E00:5 3.229E00:6 3.988E00:7 2.806E-04:8 -4.882E-12:9 -2.806E-04:a 0.000E00:b 
-3.310E-12:c 3.310E-12:d 1.626E-19:e 0.000E00:f 3.780E-03:10 -3.638E-03:11 -1.350E-04:12 -7.238E-06:13 
#C 1.5300001523E-08 19
3.300E00:1 3.300E00:2 3.300E00:3 3.300E00:4 3.300E00:5 3.229E00:6 3.988E00:7 2.806E-04:8 -4.882E-12:9 -2.806E-04:a 0.000E00:b 
-3.310E-12:c 3.310E-12:d 1.626E-19:e 0.000E00:f 3.765E-03:10 -3.625E-03:11 -1.407E-04:12 1.136E-06:13 
#C 1.5350001904E-08 19
3.300E00:1 3.300E00:2 3.300E00:3 3.300E00:4 3.300E00:5 3.229E00:6 3.989E00:7 2.806E-04:8 -4.882E-12:9 -2.806E-04:a 0.000E00:b 
-3.310E-12:c 3.310E-12:d 1.626E-19:e 0.000E00:f 3.803E-03:10 -3.657E-03:11 -1.251E-04:12 -2.157E-05:13 
#C 1.5450002665E-08 19
3.300E00:1 3.300E00:2 3.300E00:3 3.300E00:4 3.300E00:5 3.229E00:6 3.989E00:7 2.806E-04:8 -4.882E-12:9 -2.806E-04:a 5.551E-17:b 
-3.310E-12:c 3.310E-12:d 5.567E-17:e -2.776E-17:f 3.777E-03:10 -3.640E-03:11 -1.459E-04:12 8.577E-06:13 
#C 1.5475002856E-08 19
3.300E00:1 3.300E00:2 3.300E00:3 3.300E00:4 3.300E00:5 3.229E00:6 3.989E00:7 2.806E-04:8 -4.882E-12:9 -2.806E-04:a 2.776E-17:b 
-3.310E-12:c 3.310E-12:d 1.095E-16:e -3.816E-17:f 3.795E-03:10 -3.653E-03:11 -1.352E-04:12 -7.012E-06:13 
#C 1.5525003236E-08 19
3.300E00:1 3.300E00:2 3.300E00:3 3.300E00:4 3.300E00:5 3.229E00:6 3.989E00:7 2.806E-04:8 -4.883E-12:9 -2.806E-04:a 0.000E00:b 
-3.310E-12:c 3.310E-12:d 5.567E-17:e -1.110E-16:f 3.788E-03:10 -3.645E-03:11 -1.403E-04:12 -2.294E-06:13 
#C 1.5537503331E-08 19
3.300E00:1 3.300E00:2 3.300E00:3 3.300E00:4 3.300E00:5 3.229E00:6 3.989E00:7 2.806E-04:8 -4.883E-12:9 -2.806E-04:a 1.388E-17:b 
-3.310E-12:c 3.310E-12:d -8.831E-17:e 1.596E-16:f 3.801E-03:10 -3.655E-03:11 -1.310E-04:12 -1.564E-05:13 
#C 1.5562503522E-08 19
3.300E00:1 3.300E00:2 3.300E00:3 3.300E00:4 3.300E00:5 3.229E00:6 3.989E00:7 2.806E-04:8 -4.882E-12:9 -2.806E-04:a -2.220E-16:b 
-3.310E-12:c 3.310E-12:d 3.471E-16:e -1.110E-16:f 3.792E-03:10 -3.647E-03:11 -1.393E-04:12 -5.252E-06:13 
#C 1.5568753569E-08 19
3.300E00:1 3.300E00:2 3.300E00:3 3.300E00:4 3.300E00:5 3.229E00:6 3.989E00:7 2.806E-04:8 -4.882E-12:9 -2.806E-04:a 1.943E-16:b 
-3.310E-12:c 3.310E-12:d -2.392E-16:e 2.776E-16:f 3.795E-03:10 -3.650E-03:11 -1.365E-04:12 -8.607E-06:13 
#C 1.5581253665E-08 19
3.300E00:1 3.300E00:2 3.300E00:3 3.300E00:4 3.300E00:5 3.229E00:6 3.989E00:7 2.806E-04:8 -4.882E-12:9 -2.806E-04:a 0.000E00:b 
-3.310E-12:c 3.309E-12:d 2.222E-16:e 4.441E-16:f 3.794E-03:10 -3.649E-03:11 -1.365E-04:12 -8.607E-06:13 
#C 1.5606253855E-08 19
3.300E00:1 3.300E00:2 3.300E00:3 3.300E00:4 3.300E00:5 3.229E00:6 3.989E00:7 2.806E-04:8 -4.882E-12:9 -2.806E-04:a -2.220E-16:b 
-3.310E-12:c 3.310E-12:d -1.372E-17:e 1.110E-16:f 3.794E-03:10 -3.648E-03:11 -1.365E-04:12 -8.607E-06:13 
#C 1.5656254236E-08 19
3.300E00:1 3.300E00:2 3.300E00:3 3.300E00:4 3.300E00:5 3.229E00:6 3.989E00:7 2.806E-04:8 -4.883E-12:9 -2.806E-04:a 0.000E00:b 
-3.310E-12:c 3.310E-12:d 6.955E-17:e -5.551E-17:f 3.792E-03:10 -3.647E-03:11 -1.365E-04:12 -8.607E-06:13 
#C 1.5731854346E-08 19
3.300E00:1 3.300E00:2 3.300E00:3 3.300E00:4 3.300E00:5 3.229E00:6 3.989E00:7 2.806E-04:8 -4.882E-12:9 -2.806E-04:a 5.551E-17:b 
-3.310E-12:c 3.310E-12:d -4.841E-17:e 0.000E00:f 3.790E-03:10 -3.645E-03:11 -1.365E-04:12 -8.607E-06:13 
#C 1.5843461715E-08 19
3.300E00:1 3.300E00:2 3.300E00:3 3.300E00:4 3.300E00:5 3.229E00:6 3.989E00:7 2.806E-04:8 -4.882E-12:9 -2.806E-04:a 0.000E00:b 
-3.310E-12:c 3.310E-12:d 5.220E-17:e 0.000E00:f 3.778E-03:10 -3.642E-03:11 -1.435E-04:12 7.209E-06:13 
#C 1.6000000000E-08 19
3.300E00:1 3.300E00:2 3.300E00:3 3.300E00:4 3.300E00:5 3.229E00:6 3.988E00:7 2.806E-04:8 -4.882E-12:9 -2.806E-04:a 0.000E00:b 
-3.310E-12:c 3.310E-12:d 2.618E-17:e 1.388E-17:f 3.774E-03:10 -3.635E-03:11 -1.409E-04:12 1.301E-06:13 
#C 1.6022321474E-08 19
3.300E00:1 3.300E00:2 3.300E00:3 3.300E00:4 3.300E00:5 3.229E00:6 3.989E00:7 2.806E-04:8 -4.882E-12:9 -2.806E-04:a 0.000E00:b 
-3.310E-12:c 3.310E-12:d 1.626E-19:e 0.000E00:f 3.800E-03:10 -3.655E-03:11 -1.299E-04:12 -1.474E-05:13 
#C 1.6066966750E-08 19
3.300E00:1 3.300E00:2 3.300E00:3 3.300E00:4 3.300E00:5 3.229E00:6 3.989E00:7 2.806E-04:8 -4.882E-12:9 -2.806E-04:a 0.000E00:b 
-3.310E-12:c 3.310E-12:d 1.626E-19:e 0.000E00:f 3.784E-03:10 -3.645E-03:11 -1.415E-04:12 2.225E-06:13 
#C 1.6156257302E-08 19
3.300E00:1 3.300E00:2 3.300E00:3 3.300E00:4 3.300E00:5 3.229E00:6 3.989E00:7 2.806E-04:8 -4.882E-12:9 -2.806E-04:a 0.000E00:b 
-3.310E-12:c 3.310E-12:d 4.180E-17:e -2.776E-17:f 3.784E-03:10 -3.644E-03:11 -1.399E-04:12 -7.837E-08:13 
#C 1.6334838405E-08 19
3.300E00:1 3.300E00:2 3.300E00:3 3.300E00:4 3.300E00:5 3.229E00:6 3.988E00:7 2.806E-04:8 -4.882E-12:9 -2.806E-04:a 0.000E00:b 
-3.310E-12:c 3.310E-12:d 2.098E-17:e -1.388E-17:f 3.775E-03:10 -3.635E-03:11 -1.405E-04:12 1.841E-07:13 
#C 1.6692000613E-08 19
3.300E00:1 3.300E00:2 3.300E00:3 3.300E00:4 3.300E00:5 3.229E00:6 3.988E00:7 2.806E-04:8 -4.883E-12:9 -2.806E-04:a 1.388E-17:b 
-3.310E-12:c 3.310E-12:d -1.892E-17:e -6.939E-18:f 3.764E-03:10 -3.624E-03:11 -1.401E-04:12 -1.660E-07:13 
#C 1.7406325027E-08 19
3.300E00:1 3.300E00:2 3.300E00:3 3.300E00:4 3.300E00:5 3.229E00:6 3.988E00:7 2.806E-04:8 -4.882E-12:9 -2.806E-04:a 6.939E-18:b 
-3.310E-12:c 3.310E-12:d -3.307E-18:e -3.469E-18:f 3.751E-03:10 -3.611E-03:11 -1.403E-04:12 5.444E-07:13 
#C 1.8406379208E-08 19
3.300E00:1 3.300E00:2 3.300E00:3 3.300E00:4 3.300E00:5 3.229E00:6 3.988E00:7 2.806E-04:8 -4.882E-12:9 -2.806E-04:a -3.469E-18:b 
-3.310E-12:c 3.310E-12:d -4.879E-19:e 3.469E-18:f 3.744E-03:10 -3.604E-03:11 -1.400E-04:12 5.454E-08:13 
#C 1.9000000000E-08 19
3.300E00:1 3.300E00:2 3.300E00:3 3.300E00:4 3.300E00:5 3.229E00:6 3.988E00:7 2.806E-04:8 -4.882E-12:9 -2.806E-04:a 0.000E00:b 
-3.310E-12:c 3.310E-12:d 5.042E-18:e 1.735E-18:f 3.751E-03:10 -3.611E-03:11 -1.398E-04:12 -3.177E-07:13 
#C 1.9100000000E-08 19
3.300E00:1 3.300E00:2 3.300E00:3 3.300E00:4 3.300E00:5 3.229E00:6 3.988E00:7 2.806E-04:8 -4.882E-12:9 -2.806E-04:a 0.000E00:b 
-3.310E-12:c 3.310E-12:d 1.626E-19:e 0.000E00:f 3.779E-03:10 -3.638E-03:11 -1.362E-04:12 -5.473E-06:13 
#C 1.9300001523E-08 19
3.300E00:1 3.300E00:2 3.300E00:3 3.300E00:4 3.300E00:5 3.229E00:6 3.988E00:7 2.806E-04:8 -4.882E-12:9 -2.806E-04:a 0.000E00:b 
-3.310E-12:c 3.310E-12:d 1.626E-19:e 0.000E00:f 3.765E-03:10 -3.625E-03:11 -1.409E-04:12 1.269E-06:13 
#C 1.9700004569E-08 19
3.300E00:1 3.300E00:2 3.300E00:3 3.300E00:4 3.300E00:5 3.229E00:6 3.988E00:7 2.806E-04:8 -4.883E-12:9 -2.806E-04:a 0.000E00:b 
-3.310E-12:c 3.310E-12:d -6.776E-18:e -6.939E-18:f 3.762E-03:10 -3.622E-03:11 -1.398E-04:12 -2.374E-07:13 
#C 2.0000000000E-08 19
3.300E00:1 3.300E00:2 3.300E00:3 3.300E00:4 3.300E00:5 3.229E00:6 3.988E00:7 2.806E-04:8 -4.883E-12:9 -2.806E-04:a -1.041E-17:b 
-3.310E-12:c 3.310E-12:d -1.138E-18:e 8.674E-18:f 3.764E-03:10 -3.624E-03:11 -1.398E-04:12 -2.269E-07:13 
#C 2.0065006316E-08 19
3.300E00:1 3.300E00:2 3.300E00:3 3.300E00:4 3.300E00:5 3.229E00:6 3.989E00:7 2.806E-04:8 -4.882E-12:9 -2.806E-04:a 0.000E00:b 
-3.310E-12:c 3.310E-12:d 1.626E-19:e 0.000E00:f 3.786E-03:10 -3.643E-03:11 -1.355E-04:12 -7.008E-06:13 
#C 2.0195018947E-08 19
3.300E00:1 3.300E00:2 3.300E00:3 3.300E00:4 3.300E00:5 3.229E00:6 3.989E00:7 2.806E-04:8 -4.883E-12:9 -2.806E-04:a 5.551E-17:b 
-3.310E-12:c 3.310E-12:d -2.065E-17:e -2.776E-17:f 3.777E-03:10 -3.639E-03:11 -1.434E-04:12 5.331E-06:13 
#C 2.0455044210E-08 19
3.300E00:1 3.300E00:2 3.300E00:3 3.300E00:4 3.300E00:5 3.229E00:6 3.988E00:7 2.806E-04:8 -4.883E-12:9 -2.806E-04:a 0.000E00:b 
-3.310E-12:c 3.310E-12:d -1.198E-17:e 1.388E-17:f 3.769E-03:10 -3.629E-03:11 -1.411E-04:12 1.654E-06:13 
#C 2.0975094736E-08 19
3.300E00:1 3.300E00:2 3.300E00:3 3.300E00:4 3.300E00:5 3.229E00:6 3.988E00:7 2.806E-04:8 -4.882E-12:9 -2.806E-04:a 0.000E00:b 
-3.310E-12:c 3.310E-12:d -6.776E-18:e 6.939E-18:f 3.757E-03:10 -3.617E-03:11 -1.407E-04:12 1.362E-06:13 
#C 2.1975148916E-08 19
3.300E00:1 3.300E00:2 3.300E00:3 3.300E00:4 3.300E00:5 3.229E00:6 3.988E00:7 2.806E-04:8 -4.882E-12:9 -2.806E-04:a 0.000E00:b 
-3.310E-12:c 3.310E-12:d 5.963E-19:e 0.000E00:f 3.745E-03:10 -3.605E-03:11 -1.400E-04:12 -4.728E-08:13 
#C 2.2975203097E-08 19
3.300E00:1 3.300E00:2 3.300E00:3 3.300E00:4 3.300E00:5 3.229E00:6 3.988E00:7 2.806E-04:8 -4.882E-12:9 -2.806E-04:a 0.000E00:b 
-3.310E-12:c 3.310E-12:d 5.963E-19:e 0.000E00:f 3.745E-03:10 -3.605E-03:11 -1.399E-04:12 -1.009E-07:13 
#C 2.3975257278E-08 19
3.300E00:1 3.300E00:2 3.300E00:3 3.300E00:4 3.300E00:5 3.229E00:6 3.988E00:7 2.806E-04:8 -4.882E-12:9 -2.806E-04:a 0.000E00:b 
-3.310E-12:c 3.310E-12:d 5.963E-19:e 0.000E00:f 3.745E-03:10 -3.605E-03:11 -1.399E-04:12 -1.009E-07:13 
#C 2.4975311458E-08 19
3.300E00:1 3.300E00:2 3.300E00:3 3.300E00:4 3.300E00:5 3.229E00:6 3.988E00:7 2.806E-04:8 -4.882E-12:9 -2.806E-04:a 0.000E00:b 
-3.310E-12:c 3.310E-12:d 5.963E-19:e 0.000E00:f 3.745E-03:10 -3.605E-03:11 -1.399E-04:12 -1.009E-07:13 
#C 2.5975365639E-08 19
3.300E00:1 3.300E00:2 3.300E00:3 3.300E00:4 3.300E00:5 3.229E00:6 3.988E00:7 2.806E-04:8 -4.882E-12:9 -2.806E-04:a 0.000E00:b 
-3.310E-12:c 3.310E-12:d 5.963E-19:e 0.000E00:f 3.745E-03:10 -3.605E-03:11 -1.399E-04:12 -1.009E-07:13 
#C 2.6975419819E-08 19
3.300E00:1 3.300E00:2 3.300E00:3 3.300E00:4 3.300E00:5 3.229E00:6 3.988E00:7 2.806E-04:8 -4.882E-12:9 -2.806E-04:a 0.000E00:b 
-3.310E-12:c 3.310E-12:d 5.963E-19:e 0.000E00:f 3.745E-03:10 -3.605E-03:11 -1.399E-04:12 -1.009E-07:13 
#C 2.7975474000E-08 19
3.300E00:1 3.300E00:2 3.300E00:3 3.300E00:4 3.300E00:5 3.229E00:6 3.988E00:7 2.806E-04:8 -4.882E-12:9 -2.806E-04:a 0.000E00:b 
-3.310E-12:c 3.310E-12:d 5.963E-19:e 0.000E00:f 3.745E-03:10 -3.605E-03:11 -1.399E-04:12 -1.009E-07:13 
#C 2.8975528181E-08 19
3.300E00:1 3.300E00:2 3.300E00:3 3.300E00:4 3.300E00:5 3.229E00:6 3.988E00:7 2.806E-04:8 -4.882E-12:9 -2.806E-04:a 0.000E00:b 
-3.310E-12:c 3.310E-12:d 5.963E-19:e 0.000E00:f 3.745E-03:10 -3.605E-03:11 -1.399E-04:12 -1.009E-07:13 
#C 2.9975582361E-08 19
3.300E00:1 3.300E00:2 3.300E00:3 3.300E00:4 3.300E00:5 3.229E00:6 3.988E00:7 2.806E-04:8 -4.882E-12:9 -2.806E-04:a 0.000E00:b 
-3.310E-12:c 3.310E-12:d 5.963E-19:e 0.000E00:f 3.745E-03:10 -3.605E-03:11 -1.399E-04:12 -1.009E-07:13 
#C 3.0975636542E-08 19
3.300E00:1 3.300E00:2 3.300E00:3 3.300E00:4 3.300E00:5 3.229E00:6 3.988E00:7 2.806E-04:8 -4.882E-12:9 -2.806E-04:a 0.000E00:b 
-3.310E-12:c 3.310E-12:d 5.963E-19:e 0.000E00:f 3.745E-03:10 -3.605E-03:11 -1.399E-04:12 -1.009E-07:13 
#C 3.1975690723E-08 19
3.300E00:1 3.300E00:2 3.300E00:3 3.300E00:4 3.300E00:5 3.229E00:6 3.988E00:7 2.806E-04:8 -4.882E-12:9 -2.806E-04:a 0.000E00:b 
-3.310E-12:c 3.310E-12:d 5.963E-19:e 0.000E00:f 3.745E-03:10 -3.605E-03:11 -1.399E-04:12 -1.009E-07:13 
#C 3.2975744903E-08 19
