#H
SOURCE='PSPICE' VERSION='PSpice 16.0.0 (July 2006)'
TITLE='**** 05/18/10 12:08:24 ******* PSpice 16.0.0 (July 2006) ****** ID# 0 ********'
SUBTITLE=''
TIME='16:00:49' DATE='05/30/10' TEMPERATURE='2.700E01'
ANALYSIS='Transient Analysis' SERIALNO='61413'
ALLVALUES='NO' COMPLEXVALUES='NO' NODES='19'
SWEEPVAR='Time' SWEEPMODE='VAR_STEP'
XBEGIN='0.000E00' XEND='5.000E-08'
FORMAT='0 VOLTSorAMPS;EFLOAT : NODEorBRANCH;NODE  '
DGTLDATA='NO' 
#N 
'V(C_F_D_LSB)' 'V(C_F_D_2SB)' 'V(C_F_D_3SB)' 'V(C_F_D_4SB)' 'V(C_F_D_5SB)' 'V(C_F_D_MSB)' 'V(C_F_C4_NDPOS)' 'ID(M_C_F_C4_M2)' 
'IB(M_C_F_C4_M2)' 'IS(M_C_F_C4_M2)' 'IG(M_C_F_C4_M2)' 'ID(M_C_F_C4_M4)' 'IB(M_C_F_C4_M4)' 'IS(M_C_F_C4_M4)' 'IG(M_C_F_C4_M4)' 
'ID(M_C_F_C4_M12)' 'IB(M_C_F_C4_M12)' 'IS(M_C_F_C4_M12)' 'IG(M_C_F_C4_M12)' 
#C 0.0000000000E00 19
3.300E00:1 3.300E00:2 6.044E-08:3 3.300E00:4 3.300E00:5 3.229E00:6 3.985E00:7 1.566E-04:8 -4.441E-12:9 -1.566E-04:a 0.000E00:b 
3.843E-03:c -3.194E-03:d -6.492E-04:e 0.000E00:f -3.310E-12:10 3.310E-12:11 1.815E-19:12 0.000E00:13 
#C 1.0000000000E-11 19
3.300E00:1 3.300E00:2 6.044E-08:3 3.300E00:4 3.300E00:5 3.229E00:6 3.985E00:7 1.566E-04:8 -4.985E-12:9 -1.566E-04:a -2.220E-16:b 
3.843E-03:c -3.194E-03:d -6.492E-04:e -1.062E-12:f -3.293E-12:10 4.639E-12:11 1.768E-14:12 -1.364E-12:13 
#C 2.0000000000E-11 19
3.300E00:1 3.300E00:2 6.044E-08:3 3.300E00:4 3.300E00:5 3.229E00:6 3.985E00:7 1.566E-04:8 -4.985E-12:9 -1.566E-04:a -2.220E-16:b 
3.843E-03:c -3.194E-03:d -6.492E-04:e -1.062E-12:f -3.293E-12:10 4.639E-12:11 1.768E-14:12 -1.364E-12:13 
#C 4.0000152290E-11 19
3.300E00:1 3.300E00:2 6.044E-08:3 3.300E00:4 3.300E00:5 3.229E00:6 3.985E00:7 1.566E-04:8 -4.441E-12:9 -1.566E-04:a 0.000E00:b 
3.843E-03:c -3.194E-03:d -6.492E-04:e 0.000E00:f -3.310E-12:10 3.310E-12:11 1.815E-19:12 0.000E00:13 
#C 8.0000456870E-11 19
3.300E00:1 3.300E00:2 6.044E-08:3 3.300E00:4 3.300E00:5 3.229E00:6 3.985E00:7 1.566E-04:8 -4.441E-12:9 -1.566E-04:a 0.000E00:b 
3.843E-03:c -3.194E-03:d -6.492E-04:e 0.000E00:f -3.310E-12:10 3.310E-12:11 1.815E-19:12 0.000E00:13 
#C 1.6000106603E-10 19
3.300E00:1 3.300E00:2 6.044E-08:3 3.300E00:4 3.300E00:5 3.229E00:6 3.985E00:7 1.566E-04:8 -4.441E-12:9 -1.566E-04:a 0.000E00:b 
3.843E-03:c -3.194E-03:d -6.492E-04:e 0.000E00:f -3.310E-12:10 3.310E-12:11 1.815E-19:12 0.000E00:13 
#C 3.2000228435E-10 19
3.300E00:1 3.300E00:2 6.044E-08:3 3.300E00:4 3.300E00:5 3.229E00:6 3.985E00:7 1.566E-04:8 -4.441E-12:9 -1.566E-04:a 0.000E00:b 
3.843E-03:c -3.194E-03:d -6.492E-04:e 0.000E00:f -3.310E-12:10 3.310E-12:11 1.815E-19:12 0.000E00:13 
#C 6.4000472099E-10 19
3.300E00:1 3.300E00:2 6.044E-08:3 3.300E00:4 3.300E00:5 3.229E00:6 3.985E00:7 1.566E-04:8 -4.441E-12:9 -1.566E-04:a 0.000E00:b 
3.843E-03:c -3.194E-03:d -6.492E-04:e 0.000E00:f -3.310E-12:10 3.310E-12:11 1.815E-19:12 0.000E00:13 
#C 1.2800095943E-09 19
3.300E00:1 3.300E00:2 6.044E-08:3 3.300E00:4 3.300E00:5 3.229E00:6 3.985E00:7 1.566E-04:8 -4.441E-12:9 -1.566E-04:a 0.000E00:b 
3.843E-03:c -3.194E-03:d -6.492E-04:e 0.000E00:f -3.310E-12:10 3.310E-12:11 1.815E-19:12 0.000E00:13 
#C 2.0000000001E-09 19
3.300E00:1 3.300E00:2 6.044E-08:3 3.300E00:4 3.300E00:5 3.229E00:6 3.985E00:7 1.566E-04:8 -4.441E-12:9 -1.566E-04:a 0.000E00:b 
3.843E-03:c -3.194E-03:d -6.492E-04:e 0.000E00:f -3.310E-12:10 3.310E-12:11 1.815E-19:12 0.000E00:13 
#C 2.0200000001E-09 19
3.300E00:1 3.300E00:2 3.633E-08:3 3.300E00:4 3.300E00:5 3.229E00:6 3.984E00:7 1.566E-04:8 -4.441E-12:9 -1.566E-04:a 0.000E00:b 
3.666E-03:c -3.098E-03:d -7.215E-04:e 1.535E-04:f 2.165E-05:10 1.718E-03:11 2.293E-05:12 -1.763E-03:13 
#C 2.0600003047E-09 19
3.300E00:1 3.300E00:2 6.322E-08:3 3.300E00:4 3.300E00:5 3.229E00:6 3.982E00:7 1.486E-04:8 4.233E-06:9 -1.529E-04:a 5.882E-09:b 
3.305E-03:c -2.793E-03:d -7.676E-04:e 2.555E-04:f 3.499E-05:10 2.836E-03:11 3.792E-05:12 -2.909E-03:13 
#C 2.1400009138E-09 19
3.300E00:1 3.300E00:2 7.144E-08:3 3.300E00:4 3.300E00:5 3.229E00:6 3.976E00:7 1.486E-04:8 4.233E-06:9 -1.528E-04:a 6.028E-09:b 
2.775E-03:c -2.266E-03:d -7.610E-04:e 2.520E-04:f 3.499E-05:10 2.810E-03:11 3.792E-05:12 -2.882E-03:13 
#C 2.2000000001E-09 19
3.300E00:1 3.300E00:2 4.247E-08:3 3.300E00:4 3.300E00:5 3.229E00:6 3.972E00:7 1.580E-04:8 -1.309E-06:9 -1.567E-04:a 2.047E-08:b 
2.470E-03:c -1.950E-03:d -7.449E-04:e 2.253E-04:f 3.499E-05:10 2.805E-03:11 3.792E-05:12 -2.878E-03:13 
#C 2.2160001219E-09 19
3.300E00:1 3.300E00:2 5.940E-08:3 3.300E00:4 3.300E00:5 3.229E00:6 3.971E00:7 1.532E-04:8 1.462E-06:9 -1.547E-04:a 1.326E-08:b 
2.387E-03:c -1.870E-03:d -7.454E-04:e 2.284E-04:f 3.499E-05:10 2.799E-03:11 3.792E-05:12 -2.872E-03:13 
#C 2.2480026939E-09 19
3.300E00:1 3.300E00:2 6.272E-08:3 3.300E00:4 3.300E00:5 3.229E00:6 3.969E00:7 1.532E-04:8 1.462E-06:9 -1.547E-04:a 1.326E-08:b 
2.281E-03:c -1.748E-03:d -7.283E-04:e 1.957E-04:f 3.499E-05:10 2.794E-03:11 3.792E-05:12 -2.867E-03:13 
#C 2.3120078378E-09 19
3.300E00:1 3.300E00:2 6.129E-08:3 3.300E00:4 3.300E00:5 3.229E00:6 3.966E00:7 1.532E-04:8 1.462E-06:9 -1.547E-04:a 1.328E-08:b 
2.037E-03:c -1.523E-03:d -7.387E-04:e 2.246E-04:f 1.987E-05:10 1.343E-03:11 1.835E-05:12 -1.381E-03:13 
#C 2.4400181257E-09 19
3.300E00:1 3.300E00:2 5.894E-08:3 3.300E00:4 3.300E00:5 3.229E00:6 3.962E00:7 1.532E-04:8 1.462E-06:9 -1.546E-04:a 1.330E-08:b 
1.937E-03:c -1.332E-03:d -6.506E-04:e 4.597E-05:f 6.320E-06:10 5.351E-04:11 7.371E-06:12 -5.487E-04:13 
#C 2.6960387015E-09 19
3.300E00:1 3.300E00:2 5.872E-08:3 3.300E00:4 3.300E00:5 3.229E00:6 3.961E00:7 1.576E-04:8 -8.199E-07:9 -1.568E-04:a 3.220E-08:b 
1.921E-03:c -1.273E-03:d -6.093E-04:e -3.886E-05:f -5.458E-06:10 -4.530E-04:11 -6.178E-06:12 4.646E-04:13 
#C 3.2080798530E-09 19
3.300E00:1 3.300E00:2 6.217E-08:3 3.300E00:4 3.300E00:5 3.229E00:6 3.970E00:7 1.584E-04:8 -1.051E-06:9 -1.573E-04:a 1.509E-08:b 
2.427E-03:c -1.753E-03:d -6.003E-04:e -7.322E-05:f -1.190E-05:10 -9.497E-04:11 -1.295E-05:12 9.746E-04:13 
#C 4.2081340336E-09 19
3.300E00:1 3.300E00:2 6.154E-08:3 3.300E00:4 3.300E00:5 3.229E00:6 3.982E00:7 1.572E-04:8 -3.380E-07:9 -1.569E-04:a -5.024E-09:b 
3.443E-03:c -2.780E-03:d -6.296E-04:e -3.373E-05:f -4.276E-06:10 -3.345E-04:11 -4.435E-06:12 3.432E-04:13 
#C 5.2081882143E-09 19
3.300E00:1 3.300E00:2 6.155E-08:3 3.300E00:4 3.300E00:5 3.229E00:6 3.985E00:7 1.566E-04:8 1.538E-08:9 -1.566E-04:a -1.015E-08:b 
3.868E-03:c -3.223E-03:d -6.526E-04:e 7.457E-06:f 3.583E-07:10 3.230E-05:11 3.983E-07:12 -3.306E-05:13 
#C 6.2082423949E-09 19
3.300E00:1 3.300E00:2 6.154E-08:3 3.300E00:4 3.300E00:5 3.229E00:6 3.985E00:7 1.563E-04:8 1.653E-07:9 -1.565E-04:a -6.610E-09:b 
3.836E-03:c -3.185E-03:d -6.463E-04:e -5.086E-06:f -3.276E-07:10 -2.271E-05:11 -2.703E-07:12 2.330E-05:13 
#C 7.2082965755E-09 19
3.300E00:1 3.300E00:2 6.154E-08:3 3.300E00:4 3.300E00:5 3.229E00:6 3.985E00:7 1.563E-04:8 1.653E-07:9 -1.565E-04:a -6.610E-09:b 
3.836E-03:c -3.186E-03:d -6.473E-04:e -3.352E-06:f -3.276E-07:10 -2.271E-05:11 -2.703E-07:12 2.330E-05:13 
#C 8.2083507561E-09 19
3.300E00:1 3.300E00:2 6.329E-08:3 3.300E00:4 3.300E00:5 3.229E00:6 3.985E00:7 1.568E-04:8 -1.653E-07:9 -1.566E-04:a 6.610E-09:b 
3.862E-03:c -3.216E-03:d -6.516E-04:e 5.555E-06:f 3.276E-07:10 2.271E-05:11 2.703E-07:12 -2.330E-05:13 
#C 9.2084049367E-09 19
3.300E00:1 3.300E00:2 6.206E-08:3 3.300E00:4 3.300E00:5 3.229E00:6 3.985E00:7 1.566E-04:8 -4.441E-12:9 -1.566E-04:a 1.735E-18:b 
3.848E-03:c -3.200E-03:d -6.489E-04:e 1.060E-07:f -3.310E-12:10 3.310E-12:11 1.699E-18:12 -2.602E-18:13 
#C 1.0208459117E-08 19
3.300E00:1 3.300E00:2 6.206E-08:3 3.300E00:4 3.300E00:5 3.229E00:6 3.985E00:7 1.566E-04:8 -4.441E-12:9 -1.566E-04:a 1.735E-18:b 
3.848E-03:c -3.199E-03:d -6.488E-04:e 9.193E-09:f -3.310E-12:10 3.310E-12:11 1.699E-18:12 -2.602E-18:13 
#C 1.1208513298E-08 19
3.300E00:1 3.300E00:2 6.206E-08:3 3.300E00:4 3.300E00:5 3.229E00:6 3.985E00:7 1.566E-04:8 -4.441E-12:9 -1.566E-04:a 1.735E-18:b 
3.848E-03:c -3.199E-03:d -6.488E-04:e 9.193E-09:f -3.310E-12:10 3.310E-12:11 1.699E-18:12 -2.602E-18:13 
#C 1.2208567479E-08 19
3.300E00:1 3.300E00:2 6.206E-08:3 3.300E00:4 3.300E00:5 3.229E00:6 3.985E00:7 1.566E-04:8 -4.441E-12:9 -1.566E-04:a 1.735E-18:b 
3.848E-03:c -3.199E-03:d -6.488E-04:e 9.193E-09:f -3.310E-12:10 3.310E-12:11 1.699E-18:12 -2.602E-18:13 
#C 1.3208621659E-08 19
3.300E00:1 3.300E00:2 6.206E-08:3 3.300E00:4 3.300E00:5 3.229E00:6 3.985E00:7 1.566E-04:8 -4.441E-12:9 -1.566E-04:a 1.735E-18:b 
3.848E-03:c -3.199E-03:d -6.488E-04:e 9.193E-09:f -3.310E-12:10 3.310E-12:11 1.699E-18:12 -2.602E-18:13 
#C 1.4208675840E-08 19
3.300E00:1 3.300E00:2 6.206E-08:3 3.300E00:4 3.300E00:5 3.229E00:6 3.985E00:7 1.566E-04:8 -4.441E-12:9 -1.566E-04:a 1.735E-18:b 
3.848E-03:c -3.199E-03:d -6.488E-04:e 9.193E-09:f -3.310E-12:10 3.310E-12:11 1.699E-18:12 -2.602E-18:13 
#C 1.5000000000E-08 19
3.300E00:1 3.300E00:2 6.314E-08:3 3.300E00:4 3.300E00:5 3.229E00:6 3.985E00:7 1.566E-04:8 -4.441E-12:9 -1.566E-04:a -1.735E-18:b 
3.848E-03:c -3.199E-03:d -6.488E-04:e -9.193E-09:f -3.310E-12:10 3.310E-12:11 -1.337E-18:12 2.602E-18:13 
#C 1.5100000000E-08 19
3.300E00:1 3.300E00:2 1.450E-05:3 3.300E00:4 3.300E00:5 3.229E00:6 3.985E00:7 1.566E-04:8 -4.441E-12:9 -1.566E-04:a 0.000E00:b 
3.855E-03:c -3.205E-03:d -6.484E-04:e -1.025E-06:f -3.310E-12:10 3.310E-12:11 1.808E-19:12 0.000E00:13 
#C 1.5125000190E-08 19
3.300E00:1 3.300E00:2 7.374E-06:3 3.300E00:4 3.300E00:5 3.229E00:6 3.985E00:7 1.566E-04:8 -4.441E-12:9 -1.566E-04:a 0.000E00:b 
3.856E-03:c -3.207E-03:d -6.484E-04:e -1.025E-06:f -3.310E-12:10 3.310E-12:11 1.808E-19:12 0.000E00:13 
#C 1.5175000571E-08 19
3.300E00:1 3.300E00:2 -1.371E-04:3 3.300E00:4 3.300E00:5 3.229E00:6 3.985E00:7 1.566E-04:8 -4.441E-12:9 -1.566E-04:a 0.000E00:b 
3.859E-03:c -3.210E-03:d -6.484E-04:e -1.025E-06:f -3.310E-12:10 3.310E-12:11 5.569E-17:12 -5.551E-17:13 
#C 1.5275001333E-08 19
3.300E00:1 3.300E00:2 -9.733E-04:3 3.300E00:4 3.300E00:5 3.229E00:6 3.985E00:7 1.566E-04:8 -4.441E-12:9 -1.566E-04:a 2.776E-17:b 
3.856E-03:c -3.206E-03:d -6.484E-04:e -1.013E-06:f -3.310E-12:10 3.310E-12:11 6.263E-17:12 -8.327E-17:13 
#C 1.5300001523E-08 19
3.300E00:1 3.300E00:2 -1.021E-03:3 3.300E00:4 3.300E00:5 3.229E00:6 3.985E00:7 1.566E-04:8 -4.441E-12:9 -1.566E-04:a -2.776E-17:b 
3.855E-03:c -3.205E-03:d -6.484E-04:e -1.018E-06:f -3.310E-12:10 3.310E-12:11 3.650E-18:12 4.510E-17:13 
#C 1.5350001904E-08 19
3.300E00:1 3.300E00:2 -1.248E-03:3 3.300E00:4 3.300E00:5 3.229E00:6 3.985E00:7 1.566E-04:8 -4.441E-12:9 -1.566E-04:a 0.000E00:b 
3.857E-03:c -3.207E-03:d -6.481E-04:e -1.700E-06:f -3.310E-12:10 3.310E-12:11 5.569E-17:12 -5.551E-17:13 
#C 1.5450002665E-08 19
3.300E00:1 3.300E00:2 -2.886E-03:3 3.300E00:4 3.300E00:5 3.229E00:6 3.985E00:7 1.566E-04:8 -4.441E-12:9 -1.566E-04:a 2.776E-17:b 
3.855E-03:c -3.206E-03:d -6.490E-04:e 1.044E-07:f -3.310E-12:10 3.310E-12:11 6.263E-17:12 -8.327E-17:13 
#C 1.5475002856E-08 19
3.300E00:1 3.300E00:2 -2.996E-03:3 3.300E00:4 3.300E00:5 3.229E00:6 3.985E00:7 1.566E-04:8 -4.441E-12:9 -1.566E-04:a -2.776E-17:b 
3.855E-03:c -3.206E-03:d -6.487E-04:e -5.082E-07:f -3.310E-12:10 3.310E-12:11 3.650E-18:12 4.510E-17:13 
#C 1.5525003236E-08 19
3.300E00:1 3.300E00:2 -8.826E-04:3 3.300E00:4 3.300E00:5 3.229E00:6 3.985E00:7 1.566E-04:8 -4.441E-12:9 -1.566E-04:a 0.000E00:b 
3.855E-03:c -3.206E-03:d -6.487E-04:e -5.082E-07:f -3.310E-12:10 3.310E-12:11 5.569E-17:12 -5.551E-17:13 
#C 1.5537503331E-08 19
3.300E00:1 3.300E00:2 -4.542E-04:3 3.300E00:4 3.300E00:5 3.229E00:6 3.985E00:7 1.566E-04:8 -4.441E-12:9 -1.566E-04:a 9.714E-17:b 
3.855E-03:c -3.206E-03:d -6.487E-04:e -5.082E-07:f -3.310E-12:10 3.310E-12:11 -1.056E-16:12 6.245E-17:13 
#C 1.5562503522E-08 19
3.300E00:1 3.300E00:2 -1.047E-04:3 3.300E00:4 3.300E00:5 3.229E00:6 3.985E00:7 1.566E-04:8 -4.441E-12:9 -1.566E-04:a -1.110E-16:b 
3.855E-03:c -3.206E-03:d -6.487E-04:e -5.082E-07:f -3.310E-12:10 3.310E-12:11 -2.080E-16:12 1.110E-16:13 
#C 1.5568753569E-08 19
3.300E00:1 3.300E00:2 -1.068E-04:3 3.300E00:4 3.300E00:5 3.229E00:6 3.985E00:7 1.566E-04:8 -4.441E-12:9 -1.566E-04:a 2.776E-17:b 
3.855E-03:c -3.205E-03:d -6.487E-04:e -5.082E-07:f -3.310E-12:10 3.309E-12:11 6.455E-16:12 -1.943E-16:13 
#C 1.5581253665E-08 19
3.300E00:1 3.300E00:2 -1.306E-04:3 3.300E00:4 3.300E00:5 3.229E00:6 3.985E00:7 1.566E-04:8 -4.441E-12:9 -1.566E-04:a -4.441E-16:b 
3.855E-03:c -3.205E-03:d -6.487E-04:e -5.083E-07:f -3.310E-12:10 3.309E-12:11 2.222E-16:12 2.220E-16:13 
#C 1.5606253855E-08 19
3.300E00:1 3.300E00:2 -1.471E-04:3 3.300E00:4 3.300E00:5 3.229E00:6 3.985E00:7 1.566E-04:8 -4.441E-12:9 -1.566E-04:a -2.220E-16:b 
3.854E-03:c -3.205E-03:d -6.487E-04:e -5.083E-07:f -3.310E-12:10 3.310E-12:11 -2.757E-17:12 1.110E-16:13 
#C 1.5656254236E-08 19
3.300E00:1 3.300E00:2 -1.303E-04:3 3.300E00:4 3.300E00:5 3.229E00:6 3.985E00:7 1.566E-04:8 -4.441E-12:9 -1.566E-04:a 0.000E00:b 
3.854E-03:c -3.205E-03:d -6.487E-04:e -5.083E-07:f -3.310E-12:10 3.310E-12:11 -1.525E-16:12 0.000E00:13 
#C 1.5731342118E-08 19
3.300E00:1 3.300E00:2 -1.013E-04:3 3.300E00:4 3.300E00:5 3.229E00:6 3.985E00:7 1.566E-04:8 -4.441E-12:9 -1.566E-04:a -5.551E-17:b 
3.853E-03:c -3.204E-03:d -6.487E-04:e -5.083E-07:f -3.310E-12:10 3.310E-12:11 -2.064E-17:12 -2.776E-17:13 
#C 1.5845196303E-08 19
3.300E00:1 3.300E00:2 -6.897E-05:3 3.300E00:4 3.300E00:5 3.229E00:6 3.985E00:7 1.566E-04:8 -4.441E-12:9 -1.566E-04:a -2.776E-17:b 
3.852E-03:c -3.203E-03:d -6.487E-04:e -5.083E-07:f -3.310E-12:10 3.310E-12:11 7.120E-18:12 4.163E-17:13 
#C 1.6000000000E-08 19
3.300E00:1 3.300E00:2 -1.049E-05:3 3.300E00:4 3.300E00:5 3.229E00:6 3.985E00:7 1.566E-04:8 -4.441E-12:9 -1.566E-04:a -2.776E-17:b 
3.854E-03:c -3.206E-03:d -6.494E-04:e 1.029E-06:f -3.310E-12:10 3.310E-12:11 1.059E-17:12 1.388E-17:13 
#C 1.6022770837E-08 19
3.300E00:1 3.300E00:2 -5.512E-05:3 3.300E00:4 3.300E00:5 3.229E00:6 3.985E00:7 1.566E-04:8 -4.441E-12:9 -1.566E-04:a 0.000E00:b 
3.855E-03:c -3.206E-03:d -6.491E-04:e 4.670E-07:f -3.310E-12:10 3.310E-12:11 1.808E-19:12 0.000E00:13 
#C 1.6068312511E-08 19
3.300E00:1 3.300E00:2 6.562E-06:3 3.300E00:4 3.300E00:5 3.229E00:6 3.985E00:7 1.566E-04:8 -4.441E-12:9 -1.566E-04:a 0.000E00:b 
3.855E-03:c -3.207E-03:d -6.491E-04:e 4.670E-07:f -3.310E-12:10 3.310E-12:11 -2.357E-16:12 2.220E-16:13 
#C 1.6159395859E-08 19
3.300E00:1 3.300E00:2 1.161E-05:3 3.300E00:4 3.300E00:5 3.229E00:6 3.985E00:7 1.566E-04:8 -4.441E-12:9 -1.566E-04:a -8.327E-17:b 
3.857E-03:c -3.208E-03:d -6.491E-04:e 4.670E-07:f -3.310E-12:10 3.310E-12:11 -6.758E-18:12 0.000E00:13 
#C 1.6341562554E-08 19
3.300E00:1 3.300E00:2 4.249E-07:3 3.300E00:4 3.300E00:5 3.229E00:6 3.985E00:7 1.566E-04:8 -4.441E-12:9 -1.566E-04:a -4.163E-17:b 
3.854E-03:c -3.205E-03:d -6.491E-04:e 3.694E-07:f -3.310E-12:10 3.310E-12:11 -3.289E-18:12 0.000E00:13 
#C 1.6705895946E-08 19
3.300E00:1 3.300E00:2 2.704E-07:3 3.300E00:4 3.300E00:5 3.229E00:6 3.985E00:7 1.566E-04:8 -4.441E-12:9 -1.566E-04:a -6.939E-18:b 
3.852E-03:c -3.203E-03:d -6.490E-04:e 2.621E-07:f -3.310E-12:10 3.310E-12:11 -2.584E-17:12 1.388E-17:13 
#C 1.7434562728E-08 19
3.300E00:1 3.300E00:2 -1.273E-07:3 3.300E00:4 3.300E00:5 3.229E00:6 3.985E00:7 1.566E-04:8 -4.441E-12:9 -1.566E-04:a -3.469E-18:b 
3.848E-03:c -3.199E-03:d -6.490E-04:e 3.206E-07:f -3.310E-12:10 3.310E-12:11 -9.360E-18:12 1.041E-17:13 
#C 1.8434616909E-08 19
3.300E00:1 3.300E00:2 -2.302E-07:3 3.300E00:4 3.300E00:5 3.229E00:6 3.985E00:7 1.566E-04:8 -4.441E-12:9 -1.566E-04:a 3.469E-18:b 
3.848E-03:c -3.200E-03:d -6.488E-04:e -2.582E-08:f -3.310E-12:10 3.310E-12:11 1.916E-18:12 -1.735E-18:13 
#C 1.9000000000E-08 19
3.300E00:1 3.300E00:2 -6.149E-07:3 3.300E00:4 3.300E00:5 3.229E00:6 3.985E00:7 1.566E-04:8 -4.441E-12:9 -1.566E-04:a 3.469E-18:b 
3.849E-03:c -3.200E-03:d -6.489E-04:e 1.011E-07:f -3.310E-12:10 3.310E-12:11 1.699E-18:12 2.602E-18:13 
#C 1.9100000000E-08 19
3.300E00:1 3.300E00:2 1.850E-06:3 3.300E00:4 3.300E00:5 3.229E00:6 3.985E00:7 1.566E-04:8 -4.441E-12:9 -1.566E-04:a 0.000E00:b 
3.855E-03:c -3.205E-03:d -6.482E-04:e -1.364E-06:f -3.310E-12:10 3.310E-12:11 1.808E-19:12 0.000E00:13 
#C 1.9300001523E-08 19
3.300E00:1 3.300E00:2 7.403E-05:3 3.300E00:4 3.300E00:5 3.229E00:6 3.985E00:7 1.566E-04:8 -4.441E-12:9 -1.566E-04:a 0.000E00:b 
3.852E-03:c -3.203E-03:d -6.488E-04:e -2.407E-07:f -3.310E-12:10 3.310E-12:11 1.808E-19:12 0.000E00:13 
#C 1.9700004569E-08 19
3.300E00:1 3.300E00:2 1.290E-03:3 3.300E00:4 3.300E00:5 3.229E00:6 3.985E00:7 1.566E-04:8 -4.441E-12:9 -1.566E-04:a 1.388E-17:b 
3.849E-03:c -3.200E-03:d -6.487E-04:e -2.407E-07:f -3.310E-12:10 3.310E-12:11 -2.064E-17:12 -6.939E-18:13 
#C 2.0000000000E-08 19
3.300E00:1 3.300E00:2 7.162E-04:3 3.300E00:4 3.300E00:5 3.229E00:6 3.985E00:7 1.566E-04:8 -4.441E-12:9 -1.566E-04:a 3.469E-18:b 
3.852E-03:c -3.203E-03:d -6.489E-04:e 4.500E-08:f -3.310E-12:10 3.310E-12:11 -2.421E-18:12 -3.469E-18:13 
#C 2.0065006316E-08 19
3.300E00:1 3.300E00:2 1.801E-04:3 3.300E00:4 3.300E00:5 3.229E00:6 3.985E00:7 1.566E-04:8 -4.441E-12:9 -1.566E-04:a 0.000E00:b 
3.853E-03:c -3.204E-03:d -6.489E-04:e -4.073E-08:f -3.310E-12:10 3.310E-12:11 1.808E-19:12 0.000E00:13 
#C 2.0195018947E-08 19
3.300E00:1 3.300E00:2 -8.307E-05:3 3.300E00:4 3.300E00:5 3.229E00:6 3.985E00:7 1.566E-04:8 -4.441E-12:9 -1.566E-04:a 0.000E00:b 
3.854E-03:c -3.206E-03:d -6.489E-04:e -4.074E-08:f -3.310E-12:10 3.310E-12:11 -4.839E-17:12 0.000E00:13 
#C 2.0455044210E-08 19
3.300E00:1 3.300E00:2 -2.090E-05:3 3.300E00:4 3.300E00:5 3.229E00:6 3.985E00:7 1.566E-04:8 -4.441E-12:9 -1.566E-04:a -1.388E-17:b 
3.853E-03:c -3.204E-03:d -6.488E-04:e -7.413E-08:f -3.310E-12:10 3.310E-12:11 -2.757E-17:12 1.388E-17:13 
#C 2.0975094736E-08 19
3.300E00:1 3.300E00:2 2.327E-06:3 3.300E00:4 3.300E00:5 3.229E00:6 3.985E00:7 1.566E-04:8 -4.441E-12:9 -1.566E-04:a 0.000E00:b 
3.850E-03:c -3.201E-03:d -6.488E-04:e -6.078E-08:f -3.310E-12:10 3.310E-12:11 7.120E-18:12 0.000E00:13 
#C 2.1975148916E-08 19
3.300E00:1 3.300E00:2 1.775E-07:3 3.300E00:4 3.300E00:5 3.229E00:6 3.985E00:7 1.566E-04:8 -4.441E-12:9 -1.566E-04:a 0.000E00:b 
3.849E-03:c -3.200E-03:d -6.489E-04:e 1.536E-07:f -3.310E-12:10 3.310E-12:11 7.120E-18:12 -3.469E-18:13 
#C 2.2975203097E-08 19
3.300E00:1 3.300E00:2 7.820E-08:3 3.300E00:4 3.300E00:5 3.229E00:6 3.985E00:7 1.566E-04:8 -4.441E-12:9 -1.566E-04:a 0.000E00:b 
3.849E-03:c -3.200E-03:d -6.489E-04:e 1.536E-07:f -3.310E-12:10 3.310E-12:11 7.120E-18:12 -3.469E-18:13 
#C 2.3975257278E-08 19
3.300E00:1 3.300E00:2 1.318E-07:3 3.300E00:4 3.300E00:5 3.229E00:6 3.985E00:7 1.566E-04:8 -4.441E-12:9 -1.566E-04:a 0.000E00:b 
3.849E-03:c -3.200E-03:d -6.489E-04:e 1.536E-07:f -3.310E-12:10 3.310E-12:11 7.120E-18:12 -3.469E-18:13 
#C 2.4975311458E-08 19
3.300E00:1 3.300E00:2 1.048E-07:3 3.300E00:4 3.300E00:5 3.229E00:6 3.985E00:7 1.566E-04:8 -4.441E-12:9 -1.566E-04:a 0.000E00:b 
3.849E-03:c -3.200E-03:d -6.489E-04:e 1.536E-07:f -3.310E-12:10 3.310E-12:11 7.120E-18:12 -3.469E-18:13 
#C 2.5975365639E-08 19
3.300E00:1 3.300E00:2 1.071E-07:3 3.300E00:4 3.300E00:5 3.229E00:6 3.985E00:7 1.566E-04:8 -4.441E-12:9 -1.566E-04:a 0.000E00:b 
3.849E-03:c -3.200E-03:d -6.489E-04:e 1.536E-07:f -3.310E-12:10 3.310E-12:11 7.120E-18:12 -3.469E-18:13 
#C 2.6975419819E-08 19
3.300E00:1 3.300E00:2 1.079E-07:3 3.300E00:4 3.300E00:5 3.229E00:6 3.985E00:7 1.566E-04:8 -4.441E-12:9 -1.566E-04:a 0.000E00:b 
3.849E-03:c -3.200E-03:d -6.489E-04:e 1.536E-07:f -3.310E-12:10 3.310E-12:11 7.120E-18:12 -3.469E-18:13 
#C 2.7975474000E-08 19
3.300E00:1 3.300E00:2 1.079E-07:3 3.300E00:4 3.300E00:5 3.229E00:6 3.985E00:7 1.566E-04:8 -4.441E-12:9 -1.566E-04:a 0.000E00:b 
3.849E-03:c -3.200E-03:d -6.489E-04:e 1.536E-07:f -3.310E-12:10 3.310E-12:11 7.120E-18:12 -3.469E-18:13 
#C 2.8975528181E-08 19
3.300E00:1 3.300E00:2 1.079E-07:3 3.300E00:4 3.300E00:5 3.229E00:6 3.985E00:7 1.566E-04:8 -4.441E-12:9 -1.566E-04:a 0.000E00:b 
