#H
SOURCE='PSPICE' VERSION='PSpice 16.0.0 (July 2006)'
TITLE='**** 05/18/10 12:08:24 ******* PSpice 16.0.0 (July 2006) ****** ID# 0 ********'
SUBTITLE=''
TIME='12:03:03' DATE='06/04/10' TEMPERATURE='2.700E01'
ANALYSIS='Transient Analysis' SERIALNO='61413'
ALLVALUES='NO' COMPLEXVALUES='NO' NODES='20'
SWEEPVAR='Time' SWEEPMODE='VAR_STEP'
XBEGIN='0.000E00' XEND='5.000E-07'
FORMAT='0 VOLTSorAMPS;EFLOAT : NODEorBRANCH;NODE  '
DGTLDATA='NO' 
#N 
'V(C_F_D_LSB)' 'V(C_F_D_2SB)' 'V(C_F_D_3SB)' 'V(C_F_D_4SB)' 'V(C_F_D_5SB)' 'V(C_F_C32_MSB)' 'V(C_F_C63_NDNEG)' 'I(I_INY1)' 
'ID(M_C_F_C63_M1)' 'IB(M_C_F_C63_M1)' 'IS(M_C_F_C63_M1)' 'IG(M_C_F_C63_M1)' 'ID(M_C_F_C63_M3)' 'IB(M_C_F_C63_M3)' 'IS(M_C_F_C63_M3)' 
'IG(M_C_F_C63_M3)' 'ID(M_C_F_C63_M4)' 'IB(M_C_F_C63_M4)' 'IS(M_C_F_C63_M4)' 'IG(M_C_F_C63_M4)' 
#C 0.0000000000E00 20
3.300E00:1 3.300E00:2 3.300E00:3 3.300E00:4 3.300E00:5 3.235E00:6 2.426E00:7 0.000E00:8 1.252E-04:9 -2.863E-12:a -1.252E-04:b 
0.000E00:c -1.252E-04:d 8.838E-13:e 1.252E-04:f 0.000E00:10 -1.272E-04:11 2.870E-12:12 1.272E-04:13 0.000E00:14 
#C 2.0000000000E-11 20
3.300E00:1 3.300E00:2 3.300E00:3 3.300E00:4 3.300E00:5 3.235E00:6 2.426E00:7 0.000E00:8 1.252E-04:9 -4.013E-12:a -1.252E-04:b 
-7.257E-12:c -1.252E-04:d 1.205E-12:e 1.252E-04:f -2.631E-12:10 -1.272E-04:11 3.192E-12:12 1.272E-04:13 -2.649E-12:14 
#C 4.0000000000E-11 20
3.300E00:1 3.300E00:2 3.300E00:3 3.300E00:4 3.300E00:5 3.235E00:6 2.426E00:7 0.000E00:8 1.252E-04:9 -4.013E-12:a -1.252E-04:b 
-7.257E-12:c -1.252E-04:d 1.205E-12:e 1.252E-04:f -2.631E-12:10 -1.272E-04:11 3.192E-12:12 1.272E-04:13 -2.649E-12:14 
#C 8.0000304580E-11 20
3.300E00:1 3.300E00:2 3.300E00:3 3.300E00:4 3.300E00:5 3.235E00:6 2.426E00:7 0.000E00:8 1.252E-04:9 -2.863E-12:a -1.252E-04:b 
0.000E00:c -1.252E-04:d 8.838E-13:e 1.252E-04:f 0.000E00:10 -1.272E-04:11 2.870E-12:12 1.272E-04:13 0.000E00:14 
#C 1.6000091374E-10 20
3.300E00:1 3.300E00:2 3.300E00:3 3.300E00:4 3.300E00:5 3.235E00:6 2.426E00:7 0.000E00:8 1.252E-04:9 -2.863E-12:a -1.252E-04:b 
0.000E00:c -1.252E-04:d 8.838E-13:e 1.252E-04:f 0.000E00:10 -1.272E-04:11 2.870E-12:12 1.272E-04:13 0.000E00:14 
#C 3.2000213206E-10 20
3.300E00:1 3.300E00:2 3.300E00:3 3.300E00:4 3.300E00:5 3.235E00:6 2.426E00:7 0.000E00:8 1.252E-04:9 -2.863E-12:a -1.252E-04:b 
0.000E00:c -1.252E-04:d 8.838E-13:e 1.252E-04:f 0.000E00:10 -1.272E-04:11 2.870E-12:12 1.272E-04:13 0.000E00:14 
#C 6.4000456870E-10 20
3.300E00:1 3.300E00:2 3.300E00:3 3.300E00:4 3.300E00:5 3.235E00:6 2.426E00:7 0.000E00:8 1.252E-04:9 -2.863E-12:a -1.252E-04:b 
0.000E00:c -1.252E-04:d 8.838E-13:e 1.252E-04:f 0.000E00:10 -1.272E-04:11 2.870E-12:12 1.272E-04:13 0.000E00:14 
#C 1.2800094420E-09 20
3.300E00:1 3.300E00:2 3.300E00:3 3.300E00:4 3.300E00:5 3.235E00:6 2.426E00:7 0.000E00:8 1.252E-04:9 -2.863E-12:a -1.252E-04:b 
0.000E00:c -1.252E-04:d 8.838E-13:e 1.252E-04:f 0.000E00:10 -1.272E-04:11 2.870E-12:12 1.272E-04:13 0.000E00:14 
#C 2.0000000010E-09 20
3.300E00:1 3.300E00:2 3.300E00:3 3.300E00:4 3.300E00:5 3.235E00:6 2.426E00:7 1.333E-10:8 1.252E-04:9 -2.863E-12:a -1.252E-04:b 
0.000E00:c -1.252E-04:d 8.838E-13:e 1.252E-04:f 0.000E00:10 -1.272E-04:11 2.870E-12:12 1.272E-04:13 0.000E00:14 
#C 2.0200000009E-09 20
3.300E00:1 3.300E00:2 3.300E00:3 3.300E00:4 3.300E00:5 3.235E00:6 2.428E00:7 1.946E-03:8 1.038E-04:9 7.078E-06:a -1.613E-04:b 
5.044E-05:c -6.684E-04:d -1.527E-04:e -4.304E-04:f 1.252E-03:10 -6.784E-04:11 -1.529E-04:12 -4.281E-04:13 1.259E-03:14 
#C 2.0600003055E-09 20
3.300E00:1 3.300E00:2 3.300E00:3 3.300E00:4 3.300E00:5 3.235E00:6 2.436E00:7 3.459E-03:8 9.742E-05:9 9.795E-06:a -1.793E-04:b 
7.207E-05:c -1.084E-03:d -2.704E-04:e -8.611E-04:f 2.216E-03:10 -1.100E-03:11 -2.707E-04:12 -8.586E-04:13 2.230E-03:14 
#C 2.1400009146E-09 20
3.300E00:1 3.300E00:2 3.300E00:3 3.300E00:4 3.300E00:5 3.235E00:6 2.451E00:7 3.962E-03:8 1.204E-04:9 3.889E-06:a -1.605E-04:b 
3.625E-05:c -1.208E-03:d -3.074E-04:e -1.002E-03:f 2.517E-03:10 -1.226E-03:11 -3.078E-04:12 -9.991E-04:13 2.533E-03:14 
#C 2.2000000010E-09 20
3.300E00:1 3.300E00:2 3.300E00:3 3.300E00:4 3.300E00:5 3.235E00:6 2.464E00:7 3.995E-03:8 1.278E-04:9 1.937E-06:a -1.538E-04:b 
2.401E-05:c -1.207E-03:d -3.090E-04:e -1.013E-03:f 2.529E-03:10 -1.226E-03:11 -3.093E-04:12 -1.010E-03:13 2.545E-03:14 
#C 2.2160001228E-09 20
3.300E00:1 3.300E00:2 3.300E00:3 3.300E00:4 3.300E00:5 3.235E00:6 2.467E00:7 3.871E-03:8 1.244E-04:9 2.913E-06:a -1.574E-04:b 
3.013E-05:c -1.203E-03:d -3.083E-04:e -1.012E-03:f 2.523E-03:10 -1.222E-03:11 -3.087E-04:12 -1.009E-03:13 2.539E-03:14 
#C 2.2480026948E-09 20
3.300E00:1 3.300E00:2 3.300E00:3 3.300E00:4 3.300E00:5 3.235E00:6 2.474E00:7 3.633E-03:8 1.245E-04:9 2.913E-06:a -1.576E-04:b 
3.013E-05:c -1.099E-03:d -2.798E-04:e -9.106E-04:f 2.289E-03:10 -1.116E-03:11 -2.801E-04:12 -9.083E-04:13 2.304E-03:14 
#C 2.3120078387E-09 20
3.300E00:1 3.300E00:2 3.300E00:3 3.300E00:4 3.300E00:5 3.235E00:6 2.485E00:7 3.197E-03:8 1.641E-04:9 -8.786E-06:a -1.076E-04:b 
-4.770E-05:c -9.646E-04:d -2.436E-04:e -7.839E-04:f 1.992E-03:10 -9.800E-04:11 -2.439E-04:12 -7.816E-04:13 2.006E-03:14 
#C 2.4400181266E-09 20
3.300E00:1 3.300E00:2 3.300E00:3 3.300E00:4 3.300E00:5 3.235E00:6 2.504E00:7 2.475E-03:8 1.817E-04:9 -1.383E-05:a -8.812E-05:b 
-7.973E-05:c -7.498E-04:d -1.856E-04:e -5.808E-04:f 1.516E-03:10 -7.623E-04:11 -1.858E-04:12 -5.788E-04:13 1.527E-03:14 
#C 2.6960387024E-09 20
3.300E00:1 3.300E00:2 3.300E00:3 3.300E00:4 3.300E00:5 3.235E00:6 2.530E00:7 1.483E-03:8 1.924E-04:9 -1.797E-05:a -6.522E-05:b 
-1.092E-04:c -4.590E-04:d -1.068E-04:e -3.057E-04:f 8.715E-04:10 -4.673E-04:11 -1.070E-04:12 -3.040E-04:13 8.783E-04:14 
#C 3.2080798539E-09 20
3.300E00:1 3.300E00:2 3.300E00:3 3.300E00:4 3.300E00:5 3.235E00:6 2.554E00:7 5.327E-04:8 1.638E-04:9 -1.183E-05:a -7.872E-05:b 
-7.324E-05:c -1.922E-04:d -3.420E-05:e -5.267E-05:f 2.791E-04:10 -1.963E-04:11 -3.424E-05:12 -5.130E-05:13 2.819E-04:14 
#C 4.2321621570E-09 20
3.300E00:1 3.300E00:2 3.300E00:3 3.300E00:4 3.300E00:5 3.235E00:6 2.567E00:7 6.870E-05:8 1.131E-04:9 1.038E-06:a -1.207E-04:b 
6.608E-06:c -7.227E-05:d -1.704E-06:e 6.043E-05:f 1.354E-05:10 -7.389E-05:11 -1.710E-06:12 6.165E-05:13 1.395E-05:14 
#C 5.3246035370E-09 20
3.300E00:1 3.300E00:2 3.300E00:3 3.300E00:4 3.300E00:5 3.235E00:6 2.566E00:7 7.728E-06:8 1.065E-04:9 3.213E-06:a -1.299E-04:b 
2.016E-05:c -5.759E-05:d 2.572E-06:e 7.563E-05:f -2.061E-05:10 -5.876E-05:11 2.580E-06:12 7.682E-05:13 -2.064E-05:14 
#C 7.4711158070E-09 20
3.300E00:1 3.300E00:2 3.300E00:3 3.300E00:4 3.300E00:5 3.235E00:6 2.562E00:7 1.056E-07:8 1.141E-04:9 2.092E-06:a -1.292E-04:b 
1.305E-05:c -5.542E-05:d 3.538E-06:e 8.107E-05:f -2.918E-05:10 -5.648E-05:11 3.539E-06:12 8.230E-05:13 -2.935E-05:14 
#C 1.0829837540E-08 20
3.300E00:1 3.300E00:2 3.300E00:3 3.300E00:4 3.300E00:5 3.235E00:6 2.554E00:7 1.277E-10:8 1.213E-04:9 1.009E-06:a -1.285E-04:b 
6.209E-06:c -5.725E-05:d 3.917E-06:e 8.527E-05:f -3.194E-05:10 -5.832E-05:11 3.923E-06:12 8.653E-05:13 -3.213E-05:14 
#C 1.5000000001E-08 20
3.300E00:1 3.300E00:2 3.300E00:3 3.300E00:4 3.300E00:5 3.235E00:6 2.543E00:7 3.049E-14:8 1.248E-04:9 8.417E-07:a -1.308E-04:b 
5.156E-06:c -6.140E-05:d 3.871E-06:e 8.911E-05:f -3.158E-05:10 -6.253E-05:11 3.877E-06:12 9.043E-05:13 -3.177E-05:14 
#C 1.5100000001E-08 20
3.300E00:1 3.300E00:2 3.300E00:3 3.300E00:4 3.300E00:5 3.235E00:6 2.543E00:7 2.496E-14:8 1.238E-04:9 1.124E-06:a -1.319E-04:b 
6.937E-06:c -6.186E-05:d 3.770E-06:e 8.884E-05:f -3.076E-05:10 -6.300E-05:11 3.776E-06:12 9.016E-05:13 -3.093E-05:14 
#C 1.5300001524E-08 20
3.300E00:1 3.300E00:2 3.300E00:3 3.300E00:4 3.300E00:5 3.235E00:6 2.542E00:7 1.673E-14:8 1.239E-04:9 1.124E-06:a -1.320E-04:b 
6.937E-06:c -6.205E-05:d 3.770E-06:e 8.904E-05:f -3.076E-05:10 -6.320E-05:11 3.775E-06:12 9.036E-05:13 -3.093E-05:14 
#C 1.5350001905E-08 20
3.300E00:1 3.300E00:2 3.300E00:3 3.300E00:4 3.300E00:5 3.235E00:6 2.542E00:7 1.514E-14:8 1.240E-04:9 1.124E-06:a -1.320E-04:b 
6.937E-06:c -6.210E-05:d 3.770E-06:e 8.909E-05:f -3.075E-05:10 -6.325E-05:11 3.775E-06:12 9.041E-05:13 -3.093E-05:14 
#C 1.5450002666E-08 20
3.300E00:1 3.300E00:2 3.300E00:3 3.300E00:4 3.300E00:5 3.235E00:6 2.542E00:7 1.240E-14:8 1.240E-04:9 1.124E-06:a -1.321E-04:b 
6.937E-06:c -6.220E-05:d 3.770E-06:e 8.918E-05:f -3.075E-05:10 -6.335E-05:11 3.775E-06:12 9.051E-05:13 -3.093E-05:14 
#C 1.5475002856E-08 20
3.300E00:1 3.300E00:2 3.300E00:3 3.300E00:4 3.300E00:5 3.235E00:6 2.542E00:7 1.179E-14:8 1.241E-04:9 1.124E-06:a -1.321E-04:b 
6.937E-06:c -6.222E-05:d 3.770E-06:e 8.921E-05:f -3.075E-05:10 -6.337E-05:11 3.775E-06:12 9.053E-05:13 -3.093E-05:14 
#C 1.5525003237E-08 20
3.300E00:1 3.300E00:2 3.300E00:3 3.300E00:4 3.300E00:5 3.235E00:6 2.542E00:7 1.067E-14:8 1.241E-04:9 1.124E-06:a -1.322E-04:b 
6.937E-06:c -6.227E-05:d 3.770E-06:e 8.926E-05:f -3.075E-05:10 -6.342E-05:11 3.775E-06:12 9.058E-05:13 -3.093E-05:14 
#C 1.5537503332E-08 20
3.300E00:1 3.300E00:2 3.300E00:3 3.300E00:4 3.300E00:5 3.235E00:6 2.542E00:7 1.041E-14:8 1.241E-04:9 1.124E-06:a -1.322E-04:b 
6.937E-06:c -6.228E-05:d 3.770E-06:e 8.927E-05:f -3.075E-05:10 -6.343E-05:11 3.775E-06:12 9.059E-05:13 -3.093E-05:14 
#C 1.5562503523E-08 20
3.300E00:1 3.300E00:2 3.300E00:3 3.300E00:4 3.300E00:5 3.235E00:6 2.542E00:7 9.897E-15:8 1.241E-04:9 1.124E-06:a -1.322E-04:b 
6.937E-06:c -6.231E-05:d 3.770E-06:e 8.929E-05:f -3.075E-05:10 -6.346E-05:11 3.775E-06:12 9.062E-05:13 -3.093E-05:14 
#C 1.5568753570E-08 20
3.300E00:1 3.300E00:2 3.300E00:3 3.300E00:4 3.300E00:5 3.235E00:6 2.542E00:7 9.775E-15:8 1.241E-04:9 1.124E-06:a -1.322E-04:b 
6.937E-06:c -6.231E-05:d 3.770E-06:e 8.930E-05:f -3.075E-05:10 -6.346E-05:11 3.775E-06:12 9.062E-05:13 -3.093E-05:14 
#C 1.5581253665E-08 20
3.300E00:1 3.300E00:2 3.300E00:3 3.300E00:4 3.300E00:5 3.235E00:6 2.542E00:7 9.533E-15:8 1.241E-04:9 1.124E-06:a -1.322E-04:b 
6.937E-06:c -6.233E-05:d 3.770E-06:e 8.931E-05:f -3.075E-05:10 -6.348E-05:11 3.775E-06:12 9.064E-05:13 -3.093E-05:14 
#C 1.5606253856E-08 20
3.300E00:1 3.300E00:2 3.300E00:3 3.300E00:4 3.300E00:5 3.235E00:6 2.542E00:7 9.068E-15:8 1.242E-04:9 1.124E-06:a -1.322E-04:b 
6.937E-06:c -6.235E-05:d 3.770E-06:e 8.933E-05:f -3.075E-05:10 -6.350E-05:11 3.775E-06:12 9.066E-05:13 -3.093E-05:14 
#C 1.5656254236E-08 20
3.300E00:1 3.300E00:2 3.300E00:3 3.300E00:4 3.300E00:5 3.235E00:6 2.541E00:7 8.205E-15:8 1.242E-04:9 1.124E-06:a -1.322E-04:b 
6.937E-06:c -6.240E-05:d 3.770E-06:e 8.938E-05:f -3.075E-05:10 -6.355E-05:11 3.775E-06:12 9.071E-05:13 -3.093E-05:14 
#C 1.5731190779E-08 20
3.300E00:1 3.300E00:2 3.300E00:3 3.300E00:4 3.300E00:5 3.235E00:6 2.541E00:7 7.063E-15:8 1.242E-04:9 1.124E-06:a -1.323E-04:b 
6.937E-06:c -6.247E-05:d 3.770E-06:e 8.946E-05:f -3.075E-05:10 -6.362E-05:11 3.775E-06:12 9.078E-05:13 -3.093E-05:14 
#C 1.5845429134E-08 20
3.300E00:1 3.300E00:2 3.300E00:3 3.300E00:4 3.300E00:5 3.235E00:6 2.541E00:7 5.621E-15:8 1.243E-04:9 1.124E-06:a -1.324E-04:b 
6.937E-06:c -6.258E-05:d 3.770E-06:e 8.957E-05:f -3.075E-05:10 -6.374E-05:11 3.775E-06:12 9.090E-05:13 -3.093E-05:14 
#C 1.6000000001E-08 20
3.300E00:1 3.300E00:2 3.300E00:3 3.300E00:4 3.300E00:5 3.235E00:6 2.541E00:7 4.126E-15:8 1.244E-04:9 1.124E-06:a -1.325E-04:b 
6.937E-06:c -6.273E-05:d 3.770E-06:e 8.972E-05:f -3.075E-05:10 -6.389E-05:11 3.775E-06:12 9.105E-05:13 -3.093E-05:14 
#C 1.6022847672E-08 20
3.300E00:1 3.300E00:2 3.300E00:3 3.300E00:4 3.300E00:5 3.235E00:6 2.541E00:7 3.942E-15:8 1.244E-04:9 1.124E-06:a -1.325E-04:b 
6.937E-06:c -6.276E-05:d 3.770E-06:e 8.974E-05:f -3.075E-05:10 -6.391E-05:11 3.775E-06:12 9.107E-05:13 -3.093E-05:14 
#C 1.6068540686E-08 20
3.300E00:1 3.300E00:2 3.300E00:3 3.300E00:4 3.300E00:5 3.235E00:6 2.540E00:7 3.598E-15:8 1.245E-04:9 1.124E-06:a -1.325E-04:b 
6.937E-06:c -6.280E-05:d 3.770E-06:e 8.979E-05:f -3.075E-05:10 -6.396E-05:11 3.775E-06:12 9.112E-05:13 -3.093E-05:14 
#C 1.6159926714E-08 20
3.300E00:1 3.300E00:2 3.300E00:3 3.300E00:4 3.300E00:5 3.235E00:6 2.540E00:7 2.997E-15:8 1.245E-04:9 1.124E-06:a -1.326E-04:b 
6.937E-06:c -6.289E-05:d 3.770E-06:e 8.988E-05:f -3.075E-05:10 -6.405E-05:11 3.775E-06:12 9.121E-05:13 -3.093E-05:14 
#C 1.6342698769E-08 20
3.300E00:1 3.300E00:2 3.300E00:3 3.300E00:4 3.300E00:5 3.235E00:6 2.540E00:7 2.079E-15:8 1.247E-04:9 1.124E-06:a -1.327E-04:b 
6.937E-06:c -6.307E-05:d 3.769E-06:e 9.005E-05:f -3.075E-05:10 -6.423E-05:11 3.775E-06:12 9.139E-05:13 -3.093E-05:14 
#C 1.6708242879E-08 20
3.300E00:1 3.300E00:2 3.300E00:3 3.300E00:4 3.300E00:5 3.235E00:6 2.539E00:7 1.001E-15:8 1.249E-04:9 1.124E-06:a -1.330E-04:b 
6.938E-06:c -6.343E-05:d 3.769E-06:e 9.041E-05:f -3.075E-05:10 -6.459E-05:11 3.775E-06:12 9.175E-05:13 -3.093E-05:14 
#C 1.7439331100E-08 20
3.300E00:1 3.300E00:2 3.300E00:3 3.300E00:4 3.300E00:5 3.235E00:6 2.537E00:7 2.316E-16:8 1.254E-04:9 1.124E-06:a -1.335E-04:b 
6.938E-06:c -6.415E-05:d 3.769E-06:e 9.113E-05:f -3.075E-05:10 -6.532E-05:11 3.774E-06:12 9.248E-05:13 -3.093E-05:14 
#C 1.8901507543E-08 20
3.300E00:1 3.300E00:2 3.300E00:3 3.300E00:4 3.300E00:5 3.235E00:6 2.533E00:7 1.214E-17:8 1.275E-04:9 7.578E-07:a -1.329E-04:b 
4.630E-06:c -6.559E-05:d 3.768E-06:e 9.258E-05:f -3.075E-05:10 -6.679E-05:11 3.774E-06:12 9.395E-05:13 -3.093E-05:14 
#C 1.9000000001E-08 20
3.300E00:1 3.300E00:2 3.300E00:3 3.300E00:4 3.300E00:5 3.235E00:6 2.533E00:7 1.041E-17:8 1.271E-04:9 9.042E-07:a -1.335E-04:b 
5.554E-06:c -6.569E-05:d 3.768E-06:e 9.268E-05:f -3.075E-05:10 -6.689E-05:11 3.773E-06:12 9.405E-05:13 -3.093E-05:14 
#C 1.9100000001E-08 20
3.300E00:1 3.300E00:2 3.300E00:3 3.300E00:4 3.300E00:5 3.235E00:6 2.533E00:7 8.674E-18:8 1.271E-04:9 9.042E-07:a -1.336E-04:b 
5.554E-06:c -6.579E-05:d 3.768E-06:e 9.278E-05:f -3.075E-05:10 -6.699E-05:11 3.773E-06:12 9.415E-05:13 -3.093E-05:14 
#C 1.9276089817E-08 20
3.300E00:1 3.300E00:2 3.300E00:3 3.300E00:4 3.300E00:5 3.235E00:6 2.532E00:7 6.072E-18:8 1.272E-04:9 9.043E-07:a -1.337E-04:b 
5.554E-06:c -6.597E-05:d 3.768E-06:e 9.295E-05:f -3.075E-05:10 -6.717E-05:11 3.773E-06:12 9.433E-05:13 -3.093E-05:14 
#C 1.9628269448E-08 20
3.300E00:1 3.300E00:2 3.300E00:3 3.300E00:4 3.300E00:5 3.235E00:6 2.531E00:7 3.469E-18:8 1.274E-04:9 9.043E-07:a -1.339E-04:b 
5.554E-06:c -6.632E-05:d 3.768E-06:e 9.330E-05:f -3.075E-05:10 -6.752E-05:11 3.773E-06:12 9.468E-05:13 -3.093E-05:14 
#C 2.0000000001E-08 20
3.300E00:1 3.300E00:2 3.300E00:3 3.300E00:4 3.300E00:5 3.235E00:6 2.530E00:7 0.000E00:8 1.276E-04:9 9.043E-07:a -1.341E-04:b 
5.554E-06:c -6.669E-05:d 3.768E-06:e 9.367E-05:f -3.075E-05:10 -6.790E-05:11 3.773E-06:12 9.506E-05:13 -3.093E-05:14 
#C 2.0070435927E-08 20
3.300E00:1 3.300E00:2 3.300E00:3 3.300E00:4 3.300E00:5 3.235E00:6 2.530E00:7 0.000E00:8 1.276E-04:9 9.043E-07:a -1.341E-04:b 
5.554E-06:c -6.676E-05:d 3.768E-06:e 9.374E-05:f -3.075E-05:10 -6.797E-05:11 3.773E-06:12 9.513E-05:13 -3.093E-05:14 
#C 2.0211298467E-08 20
3.300E00:1 3.300E00:2 3.300E00:3 3.300E00:4 3.300E00:5 3.235E00:6 2.530E00:7 0.000E00:8 1.277E-04:9 9.043E-07:a -1.342E-04:b 
5.554E-06:c -6.690E-05:d 3.768E-06:e 9.389E-05:f -3.075E-05:10 -6.812E-05:11 3.773E-06:12 9.527E-05:13 -3.093E-05:14 
#C 2.0493023546E-08 20
3.300E00:1 3.300E00:2 3.300E00:3 3.300E00:4 3.300E00:5 3.235E00:6 2.529E00:7 0.000E00:8 1.279E-04:9 9.043E-07:a -1.343E-04:b 
5.554E-06:c -6.718E-05:d 3.767E-06:e 9.417E-05:f -3.075E-05:10 -6.840E-05:11 3.773E-06:12 9.556E-05:13 -3.093E-05:14 
#C 2.1056473703E-08 20
3.300E00:1 3.300E00:2 3.300E00:3 3.300E00:4 3.300E00:5 3.235E00:6 2.528E00:7 0.000E00:8 1.282E-04:9 9.044E-07:a -1.346E-04:b 
5.554E-06:c -6.775E-05:d 3.767E-06:e 9.473E-05:f -3.075E-05:10 -6.898E-05:11 3.772E-06:12 9.613E-05:13 -3.093E-05:14 
#C 2.2183374018E-08 20
3.300E00:1 3.300E00:2 3.300E00:3 3.300E00:4 3.300E00:5 3.235E00:6 2.525E00:7 0.000E00:8 1.288E-04:9 9.045E-07:a -1.353E-04:b 
5.555E-06:c -6.889E-05:d 3.767E-06:e 9.587E-05:f -3.075E-05:10 -7.013E-05:11 3.772E-06:12 9.729E-05:13 -3.093E-05:14 
#C 2.4437174649E-08 20
3.300E00:1 3.300E00:2 3.300E00:3 3.300E00:4 3.300E00:5 3.235E00:6 2.519E00:7 0.000E00:8 1.296E-04:9 1.074E-06:a -1.373E-04:b 
6.636E-06:c -7.198E-05:d 3.516E-06:e 9.717E-05:f -2.871E-05:10 -7.324E-05:11 3.521E-06:12 9.862E-05:13 -2.890E-05:14 
#C 2.8944775910E-08 20
3.300E00:1 3.300E00:2 3.300E00:3 3.300E00:4 3.300E00:5 3.235E00:6 2.508E00:7 0.000E00:8 1.331E-04:9 8.305E-07:a -1.391E-04:b 
5.099E-06:c -7.651E-05:d 3.456E-06:e 1.013E-04:f -2.823E-05:10 -7.787E-05:11 3.461E-06:12 1.028E-04:13 -2.839E-05:14 
#C 3.5000000001E-08 20
3.300E00:1 3.300E00:2 3.300E00:3 3.300E00:4 3.300E00:5 3.235E00:6 2.495E00:7 0.000E00:8 1.368E-04:9 5.138E-07:a -1.404E-04:b 
3.111E-06:c -8.286E-05:d 3.286E-06:e 1.064E-04:f -2.686E-05:10 -8.425E-05:11 3.290E-06:12 1.080E-04:13 -2.705E-05:14 
#C 3.5100000001E-08 20
3.300E00:1 3.300E00:2 3.300E00:3 3.300E00:4 3.300E00:5 3.235E00:6 2.494E00:7 0.000E00:8 1.362E-04:9 6.737E-07:a -1.410E-04:b 
4.116E-06:c -8.270E-05:d 3.358E-06:e 1.068E-04:f -2.745E-05:10 -8.410E-05:11 3.362E-06:12 1.084E-04:13 -2.763E-05:14 
#C 3.5300001524E-08 20
3.300E00:1 3.300E00:2 3.300E00:3 3.300E00:4 3.300E00:5 3.235E00:6 2.494E00:7 0.000E00:8 1.363E-04:9 6.737E-07:a -1.411E-04:b 
4.116E-06:c -8.289E-05:d 3.358E-06:e 1.070E-04:f -2.745E-05:10 -8.430E-05:11 3.362E-06:12 1.086E-04:13 -2.763E-05:14 
#C 3.5350001905E-08 20
3.300E00:1 3.300E00:2 3.300E00:3 3.300E00:4 3.300E00:5 3.235E00:6 2.494E00:7 0.000E00:8 1.363E-04:9 6.737E-07:a -1.411E-04:b 
4.116E-06:c -8.294E-05:d 3.358E-06:e 1.070E-04:f -2.745E-05:10 -8.434E-05:11 3.362E-06:12 1.086E-04:13 -2.763E-05:14 
#C 3.5450002666E-08 20
3.300E00:1 3.300E00:2 3.300E00:3 3.300E00:4 3.300E00:5 3.235E00:6 2.494E00:7 0.000E00:8 1.364E-04:9 6.737E-07:a -1.412E-04:b 
4.116E-06:c -8.304E-05:d 3.358E-06:e 1.071E-04:f -2.745E-05:10 -8.444E-05:11 3.362E-06:12 1.087E-04:13 -2.763E-05:14 
#C 3.5475002856E-08 20
3.300E00:1 3.300E00:2 3.300E00:3 3.300E00:4 3.300E00:5 3.235E00:6 2.493E00:7 0.000E00:8 1.364E-04:9 6.737E-07:a -1.412E-04:b 
4.116E-06:c -8.306E-05:d 3.358E-06:e 1.072E-04:f -2.745E-05:10 -8.447E-05:11 3.362E-06:12 1.087E-04:13 -2.763E-05:14 
#C 3.5525003237E-08 20
3.300E00:1 3.300E00:2 3.300E00:3 3.300E00:4 3.300E00:5 3.235E00:6 2.493E00:7 0.000E00:8 1.364E-04:9 6.737E-07:a -1.412E-04:b 
4.116E-06:c -8.311E-05:d 3.358E-06:e 1.072E-04:f -2.745E-05:10 -8.452E-05:11 3.362E-06:12 1.088E-04:13 -2.763E-05:14 
#C 3.5625003999E-08 20
3.300E00:1 3.300E00:2 3.300E00:3 3.300E00:4 3.300E00:5 3.235E00:6 2.493E00:7 0.000E00:8 1.365E-04:9 6.737E-07:a -1.412E-04:b 
4.116E-06:c -8.321E-05:d 3.358E-06:e 1.073E-04:f -2.745E-05:10 -8.461E-05:11 3.362E-06:12 1.089E-04:13 -2.763E-05:14 
#C 3.5650004189E-08 20
3.300E00:1 3.300E00:2 3.300E00:3 3.300E00:4 3.300E00:5 3.235E00:6 2.493E00:7 0.000E00:8 1.365E-04:9 6.737E-07:a -1.413E-04:b 
4.116E-06:c -8.323E-05:d 3.358E-06:e 1.073E-04:f -2.745E-05:10 -8.464E-05:11 3.362E-06:12 1.089E-04:13 -2.763E-05:14 
#C 3.5700004570E-08 20
3.300E00:1 3.300E00:2 3.300E00:3 3.300E00:4 3.300E00:5 3.235E00:6 2.493E00:7 0.000E00:8 1.365E-04:9 6.737E-07:a -1.413E-04:b 
4.116E-06:c -8.328E-05:d 3.358E-06:e 1.074E-04:f -2.745E-05:10 -8.469E-05:11 3.362E-06:12 1.090E-04:13 -2.763E-05:14 
#C 3.5800005331E-08 20
3.300E00:1 3.300E00:2 3.300E00:3 3.300E00:4 3.300E00:5 3.235E00:6 2.493E00:7 0.000E00:8 1.365E-04:9 6.737E-07:a -1.413E-04:b 
4.116E-06:c -8.337E-05:d 3.358E-06:e 1.075E-04:f -2.745E-05:10 -8.478E-05:11 3.362E-06:12 1.091E-04:13 -2.763E-05:14 
#C 3.6000000001E-08 20
3.300E00:1 3.300E00:2 3.300E00:3 3.300E00:4 3.300E00:5 3.235E00:6 2.492E00:7 0.000E00:8 1.366E-04:9 6.737E-07:a -1.414E-04:b 
4.116E-06:c -8.357E-05:d 3.358E-06:e 1.077E-04:f -2.745E-05:10 -8.498E-05:11 3.362E-06:12 1.093E-04:13 -2.763E-05:14 
#C 3.6020000153E-08 20
3.300E00:1 3.300E00:2 3.300E00:3 3.300E00:4 3.300E00:5 3.235E00:6 2.492E00:7 0.000E00:8 1.366E-04:9 6.737E-07:a -1.414E-04:b 
