#H
SOURCE='PSPICE' VERSION='PSpice 16.0.0 (July 2006)'
TITLE='**** 05/18/10 12:08:24 ******* PSpice 16.0.0 (July 2006) ****** ID# 0 ********'
SUBTITLE=''
TIME='12:00:27' DATE='06/04/10' TEMPERATURE='2.700E01'
ANALYSIS='Transient Analysis' SERIALNO='61413'
ALLVALUES='NO' COMPLEXVALUES='NO' NODES='20'
SWEEPVAR='Time' SWEEPMODE='VAR_STEP'
XBEGIN='0.000E00' XEND='5.000E-07'
FORMAT='0 VOLTSorAMPS;EFLOAT : NODEorBRANCH;NODE  '
DGTLDATA='NO' 
#N 
'V(C_F_D_LSB)' 'V(C_F_D_2SB)' 'V(C_F_D_3SB)' 'V(C_F_D_4SB)' 'V(C_F_D_5SB)' 'V(C_F_C32_MSB)' 'V(C_F_C1_NDNEG)' 'I(I_INY1)' 
'ID(M_C_F_C1_M3)' 'IB(M_C_F_C1_M3)' 'IS(M_C_F_C1_M3)' 'IG(M_C_F_C1_M3)' 'ID(M_C_F_C1_M1)' 'IB(M_C_F_C1_M1)' 'IS(M_C_F_C1_M1)' 
'IG(M_C_F_C1_M1)' 'ID(M_C_F_C1_M4)' 'IB(M_C_F_C1_M4)' 'IS(M_C_F_C1_M4)' 'IG(M_C_F_C1_M4)' 
#C 0.0000000000E00 20
3.300E00:1 3.300E00:2 3.300E00:3 3.300E00:4 3.300E00:5 3.235E00:6 2.425E00:7 0.000E00:8 -1.258E-04:9 8.850E-13:a 1.258E-04:b 
0.000E00:c 1.258E-04:d -2.862E-12:e -1.258E-04:f 0.000E00:10 -1.265E-04:11 1.579E-12:12 1.265E-04:13 0.000E00:14 
#C 2.0000000000E-11 20
3.300E00:1 3.300E00:2 3.300E00:3 3.300E00:4 3.300E00:5 3.235E00:6 2.425E00:7 0.000E00:8 -1.258E-04:9 -1.129E-13:a 1.258E-04:b 
8.178E-12:c 1.258E-04:d -4.549E-12:e -1.258E-04:f -1.060E-11:10 -1.265E-04:11 5.804E-13:12 1.265E-04:13 8.237E-12:14 
#C 4.0000000000E-11 20
3.300E00:1 3.300E00:2 3.300E00:3 3.300E00:4 3.300E00:5 3.235E00:6 2.425E00:7 0.000E00:8 -1.258E-04:9 -1.129E-13:a 1.258E-04:b 
8.178E-12:c 1.258E-04:d -4.549E-12:e -1.258E-04:f -1.060E-11:10 -1.265E-04:11 5.804E-13:12 1.265E-04:13 8.237E-12:14 
#C 8.0000304580E-11 20
3.300E00:1 3.300E00:2 3.300E00:3 3.300E00:4 3.300E00:5 3.235E00:6 2.425E00:7 0.000E00:8 -1.258E-04:9 8.850E-13:a 1.258E-04:b 
0.000E00:c 1.258E-04:d -2.862E-12:e -1.258E-04:f 0.000E00:10 -1.265E-04:11 1.579E-12:12 1.265E-04:13 0.000E00:14 
#C 1.6000091374E-10 20
3.300E00:1 3.300E00:2 3.300E00:3 3.300E00:4 3.300E00:5 3.235E00:6 2.425E00:7 0.000E00:8 -1.258E-04:9 8.850E-13:a 1.258E-04:b 
0.000E00:c 1.258E-04:d -2.862E-12:e -1.258E-04:f 0.000E00:10 -1.265E-04:11 1.579E-12:12 1.265E-04:13 0.000E00:14 
#C 3.2000213206E-10 20
3.300E00:1 3.300E00:2 3.300E00:3 3.300E00:4 3.300E00:5 3.235E00:6 2.425E00:7 0.000E00:8 -1.258E-04:9 8.850E-13:a 1.258E-04:b 
0.000E00:c 1.258E-04:d -2.862E-12:e -1.258E-04:f 0.000E00:10 -1.265E-04:11 1.579E-12:12 1.265E-04:13 0.000E00:14 
#C 6.4000456870E-10 20
3.300E00:1 3.300E00:2 3.300E00:3 3.300E00:4 3.300E00:5 3.235E00:6 2.425E00:7 0.000E00:8 -1.258E-04:9 8.850E-13:a 1.258E-04:b 
0.000E00:c 1.258E-04:d -2.862E-12:e -1.258E-04:f 0.000E00:10 -1.265E-04:11 1.579E-12:12 1.265E-04:13 0.000E00:14 
#C 1.2800094420E-09 20
3.300E00:1 3.300E00:2 3.300E00:3 3.300E00:4 3.300E00:5 3.235E00:6 2.425E00:7 0.000E00:8 -1.258E-04:9 8.850E-13:a 1.258E-04:b 
0.000E00:c 1.258E-04:d -2.862E-12:e -1.258E-04:f 0.000E00:10 -1.265E-04:11 1.579E-12:12 1.265E-04:13 0.000E00:14 
#C 2.0000000010E-09 20
3.300E00:1 3.300E00:2 3.300E00:3 3.300E00:4 3.300E00:5 3.235E00:6 2.425E00:7 1.333E-10:8 -1.258E-04:9 8.850E-13:a 1.258E-04:b 
0.000E00:c 1.258E-04:d -2.862E-12:e -1.258E-04:f 0.000E00:10 -1.265E-04:11 1.579E-12:12 1.265E-04:13 0.000E00:14 
#C 2.0200000009E-09 20
3.300E00:1 3.300E00:2 3.300E00:3 3.300E00:4 3.300E00:5 3.235E00:6 2.427E00:7 1.946E-03:8 -6.594E-04:9 -1.500E-04:a -4.200E-04:b 
1.229E-03:c 1.391E-04:d -2.577E-06:e -1.260E-04:f -1.050E-05:10 -6.680E-04:11 -1.501E-04:12 -4.191E-04:13 1.237E-03:14 
#C 2.0600003055E-09 20
3.300E00:1 3.300E00:2 3.300E00:3 3.300E00:4 3.300E00:5 3.235E00:6 2.434E00:7 3.459E-03:8 -1.071E-03:9 -2.664E-04:a -8.460E-04:b 
2.183E-03:c 1.493E-04:d -4.541E-06:e -1.264E-04:f -1.842E-05:10 -1.085E-03:11 -2.666E-04:12 -8.450E-04:13 2.197E-03:14 
#C 2.1400009146E-09 20
3.300E00:1 3.300E00:2 3.300E00:3 3.300E00:4 3.300E00:5 3.235E00:6 2.450E00:7 3.962E-03:8 -1.200E-03:9 -3.050E-04:a -9.924E-04:b 
2.497E-03:c 1.493E-04:d -4.540E-06:e -1.264E-04:f -1.842E-05:10 -1.217E-03:11 -3.052E-04:12 -9.913E-04:13 2.513E-03:14 
#C 2.2000000010E-09 20
3.300E00:1 3.300E00:2 3.300E00:3 3.300E00:4 3.300E00:5 3.235E00:6 2.462E00:7 3.995E-03:8 -1.201E-03:9 -3.070E-04:a -1.005E-03:b 
2.512E-03:c 1.551E-04:d -5.507E-06:e -1.283E-04:f -2.127E-05:10 -1.218E-03:11 -3.072E-04:12 -1.003E-03:13 2.528E-03:14 
#C 2.2160001228E-09 20
3.300E00:1 3.300E00:2 3.300E00:3 3.300E00:4 3.300E00:5 3.235E00:6 2.466E00:7 3.871E-03:8 -1.177E-03:9 -3.007E-04:a -9.832E-04:b 
2.461E-03:c 1.534E-04:d -5.217E-06:e -1.277E-04:f -2.041E-05:10 -1.194E-03:11 -3.009E-04:12 -9.821E-04:13 2.476E-03:14 
#C 2.2480026948E-09 20
3.300E00:1 3.300E00:2 3.300E00:3 3.300E00:4 3.300E00:5 3.235E00:6 2.472E00:7 3.633E-03:8 -1.097E-03:9 -2.792E-04:a -9.078E-04:b 
2.284E-03:c 1.534E-04:d -5.217E-06:e -1.278E-04:f -2.041E-05:10 -1.113E-03:11 -2.794E-04:12 -9.067E-04:13 2.299E-03:14 
#C 2.3120078387E-09 20
3.300E00:1 3.300E00:2 3.300E00:3 3.300E00:4 3.300E00:5 3.235E00:6 2.483E00:7 3.197E-03:8 -9.732E-04:9 -2.458E-04:a -7.910E-04:b 
2.010E-03:c 1.371E-04:d -1.897E-06:e -1.295E-04:f -5.685E-06:10 -9.872E-04:11 -2.460E-04:12 -7.900E-04:13 2.023E-03:14 
#C 2.4400181266E-09 20
3.300E00:1 3.300E00:2 3.300E00:3 3.300E00:4 3.300E00:5 3.235E00:6 2.502E00:7 2.475E-03:8 -7.616E-04:9 -1.887E-04:a -5.915E-04:b 
1.542E-03:c 1.437E-04:d -3.225E-06:e -1.289E-04:f -1.157E-05:10 -7.729E-04:11 -1.889E-04:12 -5.906E-04:13 1.552E-03:14 
#C 2.6960387024E-09 20
3.300E00:1 3.300E00:2 3.300E00:3 3.300E00:4 3.300E00:5 3.235E00:6 2.529E00:7 1.483E-03:8 -4.760E-04:9 -1.115E-04:a -3.223E-04:b 
9.098E-04:c 1.329E-04:d -1.224E-06:e -1.275E-04:f -4.186E-06:10 -4.834E-04:11 -1.116E-04:12 -3.215E-04:13 9.165E-04:14 
#C 3.2080798539E-09 20
3.300E00:1 3.300E00:2 3.300E00:3 3.300E00:4 3.300E00:5 3.235E00:6 2.555E00:7 5.327E-04:8 -2.015E-04:9 -3.684E-05:a -6.231E-05:b 
3.007E-04:c 1.298E-04:d -5.949E-07:e -1.276E-04:f -1.634E-06:10 -2.050E-04:11 -3.688E-05:12 -6.174E-05:13 3.036E-04:14 
#C 4.2321621570E-09 20
3.300E00:1 3.300E00:2 3.300E00:3 3.300E00:4 3.300E00:5 3.235E00:6 2.568E00:7 6.870E-05:8 -6.836E-05:9 -6.823E-07:a 6.382E-05:b 
5.227E-06:c 1.255E-04:d 7.131E-08:e -1.253E-04:f -2.396E-07:10 -6.947E-05:11 -6.853E-07:12 6.431E-05:13 5.853E-06:14 
#C 5.3830905947E-09 20
3.300E00:1 3.300E00:2 3.300E00:3 3.300E00:4 3.300E00:5 3.235E00:6 2.571E00:7 6.875E-06:8 -5.008E-05:9 4.232E-06:a 8.036E-05:b 
-3.451E-05:c 1.259E-04:d 7.722E-08:e -1.263E-04:f 3.258E-07:10 -5.061E-05:11 4.237E-06:12 8.083E-05:13 -3.445E-05:14 
#C 7.4360980781E-09 20
3.300E00:1 3.300E00:2 3.300E00:3 3.300E00:4 3.300E00:5 3.235E00:6 2.569E00:7 1.133E-07:8 -4.916E-05:9 4.691E-06:a 8.269E-05:b 
-3.822E-05:c 1.259E-04:d 6.092E-08:e -1.262E-04:f 2.058E-07:10 -4.943E-05:11 4.696E-06:12 8.317E-05:13 -3.843E-05:14 
#C 1.1542113045E-08 20
3.300E00:1 3.300E00:2 3.300E00:3 3.300E00:4 3.300E00:5 3.235E00:6 2.560E00:7 3.073E-11:8 -5.330E-05:9 4.437E-06:a 8.502E-05:b 
-3.616E-05:c 1.259E-04:d 6.104E-08:e -1.262E-04:f 2.161E-07:10 -5.352E-05:11 4.442E-06:12 8.552E-05:13 -3.644E-05:14 
#C 1.5000000001E-08 20
3.300E00:1 3.300E00:2 3.300E00:3 3.300E00:4 3.300E00:5 3.235E00:6 2.550E00:7 3.049E-14:8 -5.803E-05:9 4.147E-06:a 8.771E-05:b 
-3.383E-05:c 1.259E-04:d 5.610E-08:e -1.261E-04:f 1.959E-07:10 -5.836E-05:11 4.152E-06:12 8.822E-05:13 -3.402E-05:14 
#C 1.5100000001E-08 20
3.300E00:1 3.300E00:2 3.300E00:3 3.300E00:4 3.300E00:5 3.235E00:6 2.549E00:7 2.496E-14:8 -5.763E-05:9 4.291E-06:a 8.834E-05:b 
-3.500E-05:c 1.259E-04:d 5.857E-08:e -1.261E-04:f 2.060E-07:10 -5.792E-05:11 4.296E-06:12 8.885E-05:13 -3.523E-05:14 
#C 1.5300001524E-08 20
3.300E00:1 3.300E00:2 3.300E00:3 3.300E00:4 3.300E00:5 3.235E00:6 2.549E00:7 1.673E-14:8 -5.785E-05:9 4.291E-06:a 8.855E-05:b 
-3.500E-05:c 1.259E-04:d 5.857E-08:e -1.261E-04:f 2.060E-07:10 -5.814E-05:11 4.296E-06:12 8.907E-05:13 -3.523E-05:14 
#C 1.5350001905E-08 20
3.300E00:1 3.300E00:2 3.300E00:3 3.300E00:4 3.300E00:5 3.235E00:6 2.549E00:7 1.514E-14:8 -5.790E-05:9 4.291E-06:a 8.861E-05:b 
-3.500E-05:c 1.259E-04:d 5.857E-08:e -1.261E-04:f 2.060E-07:10 -5.819E-05:11 4.295E-06:12 8.912E-05:13 -3.523E-05:14 
#C 1.5450002666E-08 20
3.300E00:1 3.300E00:2 3.300E00:3 3.300E00:4 3.300E00:5 3.235E00:6 2.548E00:7 1.240E-14:8 -5.801E-05:9 4.291E-06:a 8.872E-05:b 
-3.500E-05:c 1.259E-04:d 5.857E-08:e -1.261E-04:f 2.060E-07:10 -5.830E-05:11 4.295E-06:12 8.923E-05:13 -3.523E-05:14 
#C 1.5475002856E-08 20
3.300E00:1 3.300E00:2 3.300E00:3 3.300E00:4 3.300E00:5 3.235E00:6 2.548E00:7 1.179E-14:8 -5.804E-05:9 4.291E-06:a 8.875E-05:b 
-3.500E-05:c 1.259E-04:d 5.857E-08:e -1.261E-04:f 2.060E-07:10 -5.833E-05:11 4.295E-06:12 8.926E-05:13 -3.523E-05:14 
#C 1.5525003237E-08 20
3.300E00:1 3.300E00:2 3.300E00:3 3.300E00:4 3.300E00:5 3.235E00:6 2.548E00:7 1.067E-14:8 -5.809E-05:9 4.291E-06:a 8.880E-05:b 
-3.500E-05:c 1.259E-04:d 5.858E-08:e -1.261E-04:f 2.060E-07:10 -5.838E-05:11 4.295E-06:12 8.931E-05:13 -3.523E-05:14 
#C 1.5537503332E-08 20
3.300E00:1 3.300E00:2 3.300E00:3 3.300E00:4 3.300E00:5 3.235E00:6 2.548E00:7 1.041E-14:8 -5.811E-05:9 4.291E-06:a 8.881E-05:b 
-3.500E-05:c 1.259E-04:d 5.858E-08:e -1.261E-04:f 2.060E-07:10 -5.840E-05:11 4.295E-06:12 8.933E-05:13 -3.523E-05:14 
#C 1.5562503523E-08 20
3.300E00:1 3.300E00:2 3.300E00:3 3.300E00:4 3.300E00:5 3.235E00:6 2.548E00:7 9.897E-15:8 -5.814E-05:9 4.291E-06:a 8.884E-05:b 
-3.500E-05:c 1.259E-04:d 5.858E-08:e -1.261E-04:f 2.060E-07:10 -5.842E-05:11 4.295E-06:12 8.936E-05:13 -3.523E-05:14 
#C 1.5568753570E-08 20
3.300E00:1 3.300E00:2 3.300E00:3 3.300E00:4 3.300E00:5 3.235E00:6 2.548E00:7 9.775E-15:8 -5.814E-05:9 4.291E-06:a 8.885E-05:b 
-3.500E-05:c 1.259E-04:d 5.858E-08:e -1.261E-04:f 2.060E-07:10 -5.843E-05:11 4.295E-06:12 8.936E-05:13 -3.523E-05:14 
#C 1.5581253665E-08 20
3.300E00:1 3.300E00:2 3.300E00:3 3.300E00:4 3.300E00:5 3.235E00:6 2.548E00:7 9.533E-15:8 -5.816E-05:9 4.291E-06:a 8.886E-05:b 
-3.500E-05:c 1.259E-04:d 5.858E-08:e -1.261E-04:f 2.060E-07:10 -5.844E-05:11 4.295E-06:12 8.938E-05:13 -3.523E-05:14 
#C 1.5606253856E-08 20
3.300E00:1 3.300E00:2 3.300E00:3 3.300E00:4 3.300E00:5 3.235E00:6 2.548E00:7 9.068E-15:8 -5.818E-05:9 4.291E-06:a 8.889E-05:b 
-3.500E-05:c 1.259E-04:d 5.858E-08:e -1.261E-04:f 2.060E-07:10 -5.847E-05:11 4.295E-06:12 8.940E-05:13 -3.523E-05:14 
#C 1.5656254236E-08 20
3.300E00:1 3.300E00:2 3.300E00:3 3.300E00:4 3.300E00:5 3.235E00:6 2.548E00:7 8.205E-15:8 -5.824E-05:9 4.291E-06:a 8.894E-05:b 
-3.500E-05:c 1.259E-04:d 5.858E-08:e -1.261E-04:f 2.060E-07:10 -5.853E-05:11 4.295E-06:12 8.946E-05:13 -3.523E-05:14 
#C 1.5731190779E-08 20
3.300E00:1 3.300E00:2 3.300E00:3 3.300E00:4 3.300E00:5 3.235E00:6 2.547E00:7 7.063E-15:8 -5.832E-05:9 4.291E-06:a 8.903E-05:b 
-3.500E-05:c 1.259E-04:d 5.858E-08:e -1.261E-04:f 2.060E-07:10 -5.861E-05:11 4.295E-06:12 8.954E-05:13 -3.523E-05:14 
#C 1.5845429134E-08 20
3.300E00:1 3.300E00:2 3.300E00:3 3.300E00:4 3.300E00:5 3.235E00:6 2.547E00:7 5.621E-15:8 -5.845E-05:9 4.291E-06:a 8.915E-05:b 
-3.500E-05:c 1.259E-04:d 5.858E-08:e -1.261E-04:f 2.060E-07:10 -5.874E-05:11 4.295E-06:12 8.967E-05:13 -3.523E-05:14 
#C 1.6000000001E-08 20
3.300E00:1 3.300E00:2 3.300E00:3 3.300E00:4 3.300E00:5 3.235E00:6 2.547E00:7 4.126E-15:8 -5.861E-05:9 4.291E-06:a 8.932E-05:b 
-3.500E-05:c 1.259E-04:d 5.858E-08:e -1.261E-04:f 2.060E-07:10 -5.891E-05:11 4.295E-06:12 8.984E-05:13 -3.523E-05:14 
#C 1.6022847672E-08 20
3.300E00:1 3.300E00:2 3.300E00:3 3.300E00:4 3.300E00:5 3.235E00:6 2.547E00:7 3.942E-15:8 -5.864E-05:9 4.291E-06:a 8.934E-05:b 
-3.500E-05:c 1.259E-04:d 5.858E-08:e -1.261E-04:f 2.060E-07:10 -5.893E-05:11 4.295E-06:12 8.986E-05:13 -3.523E-05:14 
#C 1.6068540686E-08 20
3.300E00:1 3.300E00:2 3.300E00:3 3.300E00:4 3.300E00:5 3.235E00:6 2.546E00:7 3.598E-15:8 -5.869E-05:9 4.290E-06:a 8.939E-05:b 
-3.500E-05:c 1.258E-04:d 5.858E-08:e -1.261E-04:f 2.060E-07:10 -5.898E-05:11 4.295E-06:12 8.991E-05:13 -3.523E-05:14 
#C 1.6159926714E-08 20
3.300E00:1 3.300E00:2 3.300E00:3 3.300E00:4 3.300E00:5 3.235E00:6 2.546E00:7 2.997E-15:8 -5.879E-05:9 4.290E-06:a 8.950E-05:b 
-3.500E-05:c 1.258E-04:d 5.858E-08:e -1.261E-04:f 2.060E-07:10 -5.908E-05:11 4.295E-06:12 9.001E-05:13 -3.523E-05:14 
#C 1.6342698769E-08 20
3.300E00:1 3.300E00:2 3.300E00:3 3.300E00:4 3.300E00:5 3.235E00:6 2.546E00:7 2.079E-15:8 -5.899E-05:9 4.290E-06:a 8.970E-05:b 
-3.500E-05:c 1.258E-04:d 5.858E-08:e -1.261E-04:f 2.060E-07:10 -5.928E-05:11 4.295E-06:12 9.021E-05:13 -3.523E-05:14 
#C 1.6708242879E-08 20
3.300E00:1 3.300E00:2 3.300E00:3 3.300E00:4 3.300E00:5 3.235E00:6 2.545E00:7 1.001E-15:8 -5.939E-05:9 4.290E-06:a 9.010E-05:b 
-3.499E-05:c 1.258E-04:d 5.858E-08:e -1.261E-04:f 2.060E-07:10 -5.969E-05:11 4.295E-06:12 9.062E-05:13 -3.523E-05:14 
#C 1.7439331100E-08 20
3.300E00:1 3.300E00:2 3.300E00:3 3.300E00:4 3.300E00:5 3.235E00:6 2.543E00:7 2.316E-16:8 -6.020E-05:9 4.290E-06:a 9.091E-05:b 
-3.499E-05:c 1.258E-04:d 5.858E-08:e -1.261E-04:f 2.060E-07:10 -6.050E-05:11 4.294E-06:12 9.143E-05:13 -3.522E-05:14 
#C 1.8901507543E-08 20
3.300E00:1 3.300E00:2 3.300E00:3 3.300E00:4 3.300E00:5 3.235E00:6 2.538E00:7 1.214E-17:8 -6.343E-05:9 3.805E-06:a 9.067E-05:b 
-3.104E-05:c 1.258E-04:d 5.858E-08:e -1.261E-04:f 2.060E-07:10 -6.388E-05:11 3.809E-06:12 9.120E-05:13 -3.114E-05:14 
#C 1.9000000001E-08 20
3.300E00:1 3.300E00:2 3.300E00:3 3.300E00:4 3.300E00:5 3.235E00:6 2.538E00:7 1.041E-17:8 -6.285E-05:9 3.998E-06:a 9.147E-05:b 
-3.262E-05:c 1.258E-04:d 5.858E-08:e -1.261E-04:f 2.060E-07:10 -6.324E-05:11 4.002E-06:12 9.201E-05:13 -3.277E-05:14 
#C 1.9100000001E-08 20
3.300E00:1 3.300E00:2 3.300E00:3 3.300E00:4 3.300E00:5 3.235E00:6 2.538E00:7 8.674E-18:8 -6.295E-05:9 3.998E-06:a 9.158E-05:b 
-3.262E-05:c 1.258E-04:d 5.858E-08:e -1.261E-04:f 2.060E-07:10 -6.334E-05:11 4.002E-06:12 9.211E-05:13 -3.277E-05:14 
#C 1.9276089817E-08 20
3.300E00:1 3.300E00:2 3.300E00:3 3.300E00:4 3.300E00:5 3.235E00:6 2.537E00:7 6.072E-18:8 -6.314E-05:9 3.998E-06:a 9.176E-05:b 
-3.262E-05:c 1.258E-04:d 5.858E-08:e -1.261E-04:f 2.060E-07:10 -6.353E-05:11 4.002E-06:12 9.230E-05:13 -3.277E-05:14 
#C 1.9628269448E-08 20
3.300E00:1 3.300E00:2 3.300E00:3 3.300E00:4 3.300E00:5 3.235E00:6 2.536E00:7 3.469E-18:8 -6.351E-05:9 3.998E-06:a 9.213E-05:b 
-3.262E-05:c 1.258E-04:d 5.858E-08:e -1.261E-04:f 2.060E-07:10 -6.390E-05:11 4.002E-06:12 9.267E-05:13 -3.277E-05:14 
#C 2.0000000001E-08 20
3.300E00:1 3.300E00:2 3.300E00:3 3.300E00:4 3.300E00:5 3.235E00:6 2.535E00:7 0.000E00:8 -6.390E-05:9 3.998E-06:a 9.252E-05:b 
-3.262E-05:c 1.258E-04:d 5.858E-08:e -1.261E-04:f 2.060E-07:10 -6.429E-05:11 4.002E-06:12 9.306E-05:13 -3.277E-05:14 
#C 2.0070435927E-08 20
3.300E00:1 3.300E00:2 3.300E00:3 3.300E00:4 3.300E00:5 3.235E00:6 2.535E00:7 0.000E00:8 -6.397E-05:9 3.998E-06:a 9.259E-05:b 
-3.262E-05:c 1.258E-04:d 5.858E-08:e -1.261E-04:f 2.060E-07:10 -6.436E-05:11 4.002E-06:12 9.313E-05:13 -3.277E-05:14 
#C 2.0211298467E-08 20
3.300E00:1 3.300E00:2 3.300E00:3 3.300E00:4 3.300E00:5 3.235E00:6 2.535E00:7 0.000E00:8 -6.412E-05:9 3.998E-06:a 9.274E-05:b 
-3.262E-05:c 1.258E-04:d 5.858E-08:e -1.261E-04:f 2.060E-07:10 -6.451E-05:11 4.002E-06:12 9.328E-05:13 -3.277E-05:14 
#C 2.0493023546E-08 20
3.300E00:1 3.300E00:2 3.300E00:3 3.300E00:4 3.300E00:5 3.235E00:6 2.534E00:7 0.000E00:8 -6.441E-05:9 3.997E-06:a 9.304E-05:b 
-3.262E-05:c 1.258E-04:d 5.858E-08:e -1.261E-04:f 2.060E-07:10 -6.481E-05:11 4.002E-06:12 9.358E-05:13 -3.277E-05:14 
#C 2.1056473703E-08 20
3.300E00:1 3.300E00:2 3.300E00:3 3.300E00:4 3.300E00:5 3.235E00:6 2.533E00:7 0.000E00:8 -6.501E-05:9 3.997E-06:a 9.363E-05:b 
-3.262E-05:c 1.258E-04:d 5.858E-08:e -1.261E-04:f 2.060E-07:10 -6.541E-05:11 4.001E-06:12 9.418E-05:13 -3.277E-05:14 
#C 2.2183374018E-08 20
3.300E00:1 3.300E00:2 3.300E00:3 3.300E00:4 3.300E00:5 3.235E00:6 2.530E00:7 0.000E00:8 -6.783E-05:9 3.512E-06:a 9.299E-05:b 
-2.866E-05:c 1.258E-04:d 5.858E-08:e -1.260E-04:f 2.060E-07:10 -6.806E-05:11 3.514E-06:12 9.354E-05:13 -2.899E-05:14 
#C 2.4437174649E-08 20
3.300E00:1 3.300E00:2 3.300E00:3 3.300E00:4 3.300E00:5 3.235E00:6 2.524E00:7 0.000E00:8 -7.038E-05:9 3.390E-06:a 9.467E-05:b 
-2.768E-05:c 1.258E-04:d 6.604E-08:e -1.263E-04:f 3.499E-07:10 -7.084E-05:11 3.394E-06:12 9.523E-05:13 -2.778E-05:14 
#C 2.8944775910E-08 20
3.300E00:1 3.300E00:2 3.300E00:3 3.300E00:4 3.300E00:5 3.235E00:6 2.514E00:7 0.000E00:8 -7.550E-05:9 3.068E-06:a 9.749E-05:b 
-2.506E-05:c 1.259E-04:d 6.306E-08:e -1.262E-04:f 2.923E-07:10 -7.593E-05:11 3.071E-06:12 9.807E-05:13 -2.521E-05:14 
#C 3.5000000001E-08 20
3.300E00:1 3.300E00:2 3.300E00:3 3.300E00:4 3.300E00:5 3.235E00:6 2.502E00:7 0.000E00:8 -8.171E-05:9 2.693E-06:a 1.010E-04:b 
-2.201E-05:c 1.259E-04:d 7.387E-08:e -1.263E-04:f 3.304E-07:10 -8.219E-05:11 2.695E-06:12 1.016E-04:13 -2.214E-05:14 
#C 3.5100000001E-08 20
3.300E00:1 3.300E00:2 3.300E00:3 3.300E00:4 3.300E00:5 3.235E00:6 2.502E00:7 0.000E00:8 -8.108E-05:9 2.894E-06:a 1.018E-04:b 
-2.365E-05:c 1.259E-04:d 6.994E-08:e -1.263E-04:f 3.165E-07:10 -8.154E-05:11 2.897E-06:12 1.024E-04:13 -2.379E-05:14 
#C 3.5300001524E-08 20
3.300E00:1 3.300E00:2 3.300E00:3 3.300E00:4 3.300E00:5 3.235E00:6 2.502E00:7 0.000E00:8 -8.124E-05:9 2.894E-06:a 1.020E-04:b 
-2.365E-05:c 1.259E-04:d 6.994E-08:e -1.263E-04:f 3.165E-07:10 -8.171E-05:11 2.897E-06:12 1.026E-04:13 -2.379E-05:14 
#C 3.5350001905E-08 20
3.300E00:1 3.300E00:2 3.300E00:3 3.300E00:4 3.300E00:5 3.235E00:6 2.502E00:7 0.000E00:8 -8.128E-05:9 2.894E-06:a 1.020E-04:b 
-2.365E-05:c 1.259E-04:d 6.994E-08:e -1.263E-04:f 3.165E-07:10 -8.175E-05:11 2.897E-06:12 1.026E-04:13 -2.379E-05:14 
#C 3.5450002666E-08 20
3.300E00:1 3.300E00:2 3.300E00:3 3.300E00:4 3.300E00:5 3.235E00:6 2.502E00:7 0.000E00:8 -8.137E-05:9 2.894E-06:a 1.021E-04:b 
-2.365E-05:c 1.259E-04:d 6.994E-08:e -1.263E-04:f 3.165E-07:10 -8.183E-05:11 2.897E-06:12 1.027E-04:13 -2.379E-05:14 
#C 3.5475002856E-08 20
3.300E00:1 3.300E00:2 3.300E00:3 3.300E00:4 3.300E00:5 3.235E00:6 2.501E00:7 0.000E00:8 -8.139E-05:9 2.894E-06:a 1.021E-04:b 
-2.365E-05:c 1.259E-04:d 6.994E-08:e -1.263E-04:f 3.165E-07:10 -8.185E-05:11 2.897E-06:12 1.027E-04:13 -2.379E-05:14 
#C 3.5525003237E-08 20
3.300E00:1 3.300E00:2 3.300E00:3 3.300E00:4 3.300E00:5 3.235E00:6 2.501E00:7 0.000E00:8 -8.143E-05:9 2.894E-06:a 1.022E-04:b 
-2.365E-05:c 1.259E-04:d 6.994E-08:e -1.263E-04:f 3.165E-07:10 -8.189E-05:11 2.897E-06:12 1.028E-04:13 -2.379E-05:14 
#C 3.5625003999E-08 20
3.300E00:1 3.300E00:2 3.300E00:3 3.300E00:4 3.300E00:5 3.235E00:6 2.501E00:7 0.000E00:8 -8.151E-05:9 2.894E-06:a 1.023E-04:b 
-2.365E-05:c 1.259E-04:d 6.994E-08:e -1.263E-04:f 3.165E-07:10 -8.197E-05:11 2.897E-06:12 1.029E-04:13 -2.379E-05:14 
#C 3.5650004189E-08 20
3.300E00:1 3.300E00:2 3.300E00:3 3.300E00:4 3.300E00:5 3.235E00:6 2.501E00:7 0.000E00:8 -8.153E-05:9 2.894E-06:a 1.023E-04:b 
-2.365E-05:c 1.259E-04:d 6.994E-08:e -1.263E-04:f 3.165E-07:10 -8.200E-05:11 2.897E-06:12 1.029E-04:13 -2.379E-05:14 
#C 3.5700004570E-08 20
3.300E00:1 3.300E00:2 3.300E00:3 3.300E00:4 3.300E00:5 3.235E00:6 2.501E00:7 0.000E00:8 -8.157E-05:9 2.894E-06:a 1.023E-04:b 
-2.365E-05:c 1.259E-04:d 6.994E-08:e -1.263E-04:f 3.165E-07:10 -8.204E-05:11 2.897E-06:12 1.029E-04:13 -2.379E-05:14 
#C 3.5800005331E-08 20
3.300E00:1 3.300E00:2 3.300E00:3 3.300E00:4 3.300E00:5 3.235E00:6 2.501E00:7 0.000E00:8 -8.165E-05:9 2.894E-06:a 1.024E-04:b 
-2.365E-05:c 1.259E-04:d 6.994E-08:e -1.263E-04:f 3.165E-07:10 -8.212E-05:11 2.897E-06:12 1.030E-04:13 -2.379E-05:14 
#C 3.6000000001E-08 20
3.300E00:1 3.300E00:2 3.300E00:3 3.300E00:4 3.300E00:5 3.235E00:6 2.500E00:7 0.000E00:8 -8.182E-05:9 2.894E-06:a 1.026E-04:b 
-2.365E-05:c 1.259E-04:d 6.994E-08:e -1.263E-04:f 3.165E-07:10 -8.228E-05:11 2.896E-06:12 1.032E-04:13 -2.379E-05:14 
#C 3.6020000153E-08 20
3.300E00:1 3.300E00:2 3.300E00:3 3.300E00:4 3.300E00:5 3.235E00:6 2.500E00:7 0.000E00:8 -8.183E-05:9 2.894E-06:a 1.026E-04:b 
