#H
SOURCE='PSPICE' VERSION='PSpice 16.0.0 (July 2006)'
TITLE='**** 05/18/10 12:08:24 ******* PSpice 16.0.0 (July 2006) ****** ID# 0 ********'
SUBTITLE=''
TIME='16:01:10' DATE='05/30/10' TEMPERATURE='2.700E01'
ANALYSIS='Transient Analysis' SERIALNO='61413'
ALLVALUES='NO' COMPLEXVALUES='NO' NODES='19'
SWEEPVAR='Time' SWEEPMODE='VAR_STEP'
XBEGIN='0.000E00' XEND='5.000E-08'
FORMAT='0 VOLTSorAMPS;EFLOAT : NODEorBRANCH;NODE  '
DGTLDATA='NO' 
#N 
'V(C_F_D_LSB)' 'V(C_F_D_2SB)' 'V(C_F_D_3SB)' 'V(C_F_D_4SB)' 'V(C_F_D_5SB)' 'V(C_F_D_MSB)' 'V(C_F_C5_NDPOS)' 'ID(M_C_F_C5_M4)' 
'IB(M_C_F_C5_M4)' 'IS(M_C_F_C5_M4)' 'IG(M_C_F_C5_M4)' 'ID(M_C_F_C5_M2)' 'IB(M_C_F_C5_M2)' 'IS(M_C_F_C5_M2)' 'IG(M_C_F_C5_M2)' 
'ID(M_C_F_C5_M12)' 'IB(M_C_F_C5_M12)' 'IS(M_C_F_C5_M12)' 'IG(M_C_F_C5_M12)' 
#C 0.0000000000E00 19
3.300E00:1 3.300E00:2 3.300E00:3 3.300E00:4 3.300E00:5 3.229E00:6 3.985E00:7 3.837E-03:8 -3.196E-03:9 -6.404E-04:a 0.000E00:b 
1.633E-04:c -4.445E-12:d -1.633E-04:e 0.000E00:f -3.310E-12:10 3.310E-12:11 1.814E-19:12 0.000E00:13 
#C 1.0000000000E-11 19
3.300E00:1 3.300E00:2 3.300E00:3 3.300E00:4 3.300E00:5 3.229E00:6 3.985E00:7 3.837E-03:8 -3.196E-03:9 -6.404E-04:a -1.092E-11:b 
1.633E-04:c -1.641E-11:d -1.633E-04:e -3.553E-15:f -3.150E-12:10 1.605E-11:11 1.696E-13:12 -1.307E-11:13 
#C 2.0000000000E-11 19
3.300E00:1 3.300E00:2 3.300E00:3 3.300E00:4 3.300E00:5 3.229E00:6 3.985E00:7 3.837E-03:8 -3.196E-03:9 -6.404E-04:a -1.092E-11:b 
1.633E-04:c -1.641E-11:d -1.633E-04:e -3.553E-15:f -3.150E-12:10 1.605E-11:11 1.696E-13:12 -1.307E-11:13 
#C 4.0000152290E-11 19
3.300E00:1 3.300E00:2 3.300E00:3 3.300E00:4 3.300E00:5 3.229E00:6 3.985E00:7 3.837E-03:8 -3.196E-03:9 -6.404E-04:a 0.000E00:b 
1.633E-04:c -4.445E-12:d -1.633E-04:e 0.000E00:f -3.310E-12:10 3.310E-12:11 1.814E-19:12 0.000E00:13 
#C 8.0000456870E-11 19
3.300E00:1 3.300E00:2 3.300E00:3 3.300E00:4 3.300E00:5 3.229E00:6 3.985E00:7 3.837E-03:8 -3.196E-03:9 -6.404E-04:a 0.000E00:b 
1.633E-04:c -4.445E-12:d -1.633E-04:e 0.000E00:f -3.310E-12:10 3.310E-12:11 1.814E-19:12 0.000E00:13 
#C 1.6000106603E-10 19
3.300E00:1 3.300E00:2 3.300E00:3 3.300E00:4 3.300E00:5 3.229E00:6 3.985E00:7 3.837E-03:8 -3.196E-03:9 -6.404E-04:a 0.000E00:b 
1.633E-04:c -4.445E-12:d -1.633E-04:e 0.000E00:f -3.310E-12:10 3.310E-12:11 1.814E-19:12 0.000E00:13 
#C 3.2000228435E-10 19
3.300E00:1 3.300E00:2 3.300E00:3 3.300E00:4 3.300E00:5 3.229E00:6 3.985E00:7 3.837E-03:8 -3.196E-03:9 -6.404E-04:a 0.000E00:b 
1.633E-04:c -4.445E-12:d -1.633E-04:e 0.000E00:f -3.310E-12:10 3.310E-12:11 1.814E-19:12 0.000E00:13 
#C 6.4000472099E-10 19
3.300E00:1 3.300E00:2 3.300E00:3 3.300E00:4 3.300E00:5 3.229E00:6 3.985E00:7 3.837E-03:8 -3.196E-03:9 -6.404E-04:a 0.000E00:b 
1.633E-04:c -4.445E-12:d -1.633E-04:e 0.000E00:f -3.310E-12:10 3.310E-12:11 1.814E-19:12 0.000E00:13 
#C 1.2800095943E-09 19
3.300E00:1 3.300E00:2 3.300E00:3 3.300E00:4 3.300E00:5 3.229E00:6 3.985E00:7 3.837E-03:8 -3.196E-03:9 -6.404E-04:a 0.000E00:b 
1.633E-04:c -4.445E-12:d -1.633E-04:e 0.000E00:f -3.310E-12:10 3.310E-12:11 1.814E-19:12 0.000E00:13 
#C 2.0000000001E-09 19
3.300E00:1 3.300E00:2 3.300E00:3 3.300E00:4 3.300E00:5 3.229E00:6 3.985E00:7 3.837E-03:8 -3.196E-03:9 -6.404E-04:a 0.000E00:b 
1.633E-04:c -4.445E-12:d -1.633E-04:e 0.000E00:f -3.310E-12:10 3.310E-12:11 1.814E-19:12 0.000E00:13 
#C 2.0200000001E-09 19
3.300E00:1 3.300E00:2 3.300E00:3 3.300E00:4 3.300E00:5 3.229E00:6 3.984E00:7 3.658E-03:8 -3.099E-03:9 -7.138E-04:a 1.542E-04:b 
1.633E-04:c -4.445E-12:d -1.633E-04:e 0.000E00:f 2.163E-05:10 1.717E-03:11 2.291E-05:12 -1.762E-03:13 
#C 2.0600003047E-09 19
3.300E00:1 3.300E00:2 3.300E00:3 3.300E00:4 3.300E00:5 3.229E00:6 3.982E00:7 3.296E-03:8 -2.792E-03:9 -7.606E-04:a 2.567E-04:b 
1.553E-04:c 4.236E-06:d -1.596E-04:e 5.901E-09:f 3.497E-05:10 2.834E-03:11 3.789E-05:12 -2.907E-03:13 
#C 2.1400009138E-09 19
3.300E00:1 3.300E00:2 3.300E00:3 3.300E00:4 3.300E00:5 3.229E00:6 3.976E00:7 2.767E-03:8 -2.266E-03:9 -7.541E-04:a 2.532E-04:b 
1.553E-04:c 4.236E-06:d -1.595E-04:e 6.047E-09:f 3.497E-05:10 2.808E-03:11 3.789E-05:12 -2.881E-03:13 
#C 2.2000000001E-09 19
3.300E00:1 3.300E00:2 3.300E00:3 3.300E00:4 3.300E00:5 3.229E00:6 3.972E00:7 2.462E-03:8 -1.950E-03:9 -7.378E-04:a 2.263E-04:b 
1.647E-04:c -1.285E-06:d -1.634E-04:e 2.057E-08:f 3.497E-05:10 2.804E-03:11 3.789E-05:12 -2.877E-03:13 
#C 2.2160001219E-09 19
3.300E00:1 3.300E00:2 3.300E00:3 3.300E00:4 3.300E00:5 3.229E00:6 3.971E00:7 2.378E-03:8 -1.869E-03:9 -7.386E-04:a 2.295E-04:b 
1.600E-04:c 1.475E-06:d -1.615E-04:e 1.332E-08:f 3.497E-05:10 2.798E-03:11 3.789E-05:12 -2.871E-03:13 
#C 2.2480026939E-09 19
3.300E00:1 3.300E00:2 3.300E00:3 3.300E00:4 3.300E00:5 3.229E00:6 3.970E00:7 2.273E-03:8 -1.748E-03:9 -7.211E-04:a 1.966E-04:b 
1.600E-04:c 1.475E-06:d -1.614E-04:e 1.332E-08:f 3.497E-05:10 2.793E-03:11 3.789E-05:12 -2.865E-03:13 
#C 2.3120078378E-09 19
3.300E00:1 3.300E00:2 3.300E00:3 3.300E00:4 3.300E00:5 3.229E00:6 3.966E00:7 2.029E-03:8 -1.523E-03:9 -7.316E-04:a 2.255E-04:b 
1.599E-04:c 1.475E-06:d -1.614E-04:e 1.334E-08:f 1.986E-05:10 1.342E-03:11 1.833E-05:12 -1.380E-03:13 
#C 2.4400181257E-09 19
3.300E00:1 3.300E00:2 3.300E00:3 3.300E00:4 3.300E00:5 3.229E00:6 3.962E00:7 1.930E-03:8 -1.334E-03:9 -6.423E-04:a 4.606E-05:b 
1.599E-04:c 1.475E-06:d -1.614E-04:e 1.336E-08:f 6.316E-06:10 5.348E-04:11 7.367E-06:12 -5.485E-04:13 
#C 2.6960387015E-09 19
3.300E00:1 3.300E00:2 3.300E00:3 3.300E00:4 3.300E00:5 3.229E00:6 3.961E00:7 1.915E-03:8 -1.275E-03:9 -6.005E-04:a -3.912E-05:b 
1.643E-04:c -8.135E-07:d -1.635E-04:e 3.256E-08:f -5.455E-06:10 -4.528E-04:11 -6.175E-06:12 4.644E-04:13 
#C 3.2080798530E-09 19
3.300E00:1 3.300E00:2 3.300E00:3 3.300E00:4 3.300E00:5 3.229E00:6 3.970E00:7 2.421E-03:8 -1.756E-03:9 -5.911E-04:a -7.364E-05:b 
1.651E-04:c -1.050E-06:d -1.640E-04:e 1.549E-08:f -1.189E-05:10 -9.491E-04:11 -1.294E-05:12 9.739E-04:13 
#C 4.2081340336E-09 19
3.300E00:1 3.300E00:2 3.300E00:3 3.300E00:4 3.300E00:5 3.229E00:6 3.983E00:7 3.624E-03:8 -2.972E-03:9 -6.261E-04:a -2.576E-05:b 
1.637E-04:c -2.103E-07:d -1.635E-04:e -6.376E-09:f -1.874E-06:10 -1.429E-04:11 -1.767E-06:12 1.466E-04:13 
#C 5.2081882143E-09 19
3.300E00:1 3.300E00:2 3.300E00:3 3.300E00:4 3.300E00:5 3.229E00:6 3.985E00:7 3.823E-03:8 -3.190E-03:9 -6.463E-04:a 1.300E-05:b 
1.634E-04:c -1.630E-08:d -1.634E-04:e -9.854E-09:f -9.462E-08:10 -5.992E-06:11 -2.208E-07:12 6.307E-06:13 
#C 6.2082423949E-09 19
3.300E00:1 3.300E00:2 3.300E00:3 3.300E00:4 3.300E00:5 3.229E00:6 3.985E00:7 3.860E-03:8 -3.221E-03:9 -6.413E-04:a 2.203E-06:b 
1.629E-04:c 2.152E-07:d -1.631E-04:e -5.837E-09:f 2.340E-07:10 2.139E-05:11 2.857E-07:12 -2.191E-05:13 
#C 7.2082965755E-09 19
3.300E00:1 3.300E00:2 3.300E00:3 3.300E00:4 3.300E00:5 3.229E00:6 3.985E00:7 3.861E-03:8 -3.221E-03:9 -6.409E-04:a 1.544E-06:b 
1.629E-04:c 2.152E-07:d -1.631E-04:e -5.837E-09:f 2.340E-07:10 2.139E-05:11 2.857E-07:12 -2.191E-05:13 
#C 8.2083507561E-09 19
3.300E00:1 3.300E00:2 3.300E00:3 3.300E00:4 3.300E00:5 3.229E00:6 3.985E00:7 3.835E-03:8 -3.195E-03:9 -6.397E-04:a -8.760E-07:b 
1.636E-04:c -2.152E-07:d -1.634E-04:e 5.837E-09:f -2.340E-07:10 -2.139E-05:11 -2.857E-07:12 2.191E-05:13 
#C 9.2084049367E-09 19
3.300E00:1 3.300E00:2 3.300E00:3 3.300E00:4 3.300E00:5 3.229E00:6 3.985E00:7 3.846E-03:8 -3.206E-03:9 -6.401E-04:a 3.511E-08:b 
1.633E-04:c -4.445E-12:d -1.633E-04:e 1.735E-18:f -3.310E-12:10 3.310E-12:11 -2.422E-18:12 -8.674E-19:13 
#C 1.0208459117E-08 19
3.300E00:1 3.300E00:2 3.300E00:3 3.300E00:4 3.300E00:5 3.229E00:6 3.985E00:7 3.846E-03:8 -3.206E-03:9 -6.401E-04:a 6.648E-09:b 
1.633E-04:c -4.445E-12:d -1.633E-04:e 1.735E-18:f -3.310E-12:10 3.310E-12:11 -2.422E-18:12 -8.674E-19:13 
#C 1.1208513298E-08 19
3.300E00:1 3.300E00:2 3.300E00:3 3.300E00:4 3.300E00:5 3.229E00:6 3.985E00:7 3.846E-03:8 -3.206E-03:9 -6.401E-04:a 6.648E-09:b 
1.633E-04:c -4.445E-12:d -1.633E-04:e 1.735E-18:f -3.310E-12:10 3.310E-12:11 -2.422E-18:12 -8.674E-19:13 
#C 1.2208567479E-08 19
3.300E00:1 3.300E00:2 3.300E00:3 3.300E00:4 3.300E00:5 3.229E00:6 3.985E00:7 3.846E-03:8 -3.206E-03:9 -6.401E-04:a 6.648E-09:b 
1.633E-04:c -4.445E-12:d -1.633E-04:e 1.735E-18:f -3.310E-12:10 3.310E-12:11 -2.422E-18:12 -8.674E-19:13 
#C 1.3208621659E-08 19
3.300E00:1 3.300E00:2 3.300E00:3 3.300E00:4 3.300E00:5 3.229E00:6 3.985E00:7 3.846E-03:8 -3.206E-03:9 -6.401E-04:a 6.648E-09:b 
1.633E-04:c -4.445E-12:d -1.633E-04:e 1.735E-18:f -3.310E-12:10 3.310E-12:11 -2.422E-18:12 -8.674E-19:13 
#C 1.4208675840E-08 19
3.300E00:1 3.300E00:2 3.300E00:3 3.300E00:4 3.300E00:5 3.229E00:6 3.985E00:7 3.846E-03:8 -3.206E-03:9 -6.401E-04:a 6.648E-09:b 
1.633E-04:c -4.445E-12:d -1.633E-04:e 1.735E-18:f -3.310E-12:10 3.310E-12:11 -2.422E-18:12 -8.674E-19:13 
#C 1.5000000000E-08 19
3.300E00:1 3.300E00:2 3.300E00:3 3.300E00:4 3.300E00:5 3.229E00:6 3.985E00:7 3.850E-03:8 -3.209E-03:9 -6.400E-04:a -1.665E-07:b 
1.633E-04:c -4.445E-12:d -1.633E-04:e -1.735E-18:f -3.310E-12:10 3.310E-12:11 2.782E-18:12 8.674E-19:13 
#C 1.5100000000E-08 19
3.300E00:1 3.300E00:2 3.300E00:3 3.300E00:4 3.300E00:5 3.229E00:6 3.985E00:7 3.859E-03:8 -3.218E-03:9 -6.390E-04:a -2.570E-06:b 
1.633E-04:c -4.445E-12:d -1.633E-04:e 0.000E00:f -3.310E-12:10 3.310E-12:11 1.801E-19:12 0.000E00:13 
#C 1.5300001523E-08 19
3.300E00:1 3.300E00:2 3.300E00:3 3.300E00:4 3.300E00:5 3.229E00:6 3.985E00:7 3.854E-03:8 -3.214E-03:9 -6.400E-04:a -3.726E-07:b 
1.633E-04:c -4.445E-12:d -1.633E-04:e 0.000E00:f -3.310E-12:10 3.310E-12:11 1.801E-19:12 0.000E00:13 
#C 1.5350001904E-08 19
3.300E00:1 3.300E00:2 3.300E00:3 3.300E00:4 3.300E00:5 3.229E00:6 3.985E00:7 3.864E-03:8 -3.221E-03:9 -6.375E-04:a -5.675E-06:b 
1.633E-04:c -4.445E-12:d -1.633E-04:e -3.123E-17:f -3.310E-12:10 3.310E-12:11 -1.196E-17:12 2.082E-17:13 
#C 1.5450002665E-08 19
3.300E00:1 3.300E00:2 3.300E00:3 3.300E00:4 3.300E00:5 3.229E00:6 3.985E00:7 3.861E-03:8 -3.220E-03:9 -6.397E-04:a -1.208E-06:b 
1.633E-04:c -4.445E-12:d -1.633E-04:e 0.000E00:f -3.310E-12:10 3.310E-12:11 3.650E-18:12 0.000E00:13 
#C 1.5475002856E-08 19
3.300E00:1 3.300E00:2 3.300E00:3 3.300E00:4 3.300E00:5 3.229E00:6 3.985E00:7 3.861E-03:8 -3.220E-03:9 -6.390E-04:a -2.641E-06:b 
1.633E-04:c -4.445E-12:d -1.633E-04:e 0.000E00:f -3.310E-12:10 3.310E-12:11 -5.099E-17:12 -1.041E-17:13 
#C 1.5525003236E-08 19
3.300E00:1 3.300E00:2 3.300E00:3 3.300E00:4 3.300E00:5 3.229E00:6 3.985E00:7 3.861E-03:8 -3.219E-03:9 -6.390E-04:a -2.641E-06:b 
1.633E-04:c -4.445E-12:d -1.633E-04:e 0.000E00:f -3.310E-12:10 3.310E-12:11 1.320E-16:12 -1.110E-16:13 
#C 1.5537503331E-08 19
3.300E00:1 3.300E00:2 3.300E00:3 3.300E00:4 3.300E00:5 3.229E00:6 3.985E00:7 3.867E-03:8 -3.223E-03:9 -6.368E-04:a -7.148E-06:b 
1.633E-04:c -4.445E-12:d -1.633E-04:e -4.163E-17:f -3.310E-12:10 3.310E-12:11 4.008E-17:12 -4.163E-17:13 
#C 1.5562503522E-08 19
3.300E00:1 3.300E00:2 3.300E00:3 3.300E00:4 3.300E00:5 3.229E00:6 3.985E00:7 3.864E-03:8 -3.223E-03:9 -6.396E-04:a -1.512E-06:b 
1.633E-04:c -4.445E-12:d -1.633E-04:e -1.110E-16:f -3.310E-12:10 3.310E-12:11 1.801E-19:12 -1.110E-16:13 
#C 1.5568753569E-08 19
3.300E00:1 3.300E00:2 3.300E00:3 3.300E00:4 3.300E00:5 3.229E00:6 3.985E00:7 3.865E-03:8 -3.223E-03:9 -6.386E-04:a -3.466E-06:b 
1.633E-04:c -4.445E-12:d -1.633E-04:e 8.327E-17:f -3.310E-12:10 3.310E-12:11 3.487E-17:12 2.776E-17:13 
#C 1.5581253665E-08 19
3.300E00:1 3.300E00:2 3.300E00:3 3.300E00:4 3.300E00:5 3.229E00:6 3.985E00:7 3.865E-03:8 -3.223E-03:9 -6.386E-04:a -3.466E-06:b 
1.633E-04:c -4.445E-12:d -1.633E-04:e 0.000E00:f -3.310E-12:10 3.309E-12:11 3.888E-16:12 2.220E-16:13 
#C 1.5606253855E-08 19
3.300E00:1 3.300E00:2 3.300E00:3 3.300E00:4 3.300E00:5 3.229E00:6 3.985E00:7 3.865E-03:8 -3.222E-03:9 -6.386E-04:a -3.466E-06:b 
1.633E-04:c -4.445E-12:d -1.633E-04:e 0.000E00:f -3.310E-12:10 3.310E-12:11 1.406E-17:12 2.220E-16:13 
#C 1.5656254236E-08 19
3.300E00:1 3.300E00:2 3.300E00:3 3.300E00:4 3.300E00:5 3.229E00:6 3.985E00:7 3.864E-03:8 -3.222E-03:9 -6.386E-04:a -3.466E-06:b 
1.633E-04:c -4.445E-12:d -1.633E-04:e 5.551E-17:f -3.310E-12:10 3.310E-12:11 7.119E-18:12 -1.110E-16:13 
#C 1.5731190778E-08 19
3.300E00:1 3.300E00:2 3.300E00:3 3.300E00:4 3.300E00:5 3.229E00:6 3.985E00:7 3.863E-03:8 -3.221E-03:9 -6.387E-04:a -3.466E-06:b 
1.633E-04:c -4.445E-12:d -1.633E-04:e 0.000E00:f -3.310E-12:10 3.310E-12:11 -7.615E-17:12 0.000E00:13 
#C 1.5845429134E-08 19
3.300E00:1 3.300E00:2 3.300E00:3 3.300E00:4 3.300E00:5 3.229E00:6 3.985E00:7 3.862E-03:8 -3.220E-03:9 -6.387E-04:a -3.466E-06:b 
1.633E-04:c -4.445E-12:d -1.633E-04:e -5.551E-17:f -3.310E-12:10 3.310E-12:11 2.447E-17:12 0.000E00:13 
#C 1.6000000000E-08 19
3.300E00:1 3.300E00:2 3.300E00:3 3.300E00:4 3.300E00:5 3.229E00:6 3.985E00:7 3.861E-03:8 -3.219E-03:9 -6.387E-04:a -3.466E-06:b 
1.633E-04:c -4.445E-12:d -1.633E-04:e 0.000E00:f -3.310E-12:10 3.310E-12:11 -8.494E-18:12 4.163E-17:13 
#C 1.6022847671E-08 19
3.300E00:1 3.300E00:2 3.300E00:3 3.300E00:4 3.300E00:5 3.229E00:6 3.985E00:7 3.854E-03:8 -3.225E-03:9 -6.501E-04:a 2.090E-05:b 
1.633E-04:c -4.445E-12:d -1.633E-04:e 0.000E00:f -3.310E-12:10 3.310E-12:11 1.801E-19:12 0.000E00:13 
#C 1.6068540685E-08 19
3.300E00:1 3.300E00:2 3.300E00:3 3.300E00:4 3.300E00:5 3.229E00:6 3.985E00:7 3.859E-03:8 -3.223E-03:9 -6.440E-04:a 7.797E-06:b 
1.633E-04:c -4.445E-12:d -1.633E-04:e -5.551E-17:f -3.310E-12:10 3.310E-12:11 1.801E-19:12 0.000E00:13 
#C 1.6159926713E-08 19
3.300E00:1 3.300E00:2 3.300E00:3 3.300E00:4 3.300E00:5 3.229E00:6 3.985E00:7 3.855E-03:8 -3.222E-03:9 -6.463E-04:a 1.304E-05:b 
1.633E-04:c -4.445E-12:d -1.633E-04:e 8.327E-17:f -3.310E-12:10 3.310E-12:11 -2.064E-17:12 -2.776E-17:13 
#C 1.6342698768E-08 19
3.300E00:1 3.300E00:2 3.300E00:3 3.300E00:4 3.300E00:5 3.229E00:6 3.985E00:7 3.853E-03:8 -3.220E-03:9 -6.462E-04:a 1.304E-05:b 
1.633E-04:c -4.445E-12:d -1.633E-04:e 0.000E00:f -3.310E-12:10 3.310E-12:11 -1.023E-17:12 -1.388E-17:13 
#C 1.6708242878E-08 19
3.300E00:1 3.300E00:2 3.300E00:3 3.300E00:4 3.300E00:5 3.229E00:6 3.985E00:7 3.848E-03:8 -3.215E-03:9 -6.460E-04:a 1.304E-05:b 
1.633E-04:c -4.445E-12:d -1.633E-04:e 0.000E00:f -3.310E-12:10 3.310E-12:11 -5.024E-18:12 -6.939E-18:13 
#C 1.7439331099E-08 19
3.300E00:1 3.300E00:2 3.300E00:3 3.300E00:4 3.300E00:5 3.229E00:6 3.985E00:7 3.837E-03:8 -3.205E-03:9 -6.455E-04:a 1.303E-05:b 
1.633E-04:c -4.445E-12:d -1.633E-04:e 3.469E-18:f -3.310E-12:10 3.310E-12:11 -1.023E-17:12 -3.469E-18:13 
#C 1.8439385280E-08 19
3.300E00:1 3.300E00:2 3.300E00:3 3.300E00:4 3.300E00:5 3.229E00:6 3.985E00:7 3.847E-03:8 -3.205E-03:9 -6.365E-04:a -5.920E-06:b 
1.633E-04:c -4.445E-12:d -1.633E-04:e 0.000E00:f -3.310E-12:10 3.310E-12:11 8.854E-18:12 -6.939E-18:13 
#C 1.9000000000E-08 19
3.300E00:1 3.300E00:2 3.300E00:3 3.300E00:4 3.300E00:5 3.229E00:6 3.985E00:7 3.849E-03:8 -3.209E-03:9 -6.390E-04:a -6.123E-07:b 
1.633E-04:c -4.445E-12:d -1.633E-04:e -7.806E-18:f -3.310E-12:10 3.310E-12:11 5.053E-19:12 8.674E-18:13 
#C 1.9100000000E-08 19
3.300E00:1 3.300E00:2 3.300E00:3 3.300E00:4 3.300E00:5 3.229E00:6 3.985E00:7 3.859E-03:8 -3.218E-03:9 -6.376E-04:a -3.857E-06:b 
1.633E-04:c -4.445E-12:d -1.633E-04:e 0.000E00:f -3.310E-12:10 3.310E-12:11 1.801E-19:12 0.000E00:13 
#C 1.9300001523E-08 19
3.300E00:1 3.300E00:2 3.300E00:3 3.300E00:4 3.300E00:5 3.229E00:6 3.985E00:7 3.854E-03:8 -3.214E-03:9 -6.391E-04:a -7.045E-07:b 
1.633E-04:c -4.445E-12:d -1.633E-04:e 0.000E00:f -3.310E-12:10 3.310E-12:11 1.801E-19:12 0.000E00:13 
#C 1.9700004569E-08 19
3.300E00:1 3.300E00:2 3.300E00:3 3.300E00:4 3.300E00:5 3.229E00:6 3.985E00:7 3.852E-03:8 -3.213E-03:9 -6.397E-04:a 6.899E-07:b 
1.633E-04:c -4.445E-12:d -1.633E-04:e 0.000E00:f -3.310E-12:10 3.310E-12:11 -1.110E-17:12 -6.939E-18:13 
#C 2.0000000000E-08 19
3.300E00:1 3.300E00:2 3.300E00:3 3.300E00:4 3.300E00:5 3.229E00:6 3.985E00:7 3.852E-03:8 -3.213E-03:9 -6.394E-04:a 1.321E-07:b 
1.633E-04:c -4.445E-12:d -1.633E-04:e 6.939E-18:f -3.310E-12:10 3.310E-12:11 1.059E-17:12 -1.041E-17:13 
#C 2.0065006316E-08 19
3.300E00:1 3.300E00:2 3.300E00:3 3.300E00:4 3.300E00:5 3.229E00:6 3.985E00:7 3.858E-03:8 -3.221E-03:9 -6.415E-04:a 4.462E-06:b 
1.633E-04:c -4.445E-12:d -1.633E-04:e 0.000E00:f -3.310E-12:10 3.310E-12:11 1.801E-19:12 0.000E00:13 
#C 2.0195018947E-08 19
3.300E00:1 3.300E00:2 3.300E00:3 3.300E00:4 3.300E00:5 3.229E00:6 3.985E00:7 3.858E-03:8 -3.220E-03:9 -6.406E-04:a 2.610E-06:b 
1.633E-04:c -4.445E-12:d -1.633E-04:e 0.000E00:f -3.310E-12:10 3.310E-12:11 7.119E-18:12 0.000E00:13 
#C 2.0455044210E-08 19
3.300E00:1 3.300E00:2 3.300E00:3 3.300E00:4 3.300E00:5 3.229E00:6 3.985E00:7 3.856E-03:8 -3.218E-03:9 -6.409E-04:a 3.351E-06:b 
1.633E-04:c -4.445E-12:d -1.633E-04:e 0.000E00:f -3.310E-12:10 3.310E-12:11 -2.931E-17:12 1.388E-17:13 
#C 2.0975094736E-08 19
3.300E00:1 3.300E00:2 3.300E00:3 3.300E00:4 3.300E00:5 3.229E00:6 3.985E00:7 3.851E-03:8 -3.212E-03:9 -6.394E-04:a 2.059E-07:b 
1.633E-04:c -4.445E-12:d -1.633E-04:e 0.000E00:f -3.310E-12:10 3.310E-12:11 7.986E-18:12 0.000E00:13 
#C 2.1975148916E-08 19
3.300E00:1 3.300E00:2 3.300E00:3 3.300E00:4 3.300E00:5 3.229E00:6 3.985E00:7 3.846E-03:8 -3.207E-03:9 -6.394E-04:a 4.053E-07:b 
1.633E-04:c -4.445E-12:d -1.633E-04:e -3.469E-18:f -3.310E-12:10 3.310E-12:11 7.119E-18:12 -3.469E-18:13 
#C 2.2975203097E-08 19
3.300E00:1 3.300E00:2 3.300E00:3 3.300E00:4 3.300E00:5 3.229E00:6 3.985E00:7 3.846E-03:8 -3.207E-03:9 -6.392E-04:a 1.164E-07:b 
1.633E-04:c -4.445E-12:d -1.633E-04:e -3.469E-18:f -3.310E-12:10 3.310E-12:11 7.119E-18:12 -3.469E-18:13 
#C 2.3975257278E-08 19
3.300E00:1 3.300E00:2 3.300E00:3 3.300E00:4 3.300E00:5 3.229E00:6 3.985E00:7 3.846E-03:8 -3.207E-03:9 -6.392E-04:a 1.164E-07:b 
1.633E-04:c -4.445E-12:d -1.633E-04:e -3.469E-18:f -3.310E-12:10 3.310E-12:11 7.119E-18:12 -3.469E-18:13 
#C 2.4975311458E-08 19
3.300E00:1 3.300E00:2 3.300E00:3 3.300E00:4 3.300E00:5 3.229E00:6 3.985E00:7 3.846E-03:8 -3.207E-03:9 -6.392E-04:a 1.164E-07:b 
1.633E-04:c -4.445E-12:d -1.633E-04:e -3.469E-18:f -3.310E-12:10 3.310E-12:11 7.119E-18:12 -3.469E-18:13 
#C 2.5975365639E-08 19
3.300E00:1 3.300E00:2 3.300E00:3 3.300E00:4 3.300E00:5 3.229E00:6 3.985E00:7 3.846E-03:8 -3.207E-03:9 -6.392E-04:a 1.164E-07:b 
1.633E-04:c -4.445E-12:d -1.633E-04:e -3.469E-18:f -3.310E-12:10 3.310E-12:11 7.119E-18:12 -3.469E-18:13 
#C 2.6975419819E-08 19
3.300E00:1 3.300E00:2 3.300E00:3 3.300E00:4 3.300E00:5 3.229E00:6 3.985E00:7 3.846E-03:8 -3.207E-03:9 -6.392E-04:a 1.164E-07:b 
1.633E-04:c -4.445E-12:d -1.633E-04:e -3.469E-18:f -3.310E-12:10 3.310E-12:11 7.119E-18:12 -3.469E-18:13 
#C 2.7975474000E-08 19
3.300E00:1 3.300E00:2 3.300E00:3 3.300E00:4 3.300E00:5 3.229E00:6 3.985E00:7 3.846E-03:8 -3.207E-03:9 -6.392E-04:a 1.164E-07:b 
1.633E-04:c -4.445E-12:d -1.633E-04:e -3.469E-18:f -3.310E-12:10 3.310E-12:11 7.119E-18:12 -3.469E-18:13 
#C 2.8975528181E-08 19
3.300E00:1 3.300E00:2 3.300E00:3 3.300E00:4 3.300E00:5 3.229E00:6 3.985E00:7 3.846E-03:8 -3.207E-03:9 -6.392E-04:a 1.164E-07:b 
1.633E-04:c -4.445E-12:d -1.633E-04:e -3.469E-18:f -3.310E-12:10 3.310E-12:11 7.119E-18:12 -3.469E-18:13 
#C 2.9975582361E-08 19
3.300E00:1 3.300E00:2 3.300E00:3 3.300E00:4 3.300E00:5 3.229E00:6 3.985E00:7 3.846E-03:8 -3.207E-03:9 -6.392E-04:a 1.164E-07:b 
1.633E-04:c -4.445E-12:d -1.633E-04:e -3.469E-18:f -3.310E-12:10 3.310E-12:11 7.119E-18:12 -3.469E-18:13 
#C 3.0975636542E-08 19
3.300E00:1 3.300E00:2 3.300E00:3 3.300E00:4 3.300E00:5 3.229E00:6 3.985E00:7 3.846E-03:8 -3.207E-03:9 -6.392E-04:a 1.164E-07:b 
1.633E-04:c -4.445E-12:d -1.633E-04:e -3.469E-18:f -3.310E-12:10 3.310E-12:11 7.119E-18:12 -3.469E-18:13 
#C 3.1975690723E-08 19
3.300E00:1 3.300E00:2 3.300E00:3 3.300E00:4 3.300E00:5 3.229E00:6 3.985E00:7 3.846E-03:8 -3.207E-03:9 -6.392E-04:a 1.164E-07:b 
1.633E-04:c -4.445E-12:d -1.633E-04:e -3.469E-18:f -3.310E-12:10 3.310E-12:11 7.119E-18:12 -3.469E-18:13 
#C 3.2975744903E-08 19
