#H
SOURCE='PSPICE' VERSION='PSpice 16.0.0 (July 2006)'
TITLE='**** 04/13/10 23:25:08 ******* PSpice 16.0.0 (July 2006) ****** ID# 0 ********'
SUBTITLE=''
TIME='19:33:32' DATE='04/24/10' TEMPERATURE='2.700E01'
ANALYSIS='Transient Analysis' SERIALNO='61413'
ALLVALUES='NO' COMPLEXVALUES='NO' NODES='8'
SWEEPVAR='Time' SWEEPMODE='VAR_STEP'
XBEGIN='0.000E00' XEND='1.500E-08'
FORMAT='0 VOLTSorAMPS;EFLOAT : NODEorBRANCH;NODE  '
DGTLDATA='NO' 
#N 
'V(C_F_D-MSB)' 'V(C_F_D-5SB)' 'V(C_F_D-4SB)' 'V(C_F_D-3SB)' 'V(C_F_D-2SB)' 'V(C_F_D-LSB)' 'ID(M_C_F_C38_M4)' 'V(C_F_C38_ND+)' 
#C 0.0000000000E00 8
8.570E-06:1 9.399E-07:2 3.760E-06:3 2.350E-07:4 9.400E-07:5 3.300E00:6 -3.311E-12:7 3.300E00:8 
#C 5.0000000000E-13 8
8.570E-06:1 9.399E-07:2 3.760E-06:3 2.350E-07:4 9.400E-07:5 3.300E00:6 -3.311E-12:7 3.300E00:8 
#C 1.0000000000E-12 8
8.570E-06:1 9.399E-07:2 3.760E-06:3 2.350E-07:4 9.400E-07:5 3.300E00:6 -3.311E-12:7 3.300E00:8 
#C 2.0000803741E-12 8
8.570E-06:1 9.399E-07:2 3.760E-06:3 2.350E-07:4 9.400E-07:5 3.300E00:6 -3.311E-12:7 3.300E00:8 
#C 4.0002411222E-12 8
8.570E-06:1 9.399E-07:2 3.760E-06:3 2.350E-07:4 9.400E-07:5 3.300E00:6 -3.311E-12:7 3.300E00:8 
#C 8.0005626185E-12 8
8.570E-06:1 9.399E-07:2 3.760E-06:3 2.350E-07:4 9.400E-07:5 3.300E00:6 -3.311E-12:7 3.300E00:8 
#C 1.6001205611E-11 8
8.570E-06:1 9.399E-07:2 3.760E-06:3 2.350E-07:4 9.400E-07:5 3.300E00:6 -3.311E-12:7 3.300E00:8 
#C 3.2002491596E-11 8
8.570E-06:1 9.399E-07:2 3.760E-06:3 2.350E-07:4 9.400E-07:5 3.300E00:6 -3.311E-12:7 3.300E00:8 
#C 6.4005063566E-11 8
8.570E-06:1 9.399E-07:2 3.760E-06:3 2.350E-07:4 9.400E-07:5 3.300E00:6 -3.311E-12:7 3.300E00:8 
#C 1.1400544429E-10 8
8.570E-06:1 9.399E-07:2 3.760E-06:3 2.350E-07:4 9.400E-07:5 3.300E00:6 -3.311E-12:7 3.300E00:8 
#C 1.6400582502E-10 8
8.570E-06:1 9.399E-07:2 3.760E-06:3 2.350E-07:4 9.400E-07:5 3.300E00:6 -3.311E-12:7 3.300E00:8 
#C 2.1400620574E-10 8
8.570E-06:1 9.399E-07:2 3.760E-06:3 2.350E-07:4 9.400E-07:5 3.300E00:6 -3.311E-12:7 3.300E00:8 
#C 2.6400658647E-10 8
8.570E-06:1 9.399E-07:2 3.760E-06:3 2.350E-07:4 9.400E-07:5 3.300E00:6 -3.311E-12:7 3.300E00:8 
#C 3.1400696719E-10 8
8.570E-06:1 9.399E-07:2 3.760E-06:3 2.350E-07:4 9.400E-07:5 3.300E00:6 -3.311E-12:7 3.300E00:8 
#C 3.6400734791E-10 8
8.570E-06:1 9.399E-07:2 3.760E-06:3 2.350E-07:4 9.400E-07:5 3.300E00:6 -3.311E-12:7 3.300E00:8 
#C 4.1400772864E-10 8
8.570E-06:1 9.399E-07:2 3.760E-06:3 2.350E-07:4 9.400E-07:5 3.300E00:6 -3.311E-12:7 3.300E00:8 
#C 4.6400810936E-10 8
8.570E-06:1 9.399E-07:2 3.760E-06:3 2.350E-07:4 9.400E-07:5 3.300E00:6 -3.311E-12:7 3.300E00:8 
#C 5.1400849009E-10 8
8.570E-06:1 9.399E-07:2 3.760E-06:3 2.350E-07:4 9.400E-07:5 3.300E00:6 -3.311E-12:7 3.300E00:8 
#C 5.6400887081E-10 8
8.570E-06:1 9.399E-07:2 3.760E-06:3 2.350E-07:4 9.400E-07:5 3.300E00:6 -3.311E-12:7 3.300E00:8 
#C 6.1400925154E-10 8
8.570E-06:1 9.399E-07:2 3.760E-06:3 2.350E-07:4 9.400E-07:5 3.300E00:6 -3.311E-12:7 3.300E00:8 
#C 6.6400963226E-10 8
8.570E-06:1 9.399E-07:2 3.760E-06:3 2.350E-07:4 9.400E-07:5 3.300E00:6 -3.311E-12:7 3.300E00:8 
#C 7.1401001299E-10 8
8.570E-06:1 9.399E-07:2 3.760E-06:3 2.350E-07:4 9.400E-07:5 3.300E00:6 -3.311E-12:7 3.300E00:8 
#C 7.6401039371E-10 8
8.570E-06:1 9.399E-07:2 3.760E-06:3 2.350E-07:4 9.400E-07:5 3.300E00:6 -3.311E-12:7 3.300E00:8 
#C 8.1401077444E-10 8
8.570E-06:1 9.399E-07:2 3.760E-06:3 2.350E-07:4 9.400E-07:5 3.300E00:6 -3.311E-12:7 3.300E00:8 
#C 8.6401115516E-10 8
8.570E-06:1 9.399E-07:2 3.760E-06:3 2.350E-07:4 9.400E-07:5 3.300E00:6 -3.311E-12:7 3.300E00:8 
#C 9.1401153589E-10 8
8.570E-06:1 9.399E-07:2 3.760E-06:3 2.350E-07:4 9.400E-07:5 3.300E00:6 -3.311E-12:7 3.300E00:8 
#C 9.6401191661E-10 8
8.570E-06:1 9.399E-07:2 3.760E-06:3 2.350E-07:4 9.400E-07:5 3.300E00:6 -3.311E-12:7 3.300E00:8 
#C 1.0140122973E-09 8
8.570E-06:1 9.399E-07:2 3.760E-06:3 2.350E-07:4 9.400E-07:5 3.300E00:6 -3.311E-12:7 3.300E00:8 
#C 1.0640126781E-09 8
8.570E-06:1 9.399E-07:2 3.760E-06:3 2.350E-07:4 9.400E-07:5 3.300E00:6 -3.311E-12:7 3.300E00:8 
#C 1.1140130588E-09 8
8.570E-06:1 9.399E-07:2 3.760E-06:3 2.350E-07:4 9.400E-07:5 3.300E00:6 -3.311E-12:7 3.300E00:8 
#C 1.1640134395E-09 8
8.570E-06:1 9.399E-07:2 3.760E-06:3 2.350E-07:4 9.400E-07:5 3.300E00:6 -3.311E-12:7 3.300E00:8 
#C 1.2140138202E-09 8
8.570E-06:1 9.399E-07:2 3.760E-06:3 2.350E-07:4 9.400E-07:5 3.300E00:6 -3.311E-12:7 3.300E00:8 
#C 1.2640142010E-09 8
8.570E-06:1 9.399E-07:2 3.760E-06:3 2.350E-07:4 9.400E-07:5 3.300E00:6 -3.311E-12:7 3.300E00:8 
#C 1.3140145817E-09 8
8.570E-06:1 9.399E-07:2 3.760E-06:3 2.350E-07:4 9.400E-07:5 3.300E00:6 -3.311E-12:7 3.300E00:8 
#C 1.3640149624E-09 8
8.570E-06:1 9.399E-07:2 3.760E-06:3 2.350E-07:4 9.400E-07:5 3.300E00:6 -3.311E-12:7 3.300E00:8 
#C 1.4140153431E-09 8
8.570E-06:1 9.399E-07:2 3.760E-06:3 2.350E-07:4 9.400E-07:5 3.300E00:6 -3.311E-12:7 3.300E00:8 
#C 1.4640157239E-09 8
8.570E-06:1 9.399E-07:2 3.760E-06:3 2.350E-07:4 9.400E-07:5 3.300E00:6 -3.311E-12:7 3.300E00:8 
#C 1.5140161046E-09 8
8.570E-06:1 9.399E-07:2 3.760E-06:3 2.350E-07:4 9.400E-07:5 3.300E00:6 -3.311E-12:7 3.300E00:8 
#C 1.5640164853E-09 8
8.570E-06:1 9.399E-07:2 3.760E-06:3 2.350E-07:4 9.400E-07:5 3.300E00:6 -3.311E-12:7 3.300E00:8 
#C 1.6140168660E-09 8
8.570E-06:1 9.399E-07:2 3.760E-06:3 2.350E-07:4 9.400E-07:5 3.300E00:6 -3.311E-12:7 3.300E00:8 
#C 1.6640172468E-09 8
8.570E-06:1 9.399E-07:2 3.760E-06:3 2.350E-07:4 9.400E-07:5 3.300E00:6 -3.311E-12:7 3.300E00:8 
#C 1.7140176275E-09 8
8.570E-06:1 9.399E-07:2 3.760E-06:3 2.350E-07:4 9.400E-07:5 3.300E00:6 -3.311E-12:7 3.300E00:8 
#C 1.7640180082E-09 8
8.570E-06:1 9.399E-07:2 3.760E-06:3 2.350E-07:4 9.400E-07:5 3.300E00:6 -3.311E-12:7 3.300E00:8 
#C 1.8140183889E-09 8
8.570E-06:1 9.399E-07:2 3.760E-06:3 2.350E-07:4 9.400E-07:5 3.300E00:6 -3.311E-12:7 3.300E00:8 
#C 1.8640187697E-09 8
8.570E-06:1 9.399E-07:2 3.760E-06:3 2.350E-07:4 9.400E-07:5 3.300E00:6 -3.311E-12:7 3.300E00:8 
#C 1.9140191504E-09 8
8.570E-06:1 9.399E-07:2 3.760E-06:3 2.350E-07:4 9.400E-07:5 3.300E00:6 -3.311E-12:7 3.300E00:8 
#C 1.9640195311E-09 8
8.570E-06:1 9.399E-07:2 3.760E-06:3 2.350E-07:4 9.400E-07:5 3.300E00:6 -3.311E-12:7 3.300E00:8 
#C 2.0140199118E-09 8
8.570E-06:1 9.399E-07:2 3.760E-06:3 2.350E-07:4 9.400E-07:5 3.300E00:6 -3.311E-12:7 3.300E00:8 
#C 2.0640202926E-09 8
8.570E-06:1 9.399E-07:2 3.760E-06:3 2.350E-07:4 9.400E-07:5 3.300E00:6 -3.311E-12:7 3.300E00:8 
#C 2.1140206733E-09 8
8.570E-06:1 9.399E-07:2 3.760E-06:3 2.350E-07:4 9.400E-07:5 3.300E00:6 -3.311E-12:7 3.300E00:8 
#C 2.1640210540E-09 8
8.570E-06:1 9.399E-07:2 3.760E-06:3 2.350E-07:4 9.400E-07:5 3.300E00:6 -3.311E-12:7 3.300E00:8 
#C 2.2140214347E-09 8
8.570E-06:1 9.399E-07:2 3.760E-06:3 2.350E-07:4 9.400E-07:5 3.300E00:6 -3.311E-12:7 3.300E00:8 
#C 2.2640218155E-09 8
8.570E-06:1 9.399E-07:2 3.760E-06:3 2.350E-07:4 9.400E-07:5 3.300E00:6 -3.311E-12:7 3.300E00:8 
#C 2.3140221962E-09 8
8.570E-06:1 9.399E-07:2 3.760E-06:3 2.350E-07:4 9.400E-07:5 3.300E00:6 -3.311E-12:7 3.300E00:8 
#C 2.3640225769E-09 8
8.570E-06:1 9.399E-07:2 3.760E-06:3 2.350E-07:4 9.400E-07:5 3.300E00:6 -3.311E-12:7 3.300E00:8 
#C 2.4140229576E-09 8
8.570E-06:1 9.399E-07:2 3.760E-06:3 2.350E-07:4 9.400E-07:5 3.300E00:6 -3.311E-12:7 3.300E00:8 
#C 2.4640233384E-09 8
8.570E-06:1 9.399E-07:2 3.760E-06:3 2.350E-07:4 9.400E-07:5 3.300E00:6 -3.311E-12:7 3.300E00:8 
#C 2.5140237191E-09 8
8.570E-06:1 9.399E-07:2 3.760E-06:3 2.350E-07:4 9.400E-07:5 3.300E00:6 -3.311E-12:7 3.300E00:8 
#C 2.5640240998E-09 8
8.570E-06:1 9.399E-07:2 3.760E-06:3 2.350E-07:4 9.400E-07:5 3.300E00:6 -3.311E-12:7 3.300E00:8 
#C 2.6140244805E-09 8
8.570E-06:1 9.399E-07:2 3.760E-06:3 2.350E-07:4 9.400E-07:5 3.300E00:6 -3.311E-12:7 3.300E00:8 
#C 2.6640248612E-09 8
8.570E-06:1 9.399E-07:2 3.760E-06:3 2.350E-07:4 9.400E-07:5 3.300E00:6 -3.311E-12:7 3.300E00:8 
#C 2.7140252420E-09 8
8.570E-06:1 9.399E-07:2 3.760E-06:3 2.350E-07:4 9.400E-07:5 3.300E00:6 -3.311E-12:7 3.300E00:8 
#C 2.7640256227E-09 8
8.570E-06:1 9.399E-07:2 3.760E-06:3 2.350E-07:4 9.400E-07:5 3.300E00:6 -3.311E-12:7 3.300E00:8 
#C 2.8140260034E-09 8
8.570E-06:1 9.399E-07:2 3.760E-06:3 2.350E-07:4 9.400E-07:5 3.300E00:6 -3.311E-12:7 3.300E00:8 
#C 2.8640263841E-09 8
8.570E-06:1 9.399E-07:2 3.760E-06:3 2.350E-07:4 9.400E-07:5 3.300E00:6 -3.311E-12:7 3.300E00:8 
#C 2.9140267649E-09 8
8.570E-06:1 9.399E-07:2 3.760E-06:3 2.350E-07:4 9.400E-07:5 3.300E00:6 -3.311E-12:7 3.300E00:8 
#C 2.9640271456E-09 8
8.570E-06:1 9.399E-07:2 3.760E-06:3 2.350E-07:4 9.400E-07:5 3.300E00:6 -3.311E-12:7 3.300E00:8 
#C 3.0140275263E-09 8
8.570E-06:1 9.399E-07:2 3.760E-06:3 2.350E-07:4 9.400E-07:5 3.300E00:6 -3.311E-12:7 3.300E00:8 
#C 3.0640279070E-09 8
8.570E-06:1 9.399E-07:2 3.760E-06:3 2.350E-07:4 9.400E-07:5 3.300E00:6 -3.311E-12:7 3.300E00:8 
#C 3.1140282878E-09 8
8.570E-06:1 9.399E-07:2 3.760E-06:3 2.350E-07:4 9.400E-07:5 3.300E00:6 -3.311E-12:7 3.300E00:8 
#C 3.1640286685E-09 8
8.570E-06:1 9.399E-07:2 3.760E-06:3 2.350E-07:4 9.400E-07:5 3.300E00:6 -3.311E-12:7 3.300E00:8 
#C 3.2140290492E-09 8
8.570E-06:1 9.399E-07:2 3.760E-06:3 2.350E-07:4 9.400E-07:5 3.300E00:6 -3.311E-12:7 3.300E00:8 
#C 3.2640294299E-09 8
8.570E-06:1 9.399E-07:2 3.760E-06:3 2.350E-07:4 9.400E-07:5 3.300E00:6 -3.311E-12:7 3.300E00:8 
#C 3.3140298107E-09 8
8.570E-06:1 9.399E-07:2 3.760E-06:3 2.350E-07:4 9.400E-07:5 3.300E00:6 -3.311E-12:7 3.300E00:8 
#C 3.3640301914E-09 8
8.570E-06:1 9.399E-07:2 3.760E-06:3 2.350E-07:4 9.400E-07:5 3.300E00:6 -3.311E-12:7 3.300E00:8 
#C 3.4140305721E-09 8
8.570E-06:1 9.399E-07:2 3.760E-06:3 2.350E-07:4 9.400E-07:5 3.300E00:6 -3.311E-12:7 3.300E00:8 
#C 3.4640309528E-09 8
8.570E-06:1 9.399E-07:2 3.760E-06:3 2.350E-07:4 9.400E-07:5 3.300E00:6 -3.311E-12:7 3.300E00:8 
#C 3.5140313336E-09 8
8.570E-06:1 9.399E-07:2 3.760E-06:3 2.350E-07:4 9.400E-07:5 3.300E00:6 -3.311E-12:7 3.300E00:8 
#C 3.5640317143E-09 8
8.570E-06:1 9.399E-07:2 3.760E-06:3 2.350E-07:4 9.400E-07:5 3.300E00:6 -3.311E-12:7 3.300E00:8 
#C 3.6140320950E-09 8
8.570E-06:1 9.399E-07:2 3.760E-06:3 2.350E-07:4 9.400E-07:5 3.300E00:6 -3.311E-12:7 3.300E00:8 
#C 3.6640324757E-09 8
8.570E-06:1 9.399E-07:2 3.760E-06:3 2.350E-07:4 9.400E-07:5 3.300E00:6 -3.311E-12:7 3.300E00:8 
#C 3.7140328565E-09 8
8.570E-06:1 9.399E-07:2 3.760E-06:3 2.350E-07:4 9.400E-07:5 3.300E00:6 -3.311E-12:7 3.300E00:8 
#C 3.7640332372E-09 8
8.570E-06:1 9.399E-07:2 3.760E-06:3 2.350E-07:4 9.400E-07:5 3.300E00:6 -3.311E-12:7 3.300E00:8 
#C 3.8140336179E-09 8
8.570E-06:1 9.399E-07:2 3.760E-06:3 2.350E-07:4 9.400E-07:5 3.300E00:6 -3.311E-12:7 3.300E00:8 
#C 3.8640339986E-09 8
8.570E-06:1 9.399E-07:2 3.760E-06:3 2.350E-07:4 9.400E-07:5 3.300E00:6 -3.311E-12:7 3.300E00:8 
#C 3.9140343794E-09 8
8.570E-06:1 9.399E-07:2 3.760E-06:3 2.350E-07:4 9.400E-07:5 3.300E00:6 -3.311E-12:7 3.300E00:8 
#C 3.9640347601E-09 8
8.570E-06:1 9.399E-07:2 3.760E-06:3 2.350E-07:4 9.400E-07:5 3.300E00:6 -3.311E-12:7 3.300E00:8 
#C 4.0140351408E-09 8
8.570E-06:1 9.399E-07:2 3.760E-06:3 2.350E-07:4 9.400E-07:5 3.300E00:6 -3.311E-12:7 3.300E00:8 
#C 4.0640355215E-09 8
8.570E-06:1 9.399E-07:2 3.760E-06:3 2.350E-07:4 9.400E-07:5 3.300E00:6 -3.311E-12:7 3.300E00:8 
#C 4.1140359023E-09 8
8.570E-06:1 9.399E-07:2 3.760E-06:3 2.350E-07:4 9.400E-07:5 3.300E00:6 -3.311E-12:7 3.300E00:8 
#C 4.1640362830E-09 8
8.570E-06:1 9.399E-07:2 3.760E-06:3 2.350E-07:4 9.400E-07:5 3.300E00:6 -3.311E-12:7 3.300E00:8 
#C 4.2140366637E-09 8
8.570E-06:1 9.399E-07:2 3.760E-06:3 2.350E-07:4 9.400E-07:5 3.300E00:6 -3.311E-12:7 3.300E00:8 
#C 4.2640370444E-09 8
8.570E-06:1 9.399E-07:2 3.760E-06:3 2.350E-07:4 9.400E-07:5 3.300E00:6 -3.311E-12:7 3.300E00:8 
#C 4.3140374252E-09 8
8.570E-06:1 9.399E-07:2 3.760E-06:3 2.350E-07:4 9.400E-07:5 3.300E00:6 -3.311E-12:7 3.300E00:8 
#C 4.3640378059E-09 8
8.570E-06:1 9.399E-07:2 3.760E-06:3 2.350E-07:4 9.400E-07:5 3.300E00:6 -3.311E-12:7 3.300E00:8 
#C 4.4140381866E-09 8
8.570E-06:1 9.399E-07:2 3.760E-06:3 2.350E-07:4 9.400E-07:5 3.300E00:6 -3.311E-12:7 3.300E00:8 
#C 4.4640385673E-09 8
8.570E-06:1 9.399E-07:2 3.760E-06:3 2.350E-07:4 9.400E-07:5 3.300E00:6 -3.311E-12:7 3.300E00:8 
#C 4.5140389481E-09 8
8.570E-06:1 9.399E-07:2 3.760E-06:3 2.350E-07:4 9.400E-07:5 3.300E00:6 -3.311E-12:7 3.300E00:8 
#C 4.5640393288E-09 8
8.570E-06:1 9.399E-07:2 3.760E-06:3 2.350E-07:4 9.400E-07:5 3.300E00:6 -3.311E-12:7 3.300E00:8 
#C 4.6140397095E-09 8
8.570E-06:1 9.399E-07:2 3.760E-06:3 2.350E-07:4 9.400E-07:5 3.300E00:6 -3.311E-12:7 3.300E00:8 
#C 4.6640400902E-09 8
8.570E-06:1 9.399E-07:2 3.760E-06:3 2.350E-07:4 9.400E-07:5 3.300E00:6 -3.311E-12:7 3.300E00:8 
#C 4.7140404710E-09 8
8.570E-06:1 9.399E-07:2 3.760E-06:3 2.350E-07:4 9.400E-07:5 3.300E00:6 -3.311E-12:7 3.300E00:8 
#C 4.7640408517E-09 8
8.570E-06:1 9.399E-07:2 3.760E-06:3 2.350E-07:4 9.400E-07:5 3.300E00:6 -3.311E-12:7 3.300E00:8 
#C 4.8140412324E-09 8
8.570E-06:1 9.399E-07:2 3.760E-06:3 2.350E-07:4 9.400E-07:5 3.300E00:6 -3.311E-12:7 3.300E00:8 
#C 4.8640416131E-09 8
8.570E-06:1 9.399E-07:2 3.760E-06:3 2.350E-07:4 9.400E-07:5 3.300E00:6 -3.311E-12:7 3.300E00:8 
#C 4.9140419939E-09 8
8.570E-06:1 9.399E-07:2 3.760E-06:3 2.350E-07:4 9.400E-07:5 3.300E00:6 -3.311E-12:7 3.300E00:8 
#C 4.9640423746E-09 8
8.570E-06:1 9.399E-07:2 3.760E-06:3 2.350E-07:4 9.400E-07:5 3.300E00:6 -3.311E-12:7 3.300E00:8 
#C 5.0140427553E-09 8
8.570E-06:1 9.399E-07:2 3.760E-06:3 2.350E-07:4 9.400E-07:5 3.300E00:6 -3.311E-12:7 3.300E00:8 
#C 5.0640431360E-09 8
8.570E-06:1 9.399E-07:2 3.760E-06:3 2.350E-07:4 9.400E-07:5 3.300E00:6 -3.311E-12:7 3.300E00:8 
#C 5.1140435168E-09 8
8.570E-06:1 9.399E-07:2 3.760E-06:3 2.350E-07:4 9.400E-07:5 3.300E00:6 -3.311E-12:7 3.300E00:8 
#C 5.1640438975E-09 8
8.570E-06:1 9.399E-07:2 3.760E-06:3 2.350E-07:4 9.400E-07:5 3.300E00:6 -3.311E-12:7 3.300E00:8 
#C 5.2140442782E-09 8
8.570E-06:1 9.399E-07:2 3.760E-06:3 2.350E-07:4 9.400E-07:5 3.300E00:6 -3.311E-12:7 3.300E00:8 
#C 5.2640446589E-09 8
8.570E-06:1 9.399E-07:2 3.760E-06:3 2.350E-07:4 9.400E-07:5 3.300E00:6 -3.311E-12:7 3.300E00:8 
#C 5.3140450397E-09 8
8.570E-06:1 9.399E-07:2 3.760E-06:3 2.350E-07:4 9.400E-07:5 3.300E00:6 -3.311E-12:7 3.300E00:8 
#C 5.3640454204E-09 8
8.570E-06:1 9.399E-07:2 3.760E-06:3 2.350E-07:4 9.400E-07:5 3.300E00:6 -3.311E-12:7 3.300E00:8 
#C 5.4140458011E-09 8
8.570E-06:1 9.399E-07:2 3.760E-06:3 2.350E-07:4 9.400E-07:5 3.300E00:6 -3.311E-12:7 3.300E00:8 
#C 5.4640461818E-09 8
8.570E-06:1 9.399E-07:2 3.760E-06:3 2.350E-07:4 9.400E-07:5 3.300E00:6 -3.311E-12:7 3.300E00:8 
#C 5.5140465626E-09 8
8.570E-06:1 9.399E-07:2 3.760E-06:3 2.350E-07:4 9.400E-07:5 3.300E00:6 -3.311E-12:7 3.300E00:8 
#C 5.5640469433E-09 8
8.570E-06:1 9.399E-07:2 3.760E-06:3 2.350E-07:4 9.400E-07:5 3.300E00:6 -3.311E-12:7 3.300E00:8 
#C 5.6140473240E-09 8
8.570E-06:1 9.399E-07:2 3.760E-06:3 2.350E-07:4 9.400E-07:5 3.300E00:6 -3.311E-12:7 3.300E00:8 
#C 5.6640477047E-09 8
8.570E-06:1 9.399E-07:2 3.760E-06:3 2.350E-07:4 9.400E-07:5 3.300E00:6 -3.311E-12:7 3.300E00:8 
#C 5.7140480855E-09 8
8.570E-06:1 9.399E-07:2 3.760E-06:3 2.350E-07:4 9.400E-07:5 3.300E00:6 -3.311E-12:7 3.300E00:8 
#C 5.7640484662E-09 8
8.570E-06:1 9.399E-07:2 3.760E-06:3 2.350E-07:4 9.400E-07:5 3.300E00:6 -3.311E-12:7 3.300E00:8 
#C 5.8140488469E-09 8
8.570E-06:1 9.399E-07:2 3.760E-06:3 2.350E-07:4 9.400E-07:5 3.300E00:6 -3.311E-12:7 3.300E00:8 
#C 5.8640492276E-09 8
8.570E-06:1 9.399E-07:2 3.760E-06:3 2.350E-07:4 9.400E-07:5 3.300E00:6 -3.311E-12:7 3.300E00:8 
#C 5.9140496084E-09 8
8.570E-06:1 9.399E-07:2 3.760E-06:3 2.350E-07:4 9.400E-07:5 3.300E00:6 -3.311E-12:7 3.300E00:8 
#C 5.9640499891E-09 8
8.570E-06:1 9.399E-07:2 3.760E-06:3 2.350E-07:4 9.400E-07:5 3.300E00:6 -3.311E-12:7 3.300E00:8 
#C 6.0140503698E-09 8
8.570E-06:1 9.399E-07:2 3.760E-06:3 2.350E-07:4 9.400E-07:5 3.300E00:6 -3.311E-12:7 3.300E00:8 
#C 6.0640507505E-09 8
8.570E-06:1 9.399E-07:2 3.760E-06:3 2.350E-07:4 9.400E-07:5 3.300E00:6 -3.311E-12:7 3.300E00:8 
#C 6.1140511313E-09 8
8.570E-06:1 9.399E-07:2 3.760E-06:3 2.350E-07:4 9.400E-07:5 3.300E00:6 -3.311E-12:7 3.300E00:8 
#C 6.1640515120E-09 8
8.570E-06:1 9.399E-07:2 3.760E-06:3 2.350E-07:4 9.400E-07:5 3.300E00:6 -3.311E-12:7 3.300E00:8 
#C 6.2140518927E-09 8
8.570E-06:1 9.399E-07:2 3.760E-06:3 2.350E-07:4 9.400E-07:5 3.300E00:6 -3.311E-12:7 3.300E00:8 
#C 6.2640522734E-09 8
8.570E-06:1 9.399E-07:2 3.760E-06:3 2.350E-07:4 9.400E-07:5 3.300E00:6 -3.311E-12:7 3.300E00:8 
#C 6.3140526542E-09 8
8.570E-06:1 9.399E-07:2 3.760E-06:3 2.350E-07:4 9.400E-07:5 3.300E00:6 -3.311E-12:7 3.300E00:8 
#C 6.3640530349E-09 8
8.570E-06:1 9.399E-07:2 3.760E-06:3 2.350E-07:4 9.400E-07:5 3.300E00:6 -3.311E-12:7 3.300E00:8 
#C 6.4140534156E-09 8
8.570E-06:1 9.399E-07:2 3.760E-06:3 2.350E-07:4 9.400E-07:5 3.300E00:6 -3.311E-12:7 3.300E00:8 
#C 6.4640537963E-09 8
8.570E-06:1 9.399E-07:2 3.760E-06:3 2.350E-07:4 9.400E-07:5 3.300E00:6 -3.311E-12:7 3.300E00:8 
#C 6.5140541770E-09 8
8.570E-06:1 9.399E-07:2 3.760E-06:3 2.350E-07:4 9.400E-07:5 3.300E00:6 -3.311E-12:7 3.300E00:8 
#C 6.5640545578E-09 8
8.570E-06:1 9.399E-07:2 3.760E-06:3 2.350E-07:4 9.400E-07:5 3.300E00:6 -3.311E-12:7 3.300E00:8 
#C 6.6140549385E-09 8
8.570E-06:1 9.399E-07:2 3.760E-06:3 2.350E-07:4 9.400E-07:5 3.300E00:6 -3.311E-12:7 3.300E00:8 
#C 6.6640553192E-09 8
8.570E-06:1 9.399E-07:2 3.760E-06:3 2.350E-07:4 9.400E-07:5 3.300E00:6 -3.311E-12:7 3.300E00:8 
#C 6.7140556999E-09 8
8.570E-06:1 9.399E-07:2 3.760E-06:3 2.350E-07:4 9.400E-07:5 3.300E00:6 -3.311E-12:7 3.300E00:8 
#C 6.7640560807E-09 8
8.570E-06:1 9.399E-07:2 3.760E-06:3 2.350E-07:4 9.400E-07:5 3.300E00:6 -3.311E-12:7 3.300E00:8 
#C 6.8140564614E-09 8
8.570E-06:1 9.399E-07:2 3.760E-06:3 2.350E-07:4 9.400E-07:5 3.300E00:6 -3.311E-12:7 3.300E00:8 
#C 6.8640568421E-09 8
8.570E-06:1 9.399E-07:2 3.760E-06:3 2.350E-07:4 9.400E-07:5 3.300E00:6 -3.311E-12:7 3.300E00:8 
#C 6.9140572228E-09 8
8.570E-06:1 9.399E-07:2 3.760E-06:3 2.350E-07:4 9.400E-07:5 3.300E00:6 -3.311E-12:7 3.300E00:8 
#C 6.9640576036E-09 8
8.570E-06:1 9.399E-07:2 3.760E-06:3 2.350E-07:4 9.400E-07:5 3.300E00:6 -3.311E-12:7 3.300E00:8 
#C 7.0140579843E-09 8
8.570E-06:1 9.399E-07:2 3.760E-06:3 2.350E-07:4 9.400E-07:5 3.300E00:6 -3.311E-12:7 3.300E00:8 
#C 7.0640583650E-09 8
8.570E-06:1 9.399E-07:2 3.760E-06:3 2.350E-07:4 9.400E-07:5 3.300E00:6 -3.311E-12:7 3.300E00:8 
#C 7.1140587457E-09 8
8.570E-06:1 9.399E-07:2 3.760E-06:3 2.350E-07:4 9.400E-07:5 3.300E00:6 -3.311E-12:7 3.300E00:8 
#C 7.1640591265E-09 8
8.570E-06:1 9.399E-07:2 3.760E-06:3 2.350E-07:4 9.400E-07:5 3.300E00:6 -3.311E-12:7 3.300E00:8 
#C 7.2140595072E-09 8
8.570E-06:1 9.399E-07:2 3.760E-06:3 2.350E-07:4 9.400E-07:5 3.300E00:6 -3.311E-12:7 3.300E00:8 
#C 7.2640598879E-09 8
8.570E-06:1 9.399E-07:2 3.760E-06:3 2.350E-07:4 9.400E-07:5 3.300E00:6 -3.311E-12:7 3.300E00:8 
#C 7.3140602686E-09 8
8.570E-06:1 9.399E-07:2 3.760E-06:3 2.350E-07:4 9.400E-07:5 3.300E00:6 -3.311E-12:7 3.300E00:8 
#C 7.3640606494E-09 8
8.570E-06:1 9.399E-07:2 3.760E-06:3 2.350E-07:4 9.400E-07:5 3.300E00:6 -3.311E-12:7 3.300E00:8 
#C 7.4140610301E-09 8
8.570E-06:1 9.399E-07:2 3.760E-06:3 2.350E-07:4 9.400E-07:5 3.300E00:6 -3.311E-12:7 3.300E00:8 
#C 7.4640614108E-09 8
8.570E-06:1 9.399E-07:2 3.760E-06:3 2.350E-07:4 9.400E-07:5 3.300E00:6 -3.311E-12:7 3.300E00:8 
#C 7.5140617915E-09 8
8.570E-06:1 9.399E-07:2 3.760E-06:3 2.350E-07:4 9.400E-07:5 3.300E00:6 -3.311E-12:7 3.300E00:8 
#C 7.5640621723E-09 8
8.570E-06:1 9.399E-07:2 3.760E-06:3 2.350E-07:4 9.400E-07:5 3.300E00:6 -3.311E-12:7 3.300E00:8 
#C 7.6140625530E-09 8
8.570E-06:1 9.399E-07:2 3.760E-06:3 2.350E-07:4 9.400E-07:5 3.300E00:6 -3.311E-12:7 3.300E00:8 
#C 7.6640629337E-09 8
8.570E-06:1 9.399E-07:2 3.760E-06:3 2.350E-07:4 9.400E-07:5 3.300E00:6 -3.311E-12:7 3.300E00:8 
#C 7.7140633144E-09 8
