#H
SOURCE='PSPICE' VERSION='PSpice 16.0.0 (July 2006)'
TITLE='**** 05/18/10 12:08:24 ******* PSpice 16.0.0 (July 2006) ****** ID# 0 ********'
SUBTITLE=''
TIME='16:02:20' DATE='05/30/10' TEMPERATURE='2.700E01'
ANALYSIS='Transient Analysis' SERIALNO='61413'
ALLVALUES='NO' COMPLEXVALUES='NO' NODES='19'
SWEEPVAR='Time' SWEEPMODE='VAR_STEP'
XBEGIN='0.000E00' XEND='5.000E-08'
FORMAT='0 VOLTSorAMPS;EFLOAT : NODEorBRANCH;NODE  '
DGTLDATA='NO' 
#N 
'V(C_F_D_LSB)' 'V(C_F_D_2SB)' 'V(C_F_D_3SB)' 'V(C_F_D_4SB)' 'V(C_F_D_5SB)' 'V(C_F_D_MSB)' 'V(C_F_C60_NDNEG)' 'ID(M_C_F_C60_M4)' 
'IB(M_C_F_C60_M4)' 'IS(M_C_F_C60_M4)' 'IG(M_C_F_C60_M4)' 'ID(M_C_F_C60_M1)' 'IB(M_C_F_C60_M1)' 'IS(M_C_F_C60_M1)' 'IG(M_C_F_C60_M1)' 
'ID(M_C_F_C60_M3)' 'IB(M_C_F_C60_M3)' 'IS(M_C_F_C60_M3)' 'IG(M_C_F_C60_M3)' 
#C 0.0000000000E00 19
3.300E00:1 3.300E00:2 3.300E00:3 3.300E00:4 3.300E00:5 3.229E00:6 3.989E00:7 -2.948E-12:8 2.948E-12:9 2.819E-20:a 0.000E00:b 
2.360E-04:c -4.371E-12:d -2.360E-04:e 0.000E00:f 3.764E-03:10 -3.764E-03:11 -1.001E-08:12 0.000E00:13 
#C 1.0000000000E-11 19
3.300E00:1 3.300E00:2 3.300E00:3 3.300E00:4 3.300E00:5 3.229E00:6 3.989E00:7 -2.947E-12:8 4.924E-12:9 2.624E-14:a -2.003E-12:b 
2.360E-04:c -4.816E-12:d -2.360E-04:e -2.817E-12:f 3.764E-03:10 -3.764E-03:11 -1.001E-08:12 -5.005E-13:13 
#C 2.0000000000E-11 19
3.300E00:1 3.300E00:2 3.300E00:3 3.300E00:4 3.300E00:5 3.229E00:6 3.989E00:7 -2.947E-12:8 4.924E-12:9 2.624E-14:a -2.003E-12:b 
2.360E-04:c -4.816E-12:d -2.360E-04:e -2.817E-12:f 3.764E-03:10 -3.764E-03:11 -1.001E-08:12 -5.005E-13:13 
#C 4.0000152290E-11 19
3.300E00:1 3.300E00:2 3.300E00:3 3.300E00:4 3.300E00:5 3.229E00:6 3.989E00:7 -2.948E-12:8 2.948E-12:9 2.819E-20:a 0.000E00:b 
2.360E-04:c -4.371E-12:d -2.360E-04:e 0.000E00:f 3.764E-03:10 -3.764E-03:11 -1.001E-08:12 0.000E00:13 
#C 8.0000456870E-11 19
3.300E00:1 3.300E00:2 3.300E00:3 3.300E00:4 3.300E00:5 3.229E00:6 3.989E00:7 -2.948E-12:8 2.948E-12:9 2.819E-20:a 0.000E00:b 
2.360E-04:c -4.371E-12:d -2.360E-04:e 0.000E00:f 3.764E-03:10 -3.764E-03:11 -1.001E-08:12 0.000E00:13 
#C 1.6000106603E-10 19
3.300E00:1 3.300E00:2 3.300E00:3 3.300E00:4 3.300E00:5 3.229E00:6 3.989E00:7 -2.948E-12:8 2.948E-12:9 2.819E-20:a 0.000E00:b 
2.360E-04:c -4.371E-12:d -2.360E-04:e 0.000E00:f 3.764E-03:10 -3.764E-03:11 -1.001E-08:12 0.000E00:13 
#C 3.2000228435E-10 19
3.300E00:1 3.300E00:2 3.300E00:3 3.300E00:4 3.300E00:5 3.229E00:6 3.989E00:7 -2.948E-12:8 2.948E-12:9 2.819E-20:a 0.000E00:b 
2.360E-04:c -4.371E-12:d -2.360E-04:e 0.000E00:f 3.764E-03:10 -3.764E-03:11 -1.001E-08:12 0.000E00:13 
#C 6.4000472099E-10 19
3.300E00:1 3.300E00:2 3.300E00:3 3.300E00:4 3.300E00:5 3.229E00:6 3.989E00:7 -2.948E-12:8 2.948E-12:9 2.819E-20:a 0.000E00:b 
2.360E-04:c -4.371E-12:d -2.360E-04:e 0.000E00:f 3.764E-03:10 -3.764E-03:11 -1.001E-08:12 0.000E00:13 
#C 1.2800095943E-09 19
3.300E00:1 3.300E00:2 3.300E00:3 3.300E00:4 3.300E00:5 3.229E00:6 3.989E00:7 -2.948E-12:8 2.948E-12:9 2.819E-20:a 0.000E00:b 
2.360E-04:c -4.371E-12:d -2.360E-04:e 0.000E00:f 3.764E-03:10 -3.764E-03:11 -1.001E-08:12 0.000E00:13 
#C 2.0000000001E-09 19
3.300E00:1 3.300E00:2 3.300E00:3 3.300E00:4 3.300E00:5 3.229E00:6 3.989E00:7 -2.948E-12:8 2.948E-12:9 2.819E-20:a 0.000E00:b 
2.360E-04:c -4.371E-12:d -2.360E-04:e 0.000E00:f 3.764E-03:10 -3.764E-03:11 -1.001E-08:12 0.000E00:13 
#C 2.0200000001E-09 19
3.300E00:1 3.300E00:2 3.300E00:3 3.300E00:4 3.300E00:5 3.229E00:6 3.986E00:7 1.530E-05:8 1.155E-03:9 1.536E-05:a -1.186E-03:b 
2.177E-04:c 3.413E-06:d -2.341E-04:e 1.289E-05:f 3.337E-03:10 -3.054E-03:11 1.545E-05:12 -2.978E-04:13 
#C 2.0600003047E-09 19
3.300E00:1 3.300E00:2 3.300E00:3 3.300E00:4 3.300E00:5 3.229E00:6 3.978E00:7 2.141E-05:8 1.603E-03:9 2.146E-05:a -1.646E-03:b 
2.177E-04:c 3.413E-06:d -2.340E-04:e 1.289E-05:f 2.395E-03:10 -2.005E-03:11 2.126E-05:12 -4.120E-04:13 
#C 2.1400009138E-09 19
3.300E00:1 3.300E00:2 3.300E00:3 3.300E00:4 3.300E00:5 3.229E00:6 3.963E00:7 1.603E-05:8 1.156E-03:9 1.597E-05:a -1.188E-03:b 
2.008E-04:c 6.715E-06:d -2.340E-04:e 2.650E-05:f 1.344E-03:10 -1.046E-03:11 1.581E-05:12 -3.146E-04:13 
#C 2.2000000001E-09 19
3.300E00:1 3.300E00:2 3.300E00:3 3.300E00:4 3.300E00:5 3.229E00:6 3.954E00:7 1.258E-05:8 9.222E-04:9 1.259E-05:a -9.474E-04:b 
2.404E-04:c -1.269E-06:d -2.309E-04:e -8.208E-06:f 9.652E-04:10 -7.301E-04:11 1.255E-05:12 -2.477E-04:13 
#C 2.2160001219E-09 19
3.300E00:1 3.300E00:2 3.300E00:3 3.300E00:4 3.300E00:5 3.229E00:6 3.952E00:7 1.430E-05:8 1.033E-03:9 1.428E-05:a -1.062E-03:b 
2.205E-04:c 2.723E-06:d -2.324E-04:e 9.144E-06:f 9.037E-04:10 -7.034E-04:11 1.058E-05:12 -2.108E-04:13 
#C 2.2480026939E-09 19
3.300E00:1 3.300E00:2 3.300E00:3 3.300E00:4 3.300E00:5 3.229E00:6 3.950E00:7 6.814E-06:8 4.910E-04:9 6.806E-06:a -5.046E-04:b 
2.205E-04:c 2.723E-06:d -2.324E-04:e 9.144E-06:f 8.123E-04:10 -6.499E-04:11 8.556E-06:12 -1.709E-04:13 
#C 2.3120078378E-09 19
3.300E00:1 3.300E00:2 3.300E00:3 3.300E00:4 3.300E00:5 3.229E00:6 3.947E00:7 2.173E-06:8 1.551E-04:9 2.167E-06:a -1.594E-04:b 
2.508E-04:c -3.176E-06:d -2.327E-04:e -1.493E-05:f 7.353E-04:10 -7.169E-04:11 9.441E-07:12 -1.935E-05:13 
#C 2.4400181257E-09 19
3.300E00:1 3.300E00:2 3.300E00:3 3.300E00:4 3.300E00:5 3.229E00:6 3.949E00:7 -5.458E-06:8 -3.940E-04:9 -5.476E-06:a 4.049E-04:b 
2.386E-04:c -8.166E-07:d -2.325E-04:e -5.299E-06:f 7.934E-04:10 -8.923E-04:11 -5.213E-06:12 1.041E-04:13 
#C 2.6960387015E-09 19
3.300E00:1 3.300E00:2 3.300E00:3 3.300E00:4 3.300E00:5 3.229E00:6 3.966E00:7 -7.660E-06:8 -5.608E-04:9 -7.659E-06:a 5.762E-04:b 
2.560E-04:c -3.855E-06:d -2.370E-04:e -1.509E-05:f 1.531E-03:10 -1.680E-03:11 -7.996E-06:12 1.574E-04:13 
#C 3.2080798530E-09 19
3.300E00:1 3.300E00:2 3.300E00:3 3.300E00:4 3.300E00:5 3.229E00:6 3.986E00:7 -1.014E-08:8 -7.474E-06:9 -5.933E-10:a 7.485E-06:b 
2.241E-04:c 2.384E-06:d -2.369E-04:e 1.045E-05:f 3.251E-03:10 -3.241E-03:11 4.208E-07:12 -1.021E-05:13 
#C 3.8671768391E-09 19
3.300E00:1 3.300E00:2 3.300E00:3 3.300E00:4 3.300E00:5 3.229E00:6 3.988E00:7 -6.348E-07:8 -4.108E-05:9 -6.457E-07:a 4.236E-05:b 
2.463E-04:c -2.000E-06:d -2.363E-04:e -8.017E-06:f 3.547E-03:10 -3.569E-03:11 -1.119E-06:12 2.330E-05:13 
#C 4.8672310197E-09 19
3.300E00:1 3.300E00:2 3.300E00:3 3.300E00:4 3.300E00:5 3.229E00:6 3.989E00:7 -4.007E-08:8 -2.925E-06:9 -3.844E-08:a 3.003E-06:b 
2.354E-04:c 1.918E-07:d -2.368E-04:e 1.215E-06:f 3.742E-03:10 -3.743E-03:11 -2.556E-08:12 2.927E-07:13 
#C 5.8672852003E-09 19
3.300E00:1 3.300E00:2 3.300E00:3 3.300E00:4 3.300E00:5 3.229E00:6 3.989E00:7 5.431E-08:8 4.088E-06:9 5.432E-08:a -4.197E-06:b 
2.354E-04:c 1.918E-07:d -2.368E-04:e 1.215E-06:f 3.770E-03:10 -3.770E-03:11 2.982E-08:12 -7.671E-07:13 
#C 6.8673393809E-09 19
3.300E00:1 3.300E00:2 3.300E00:3 3.300E00:4 3.300E00:5 3.229E00:6 3.989E00:7 5.431E-08:8 4.088E-06:9 5.432E-08:a -4.197E-06:b 
2.354E-04:c 1.918E-07:d -2.368E-04:e 1.215E-06:f 3.767E-03:10 -3.768E-03:11 -4.580E-08:12 6.894E-07:13 
#C 7.8673935616E-09 19
3.300E00:1 3.300E00:2 3.300E00:3 3.300E00:4 3.300E00:5 3.229E00:6 3.989E00:7 5.431E-08:8 4.088E-06:9 5.432E-08:a -4.197E-06:b 
2.354E-04:c 1.918E-07:d -2.368E-04:e 1.215E-06:f 3.767E-03:10 -3.768E-03:11 -4.580E-08:12 6.894E-07:13 
#C 8.8674477422E-09 19
3.300E00:1 3.300E00:2 3.300E00:3 3.300E00:4 3.300E00:5 3.229E00:6 3.989E00:7 5.431E-08:8 4.088E-06:9 5.432E-08:a -4.197E-06:b 
2.354E-04:c 1.918E-07:d -2.368E-04:e 1.215E-06:f 3.767E-03:10 -3.768E-03:11 -4.580E-08:12 6.894E-07:13 
#C 9.8675019228E-09 19
3.300E00:1 3.300E00:2 3.300E00:3 3.300E00:4 3.300E00:5 3.229E00:6 3.989E00:7 5.431E-08:8 4.088E-06:9 5.432E-08:a -4.197E-06:b 
2.354E-04:c 1.918E-07:d -2.368E-04:e 1.215E-06:f 3.767E-03:10 -3.768E-03:11 -4.580E-08:12 6.894E-07:13 
#C 1.0867556103E-08 19
3.300E00:1 3.300E00:2 3.300E00:3 3.300E00:4 3.300E00:5 3.229E00:6 3.989E00:7 5.431E-08:8 4.088E-06:9 5.432E-08:a -4.197E-06:b 
2.354E-04:c 1.918E-07:d -2.368E-04:e 1.215E-06:f 3.767E-03:10 -3.768E-03:11 -4.580E-08:12 6.894E-07:13 
#C 1.1867610284E-08 19
3.300E00:1 3.300E00:2 3.300E00:3 3.300E00:4 3.300E00:5 3.229E00:6 3.989E00:7 5.431E-08:8 4.088E-06:9 5.432E-08:a -4.197E-06:b 
2.354E-04:c 1.918E-07:d -2.368E-04:e 1.215E-06:f 3.767E-03:10 -3.768E-03:11 -4.580E-08:12 6.894E-07:13 
#C 1.2867664465E-08 19
3.300E00:1 3.300E00:2 3.300E00:3 3.300E00:4 3.300E00:5 3.229E00:6 3.989E00:7 5.431E-08:8 4.088E-06:9 5.432E-08:a -4.197E-06:b 
2.354E-04:c 1.918E-07:d -2.368E-04:e 1.215E-06:f 3.767E-03:10 -3.768E-03:11 -4.580E-08:12 6.894E-07:13 
#C 1.3867718645E-08 19
3.300E00:1 3.300E00:2 3.300E00:3 3.300E00:4 3.300E00:5 3.229E00:6 3.989E00:7 5.431E-08:8 4.088E-06:9 5.432E-08:a -4.197E-06:b 
2.354E-04:c 1.918E-07:d -2.368E-04:e 1.215E-06:f 3.767E-03:10 -3.768E-03:11 -4.580E-08:12 6.894E-07:13 
#C 1.4867772826E-08 19
3.300E00:1 3.300E00:2 3.300E00:3 3.300E00:4 3.300E00:5 3.229E00:6 3.989E00:7 5.431E-08:8 4.088E-06:9 5.432E-08:a -4.197E-06:b 
2.354E-04:c 1.918E-07:d -2.368E-04:e 1.215E-06:f 3.767E-03:10 -3.768E-03:11 -4.580E-08:12 6.894E-07:13 
#C 1.5000000000E-08 19
3.300E00:1 3.300E00:2 3.300E00:3 3.300E00:4 3.300E00:5 3.229E00:6 3.989E00:7 -5.432E-08:8 -4.088E-06:9 -5.432E-08:a 4.197E-06:b 
2.368E-04:c -1.918E-07:d -2.354E-04:e -1.215E-06:f 3.764E-03:10 -3.762E-03:11 6.536E-08:12 -1.451E-06:13 
#C 1.5100000000E-08 19
3.300E00:1 3.300E00:2 3.300E00:3 3.300E00:4 3.300E00:5 3.229E00:6 3.989E00:7 -2.948E-12:8 2.948E-12:9 2.815E-20:a 0.000E00:b 
2.361E-04:c -4.371E-12:d -2.361E-04:e 0.000E00:f 3.765E-03:10 -3.765E-03:11 -2.056E-08:12 2.029E-07:13 
#C 1.5264587982E-08 19
3.300E00:1 3.300E00:2 3.300E00:3 3.300E00:4 3.300E00:5 3.229E00:6 3.989E00:7 -2.948E-12:8 2.948E-12:9 2.815E-20:a 0.000E00:b 
2.361E-04:c -4.371E-12:d -2.361E-04:e 0.000E00:f 3.768E-03:10 -3.768E-03:11 -2.056E-08:12 2.029E-07:13 
#C 1.5305734978E-08 19
3.300E00:1 3.300E00:2 3.300E00:3 3.300E00:4 3.300E00:5 3.229E00:6 3.989E00:7 -2.948E-12:8 2.948E-12:9 2.815E-20:a 0.000E00:b 
2.361E-04:c -4.371E-12:d -2.361E-04:e 0.000E00:f 3.768E-03:10 -3.769E-03:11 -2.056E-08:12 2.029E-07:13 
#C 1.5388028969E-08 19
3.300E00:1 3.300E00:2 3.300E00:3 3.300E00:4 3.300E00:5 3.229E00:6 3.989E00:7 -2.948E-12:8 2.948E-12:9 -8.392E-19:a 6.939E-18:b 
2.361E-04:c -4.371E-12:d -2.361E-04:e -5.551E-17:f 3.770E-03:10 -3.770E-03:11 -2.056E-08:12 2.029E-07:13 
#C 1.5408602466E-08 19
3.300E00:1 3.300E00:2 3.300E00:3 3.300E00:4 3.300E00:5 3.229E00:6 3.989E00:7 -2.948E-12:8 2.948E-12:9 -5.140E-19:a -2.082E-17:b 
2.361E-04:c -4.371E-12:d -2.361E-04:e 1.388E-16:f 3.770E-03:10 -3.770E-03:11 -2.056E-08:12 2.029E-07:13 
#C 1.5449749462E-08 19
3.300E00:1 3.300E00:2 3.300E00:3 3.300E00:4 3.300E00:5 3.229E00:6 3.989E00:7 -2.948E-12:8 2.948E-12:9 2.815E-20:a 2.776E-17:b 
2.361E-04:c -4.371E-12:d -2.361E-04:e -1.110E-16:f 3.771E-03:10 -3.771E-03:11 -2.056E-08:12 2.029E-07:13 
#C 1.5532043453E-08 19
3.300E00:1 3.300E00:2 3.300E00:3 3.300E00:4 3.300E00:5 3.229E00:6 3.989E00:7 -2.948E-12:8 2.948E-12:9 -8.392E-19:a 1.388E-17:b 
2.361E-04:c -4.371E-12:d -2.361E-04:e -1.110E-16:f 3.767E-03:10 -3.766E-03:11 5.136E-08:12 -1.180E-06:13 
#C 1.5552616951E-08 19
3.300E00:1 3.300E00:2 3.300E00:3 3.300E00:4 3.300E00:5 3.229E00:6 3.989E00:7 -2.948E-12:8 2.948E-12:9 -5.140E-19:a -2.082E-17:b 
2.361E-04:c -4.371E-12:d -2.361E-04:e 1.388E-16:f 3.766E-03:10 -3.765E-03:11 2.260E-08:12 -6.271E-07:13 
#C 1.5593763946E-08 19
3.300E00:1 3.300E00:2 3.300E00:3 3.300E00:4 3.300E00:5 3.229E00:6 3.989E00:7 -2.948E-12:8 2.948E-12:9 2.815E-20:a 2.776E-17:b 
2.361E-04:c -4.371E-12:d -2.361E-04:e -1.110E-16:f 3.764E-03:10 -3.763E-03:11 2.260E-08:12 -6.271E-07:13 
#C 1.5676057937E-08 19
3.300E00:1 3.300E00:2 3.300E00:3 3.300E00:4 3.300E00:5 3.229E00:6 3.989E00:7 -2.948E-12:8 2.948E-12:9 -8.392E-19:a 1.388E-17:b 
2.361E-04:c -4.371E-12:d -2.361E-04:e -1.110E-16:f 3.766E-03:10 -3.767E-03:11 -5.856E-08:12 9.339E-07:13 
#C 1.5753311145E-08 19
3.300E00:1 3.300E00:2 3.300E00:3 3.300E00:4 3.300E00:5 3.229E00:6 3.989E00:7 -2.948E-12:8 2.948E-12:9 3.064E-18:a -8.674E-18:b 
2.361E-04:c -4.371E-12:d -2.361E-04:e 5.551E-17:f 3.767E-03:10 -3.768E-03:11 -2.610E-08:12 3.095E-07:13 
#C 1.5907817560E-08 19
3.300E00:1 3.300E00:2 3.300E00:3 3.300E00:4 3.300E00:5 3.229E00:6 3.989E00:7 -2.948E-12:8 2.948E-12:9 4.618E-19:a -6.939E-18:b 
2.361E-04:c -4.371E-12:d -2.361E-04:e 5.551E-17:f 3.766E-03:10 -3.765E-03:11 1.381E-08:12 -4.581E-07:13 
#C 1.6000000000E-08 19
3.300E00:1 3.300E00:2 3.300E00:3 3.300E00:4 3.300E00:5 3.229E00:6 3.989E00:7 -2.948E-12:8 2.948E-12:9 2.815E-20:a 1.735E-18:b 
2.361E-04:c -4.371E-12:d -2.361E-04:e 0.000E00:f 3.765E-03:10 -3.764E-03:11 -2.155E-09:12 -1.511E-07:13 
#C 1.6023380853E-08 19
3.300E00:1 3.300E00:2 3.300E00:3 3.300E00:4 3.300E00:5 3.229E00:6 3.989E00:7 -2.948E-12:8 2.948E-12:9 2.815E-20:a 0.000E00:b 
2.361E-04:c -4.371E-12:d -2.361E-04:e 0.000E00:f 3.764E-03:10 -3.764E-03:11 -2.155E-09:12 -1.511E-07:13 
#C 1.6070144888E-08 19
3.300E00:1 3.300E00:2 3.300E00:3 3.300E00:4 3.300E00:5 3.229E00:6 3.989E00:7 -2.948E-12:8 2.948E-12:9 2.815E-20:a 0.000E00:b 
2.361E-04:c -4.371E-12:d -2.361E-04:e 0.000E00:f 3.764E-03:10 -3.764E-03:11 -2.155E-09:12 -1.511E-07:13 
#C 1.6163672958E-08 19
3.300E00:1 3.300E00:2 3.300E00:3 3.300E00:4 3.300E00:5 3.229E00:6 3.989E00:7 -2.948E-12:8 2.948E-12:9 4.365E-18:a 6.939E-18:b 
2.361E-04:c -4.371E-12:d -2.361E-04:e -2.776E-17:f 3.763E-03:10 -3.763E-03:11 -2.154E-09:12 -1.511E-07:13 
#C 1.6350729097E-08 19
3.300E00:1 3.300E00:2 3.300E00:3 3.300E00:4 3.300E00:5 3.229E00:6 3.989E00:7 -2.948E-12:8 2.948E-12:9 -3.441E-18:a 3.469E-18:b 
2.361E-04:c -4.371E-12:d -2.361E-04:e 1.388E-17:f 3.765E-03:10 -3.765E-03:11 -2.874E-08:12 3.602E-07:13 
#C 1.6724841375E-08 19
3.300E00:1 3.300E00:2 3.300E00:3 3.300E00:4 3.300E00:5 3.229E00:6 3.989E00:7 -2.948E-12:8 2.948E-12:9 -1.923E-18:a 0.000E00:b 
2.361E-04:c -4.371E-12:d -2.361E-04:e 6.939E-18:f 3.765E-03:10 -3.765E-03:11 -3.897E-09:12 -1.175E-07:13 
#C 1.7473065931E-08 19
3.300E00:1 3.300E00:2 3.300E00:3 3.300E00:4 3.300E00:5 3.229E00:6 3.989E00:7 -2.948E-12:8 2.948E-12:9 -8.027E-20:a 8.674E-19:b 
2.361E-04:c -4.371E-12:d -2.361E-04:e -1.388E-17:f 3.764E-03:10 -3.764E-03:11 -9.580E-09:12 -8.243E-09:13 
#C 1.8473120112E-08 19
3.300E00:1 3.300E00:2 3.300E00:3 3.300E00:4 3.300E00:5 3.229E00:6 3.989E00:7 -2.948E-12:8 2.948E-12:9 2.815E-20:a 4.337E-19:b 
2.361E-04:c -4.371E-12:d -2.361E-04:e 1.735E-18:f 3.764E-03:10 -3.764E-03:11 -9.579E-09:12 -8.243E-09:13 
#C 1.9000000000E-08 19
3.300E00:1 3.300E00:2 3.300E00:3 3.300E00:4 3.300E00:5 3.229E00:6 3.989E00:7 -2.948E-12:8 2.948E-12:9 -1.074E-19:a -4.337E-19:b 
2.361E-04:c -4.371E-12:d -2.361E-04:e 1.735E-18:f 3.763E-03:10 -3.763E-03:11 -9.579E-09:12 -8.243E-09:13 
#C 1.9100000000E-08 19
3.300E00:1 3.300E00:2 3.300E00:3 3.300E00:4 3.300E00:5 3.229E00:6 3.989E00:7 -2.948E-12:8 2.948E-12:9 2.815E-20:a 0.000E00:b 
2.361E-04:c -4.371E-12:d -2.361E-04:e 0.000E00:f 3.763E-03:10 -3.763E-03:11 -9.579E-09:12 -8.243E-09:13 
#C 1.9300001523E-08 19
3.300E00:1 3.300E00:2 3.300E00:3 3.300E00:4 3.300E00:5 3.229E00:6 3.989E00:7 -2.948E-12:8 2.948E-12:9 2.815E-20:a 0.000E00:b 
2.361E-04:c -4.371E-12:d -2.361E-04:e 0.000E00:f 3.763E-03:10 -3.763E-03:11 -9.579E-09:12 -8.243E-09:13 
#C 1.9700004569E-08 19
3.300E00:1 3.300E00:2 3.300E00:3 3.300E00:4 3.300E00:5 3.229E00:6 3.989E00:7 -2.948E-12:8 2.948E-12:9 2.815E-20:a -3.469E-18:b 
2.361E-04:c -4.371E-12:d -2.361E-04:e 0.000E00:f 3.763E-03:10 -3.763E-03:11 -9.579E-09:12 -8.243E-09:13 
#C 2.0000000000E-08 19
3.300E00:1 3.300E00:2 3.300E00:3 3.300E00:4 3.300E00:5 3.229E00:6 3.989E00:7 -2.948E-12:8 2.948E-12:9 8.236E-20:a -4.337E-19:b 
2.361E-04:c -4.371E-12:d -2.361E-04:e 6.939E-18:f 3.763E-03:10 -3.763E-03:11 -9.579E-09:12 -8.243E-09:13 
#C 2.0065015629E-08 19
3.300E00:1 3.300E00:2 3.300E00:3 3.300E00:4 3.300E00:5 3.229E00:6 3.989E00:7 -2.948E-12:8 2.948E-12:9 2.815E-20:a 0.000E00:b 
2.361E-04:c -4.371E-12:d -2.361E-04:e 0.000E00:f 3.763E-03:10 -3.763E-03:11 -9.579E-09:12 -8.243E-09:13 
#C 2.0195051544E-08 19
3.300E00:1 3.300E00:2 3.300E00:3 3.300E00:4 3.300E00:5 3.229E00:6 3.989E00:7 -2.948E-12:8 2.948E-12:9 2.815E-20:a 0.000E00:b 
2.361E-04:c -4.371E-12:d -2.361E-04:e 0.000E00:f 3.763E-03:10 -3.763E-03:11 -9.579E-09:12 -8.243E-09:13 
#C 2.0455123372E-08 19
3.300E00:1 3.300E00:2 3.300E00:3 3.300E00:4 3.300E00:5 3.229E00:6 3.989E00:7 -2.948E-12:8 2.948E-12:9 -1.707E-18:a 0.000E00:b 
2.361E-04:c -4.371E-12:d -2.361E-04:e 1.388E-17:f 3.762E-03:10 -3.762E-03:11 -9.579E-09:12 -8.243E-09:13 
#C 2.0975267030E-08 19
3.300E00:1 3.300E00:2 3.300E00:3 3.300E00:4 3.300E00:5 3.229E00:6 3.989E00:7 -2.948E-12:8 2.948E-12:9 -6.224E-19:a 0.000E00:b 
2.361E-04:c -4.371E-12:d -2.361E-04:e 6.939E-18:f 3.762E-03:10 -3.762E-03:11 -9.579E-09:12 -8.243E-09:13 
#C 2.1975321211E-08 19
3.300E00:1 3.300E00:2 3.300E00:3 3.300E00:4 3.300E00:5 3.229E00:6 3.989E00:7 -2.948E-12:8 2.948E-12:9 -4.055E-19:a 4.337E-19:b 
2.361E-04:c -4.371E-12:d -2.361E-04:e 3.469E-18:f 3.761E-03:10 -3.761E-03:11 -9.579E-09:12 -8.243E-09:13 
#C 2.2975375392E-08 19
3.300E00:1 3.300E00:2 3.300E00:3 3.300E00:4 3.300E00:5 3.229E00:6 3.989E00:7 -2.948E-12:8 2.948E-12:9 -4.055E-19:a 4.337E-19:b 
2.361E-04:c -4.371E-12:d -2.361E-04:e 3.469E-18:f 3.761E-03:10 -3.761E-03:11 -9.579E-09:12 -8.243E-09:13 
#C 2.3975429572E-08 19
3.300E00:1 3.300E00:2 3.300E00:3 3.300E00:4 3.300E00:5 3.229E00:6 3.989E00:7 -2.948E-12:8 2.948E-12:9 -4.055E-19:a 4.337E-19:b 
2.361E-04:c -4.371E-12:d -2.361E-04:e 3.469E-18:f 3.761E-03:10 -3.761E-03:11 -9.579E-09:12 -8.243E-09:13 
#C 2.4975483753E-08 19
3.300E00:1 3.300E00:2 3.300E00:3 3.300E00:4 3.300E00:5 3.229E00:6 3.989E00:7 -2.948E-12:8 2.948E-12:9 -4.055E-19:a 4.337E-19:b 
2.361E-04:c -4.371E-12:d -2.361E-04:e 3.469E-18:f 3.761E-03:10 -3.761E-03:11 -9.579E-09:12 -8.243E-09:13 
#C 2.5975537934E-08 19
3.300E00:1 3.300E00:2 3.300E00:3 3.300E00:4 3.300E00:5 3.229E00:6 3.989E00:7 -2.948E-12:8 2.948E-12:9 -4.055E-19:a 4.337E-19:b 
2.361E-04:c -4.371E-12:d -2.361E-04:e 3.469E-18:f 3.761E-03:10 -3.761E-03:11 -9.579E-09:12 -8.243E-09:13 
#C 2.6975592114E-08 19
3.300E00:1 3.300E00:2 3.300E00:3 3.300E00:4 3.300E00:5 3.229E00:6 3.989E00:7 -2.948E-12:8 2.948E-12:9 -4.055E-19:a 4.337E-19:b 
2.361E-04:c -4.371E-12:d -2.361E-04:e 3.469E-18:f 3.761E-03:10 -3.761E-03:11 -9.579E-09:12 -8.243E-09:13 
#C 2.7975646295E-08 19
3.300E00:1 3.300E00:2 3.300E00:3 3.300E00:4 3.300E00:5 3.229E00:6 3.989E00:7 -2.948E-12:8 2.948E-12:9 -4.055E-19:a 4.337E-19:b 
2.361E-04:c -4.371E-12:d -2.361E-04:e 3.469E-18:f 3.761E-03:10 -3.761E-03:11 -9.579E-09:12 -8.243E-09:13 
#C 2.8975700475E-08 19
3.300E00:1 3.300E00:2 3.300E00:3 3.300E00:4 3.300E00:5 3.229E00:6 3.989E00:7 -2.948E-12:8 2.948E-12:9 -4.055E-19:a 4.337E-19:b 
2.361E-04:c -4.371E-12:d -2.361E-04:e 3.469E-18:f 3.761E-03:10 -3.761E-03:11 -9.579E-09:12 -8.243E-09:13 
#C 2.9975754656E-08 19
3.300E00:1 3.300E00:2 3.300E00:3 3.300E00:4 3.300E00:5 3.229E00:6 3.989E00:7 -2.948E-12:8 2.948E-12:9 1.908E-19:a -6.505E-19:b 
2.361E-04:c -4.371E-12:d -2.361E-04:e -1.735E-18:f 3.761E-03:10 -3.761E-03:11 -1.001E-08:12 0.000E00:13 
#C 3.0975808837E-08 19
3.300E00:1 3.300E00:2 3.300E00:3 3.300E00:4 3.300E00:5 3.229E00:6 3.989E00:7 -2.948E-12:8 2.948E-12:9 -8.392E-19:a -4.337E-19:b 
2.361E-04:c -4.371E-12:d -2.361E-04:e 1.735E-18:f 3.761E-03:10 -3.761E-03:11 -1.001E-08:12 -8.674E-19:13 
#C 3.1975863017E-08 19
3.300E00:1 3.300E00:2 3.300E00:3 3.300E00:4 3.300E00:5 3.229E00:6 3.989E00:7 -2.948E-12:8 2.948E-12:9 -8.392E-19:a -4.337E-19:b 
2.361E-04:c -4.371E-12:d -2.361E-04:e 1.735E-18:f 3.761E-03:10 -3.761E-03:11 -1.001E-08:12 -8.674E-19:13 
#C 3.2975917198E-08 19
3.300E00:1 3.300E00:2 3.300E00:3 3.300E00:4 3.300E00:5 3.229E00:6 3.989E00:7 -2.948E-12:8 2.948E-12:9 -8.392E-19:a -4.337E-19:b 
2.361E-04:c -4.371E-12:d -2.361E-04:e 1.735E-18:f 3.761E-03:10 -3.761E-03:11 -1.001E-08:12 -8.674E-19:13 
#C 3.3975971378E-08 19
