#H
SOURCE='PSPICE' VERSION='PSpice 16.0.0 (July 2006)'
TITLE='**** 05/18/10 12:08:24 ******* PSpice 16.0.0 (July 2006) ****** ID# 0 ********'
SUBTITLE=''
TIME='16:04:12' DATE='05/30/10' TEMPERATURE='2.700E01'
ANALYSIS='Transient Analysis' SERIALNO='61413'
ALLVALUES='NO' COMPLEXVALUES='NO' NODES='19'
SWEEPVAR='Time' SWEEPMODE='VAR_STEP'
XBEGIN='0.000E00' XEND='5.000E-08'
FORMAT='0 VOLTSorAMPS;EFLOAT : NODEorBRANCH;NODE  '
DGTLDATA='NO' 
#N 
'V(C_F_D_LSB)' 'V(C_F_D_2SB)' 'V(C_F_D_3SB)' 'V(C_F_D_4SB)' 'V(C_F_D_5SB)' 'V(C_F_D_MSB)' 'V(C_F_C59_NDPOS)' 'ID(M_C_F_C59_M4)' 
'IB(M_C_F_C59_M4)' 'IS(M_C_F_C59_M4)' 'IG(M_C_F_C59_M4)' 'ID(M_C_F_C59_M2)' 'IB(M_C_F_C59_M2)' 'IS(M_C_F_C59_M2)' 'IG(M_C_F_C59_M2)' 
'ID(M_C_F_C59_M12)' 'IB(M_C_F_C59_M12)' 'IS(M_C_F_C59_M12)' 'IG(M_C_F_C59_M12)' 
#C 0.0000000000E00 19
3.300E00:1 3.300E00:2 3.300E00:3 3.300E00:4 3.300E00:5 3.229E00:6 3.988E00:7 3.720E-03:8 -3.565E-03:9 -1.547E-04:a 0.000E00:b 
2.804E-04:c -4.856E-12:d -2.804E-04:e 0.000E00:f -3.310E-12:10 3.310E-12:11 1.660E-19:12 0.000E00:13 
#C 1.0000000000E-11 19
3.300E00:1 3.300E00:2 3.300E00:3 3.300E00:4 3.300E00:5 3.229E00:6 3.988E00:7 3.720E-03:8 -3.565E-03:9 -1.547E-04:a -1.998E-15:b 
2.804E-04:c -4.832E-12:d -2.804E-04:e 1.110E-15:f -3.310E-12:10 3.288E-12:11 -1.664E-16:12 2.220E-14:13 
#C 2.0000000000E-11 19
3.300E00:1 3.300E00:2 3.300E00:3 3.300E00:4 3.300E00:5 3.229E00:6 3.988E00:7 3.720E-03:8 -3.565E-03:9 -1.547E-04:a -1.998E-15:b 
2.804E-04:c -4.832E-12:d -2.804E-04:e 1.110E-15:f -3.310E-12:10 3.288E-12:11 -1.664E-16:12 2.220E-14:13 
#C 4.0000152290E-11 19
3.300E00:1 3.300E00:2 3.300E00:3 3.300E00:4 3.300E00:5 3.229E00:6 3.988E00:7 3.720E-03:8 -3.565E-03:9 -1.547E-04:a 0.000E00:b 
2.804E-04:c -4.856E-12:d -2.804E-04:e 0.000E00:f -3.310E-12:10 3.310E-12:11 1.660E-19:12 0.000E00:13 
#C 8.0000456870E-11 19
3.300E00:1 3.300E00:2 3.300E00:3 3.300E00:4 3.300E00:5 3.229E00:6 3.988E00:7 3.720E-03:8 -3.565E-03:9 -1.547E-04:a 0.000E00:b 
2.804E-04:c -4.856E-12:d -2.804E-04:e 0.000E00:f -3.310E-12:10 3.310E-12:11 1.660E-19:12 0.000E00:13 
#C 1.6000106603E-10 19
3.300E00:1 3.300E00:2 3.300E00:3 3.300E00:4 3.300E00:5 3.229E00:6 3.988E00:7 3.720E-03:8 -3.565E-03:9 -1.547E-04:a 0.000E00:b 
2.804E-04:c -4.856E-12:d -2.804E-04:e 0.000E00:f -3.310E-12:10 3.310E-12:11 1.660E-19:12 0.000E00:13 
#C 3.2000228435E-10 19
3.300E00:1 3.300E00:2 3.300E00:3 3.300E00:4 3.300E00:5 3.229E00:6 3.988E00:7 3.720E-03:8 -3.565E-03:9 -1.547E-04:a 0.000E00:b 
2.804E-04:c -4.856E-12:d -2.804E-04:e 0.000E00:f -3.310E-12:10 3.310E-12:11 1.660E-19:12 0.000E00:13 
#C 6.4000472099E-10 19
3.300E00:1 3.300E00:2 3.300E00:3 3.300E00:4 3.300E00:5 3.229E00:6 3.988E00:7 3.720E-03:8 -3.565E-03:9 -1.547E-04:a 0.000E00:b 
2.804E-04:c -4.856E-12:d -2.804E-04:e 0.000E00:f -3.310E-12:10 3.310E-12:11 1.660E-19:12 0.000E00:13 
#C 1.2800095943E-09 19
3.300E00:1 3.300E00:2 3.300E00:3 3.300E00:4 3.300E00:5 3.229E00:6 3.988E00:7 3.720E-03:8 -3.565E-03:9 -1.547E-04:a 0.000E00:b 
2.804E-04:c -4.856E-12:d -2.804E-04:e 0.000E00:f -3.310E-12:10 3.310E-12:11 1.660E-19:12 0.000E00:13 
#C 2.0000000001E-09 19
3.300E00:1 3.300E00:2 3.300E00:3 3.300E00:4 3.300E00:5 3.229E00:6 3.988E00:7 3.720E-03:8 -3.565E-03:9 -1.547E-04:a 0.000E00:b 
2.804E-04:c -4.856E-12:d -2.804E-04:e 0.000E00:f -3.310E-12:10 3.310E-12:11 1.660E-19:12 0.000E00:13 
#C 2.0200000001E-09 19
3.300E00:1 3.300E00:2 3.300E00:3 3.300E00:4 3.300E00:5 3.229E00:6 3.987E00:7 3.516E-03:8 -3.403E-03:9 -2.450E-04:a 1.322E-04:b 
2.804E-04:c -4.856E-12:d -2.804E-04:e 0.000E00:f 2.124E-05:10 1.691E-03:11 2.249E-05:12 -1.735E-03:13 
#C 2.0600003047E-09 19
3.300E00:1 3.300E00:2 3.300E00:3 3.300E00:4 3.300E00:5 3.229E00:6 3.985E00:7 3.119E-03:8 -3.034E-03:9 -3.031E-04:a 2.184E-04:b 
2.697E-04:c 1.026E-05:d -2.800E-04:e 1.857E-08:f 3.409E-05:10 2.773E-03:11 3.695E-05:12 -2.844E-03:13 
#C 2.1400009138E-09 19
3.300E00:1 3.300E00:2 3.300E00:3 3.300E00:4 3.300E00:5 3.229E00:6 3.979E00:7 2.547E-03:8 -2.461E-03:9 -2.991E-04:a 2.125E-04:b 
2.697E-04:c 1.026E-05:d -2.800E-04:e 1.903E-08:f 3.409E-05:10 2.748E-03:11 3.695E-05:12 -2.819E-03:13 
#C 2.2000000001E-09 19
3.300E00:1 3.300E00:2 3.300E00:3 3.300E00:4 3.300E00:5 3.229E00:6 3.976E00:7 2.216E-03:8 -2.121E-03:9 -2.844E-04:a 1.900E-04:b 
2.822E-04:c -1.715E-06:d -2.805E-04:e 6.710E-08:f 3.409E-05:10 2.744E-03:11 3.695E-05:12 -2.815E-03:13 
#C 2.2160001219E-09 19
3.300E00:1 3.300E00:2 3.300E00:3 3.300E00:4 3.300E00:5 3.229E00:6 3.974E00:7 2.107E-03:8 -2.024E-03:9 -3.028E-04:a 2.197E-04:b 
2.759E-04:c 4.274E-06:d -2.802E-04:e 4.309E-08:f 3.409E-05:10 2.738E-03:11 3.695E-05:12 -2.809E-03:13 
#C 2.2480026939E-09 19
3.300E00:1 3.300E00:2 3.300E00:3 3.300E00:4 3.300E00:5 3.229E00:6 3.973E00:7 2.010E-03:8 -1.914E-03:9 -2.701E-04:a 1.749E-04:b 
2.759E-04:c 4.274E-06:d -2.802E-04:e 4.311E-08:f 3.409E-05:10 2.733E-03:11 3.695E-05:12 -2.804E-03:13 
#C 2.3120078378E-09 19
3.300E00:1 3.300E00:2 3.300E00:3 3.300E00:4 3.300E00:5 3.229E00:6 3.969E00:7 1.753E-03:8 -1.659E-03:9 -2.763E-04:a 1.822E-04:b 
2.759E-04:c 4.274E-06:d -2.802E-04:e 4.316E-08:f 1.798E-05:10 1.183E-03:11 1.611E-05:12 -1.217E-03:13 
#C 2.4400181257E-09 19
3.300E00:1 3.300E00:2 3.300E00:3 3.300E00:4 3.300E00:5 3.229E00:6 3.966E00:7 1.681E-03:8 -1.539E-03:9 -1.597E-04:a 1.689E-05:b 
2.759E-04:c 4.274E-06:d -2.802E-04:e 4.324E-08:f 4.570E-06:10 4.056E-04:11 5.570E-06:12 -4.157E-04:13 
#C 2.6960387015E-09 19
3.300E00:1 3.300E00:2 3.300E00:3 3.300E00:4 3.300E00:5 3.229E00:6 3.966E00:7 1.698E-03:8 -1.535E-03:9 -1.197E-04:a -4.305E-05:b 
2.824E-04:c -2.066E-06:d -2.805E-04:e 1.185E-07:f -6.708E-06:10 -5.514E-04:11 -7.499E-06:12 5.657E-04:13 
#C 3.2080798530E-09 19
3.300E00:1 3.300E00:2 3.300E00:3 3.300E00:4 3.300E00:5 3.229E00:6 3.975E00:7 2.327E-03:8 -2.154E-03:9 -1.042E-04:a -6.838E-05:b 
2.826E-04:c -2.175E-06:d -2.805E-04:e 6.927E-08:f -1.150E-05:10 -9.219E-04:11 -1.248E-05:12 9.459E-04:13 
#C 4.2081340336E-09 19
3.300E00:1 3.300E00:2 3.300E00:3 3.300E00:4 3.300E00:5 3.229E00:6 3.987E00:7 3.583E-03:8 -3.425E-03:9 -1.464E-04:a -1.221E-05:b 
2.811E-04:c -7.635E-07:d -2.804E-04:e 2.698E-09:f -1.171E-06:10 -8.456E-05:11 -1.004E-06:12 8.674E-05:13 
#C 5.2081882143E-09 19
3.300E00:1 3.300E00:2 3.300E00:3 3.300E00:4 3.300E00:5 3.229E00:6 3.989E00:7 3.855E-03:8 -3.703E-03:9 -1.618E-04:a 9.919E-06:b 
2.803E-04:c 1.388E-07:d -2.804E-04:e -1.521E-08:f 1.654E-06:10 1.364E-04:11 1.840E-06:12 -1.399E-04:13 
#C 6.2082423949E-09 19
3.300E00:1 3.300E00:2 3.300E00:3 3.300E00:4 3.300E00:5 3.229E00:6 3.988E00:7 3.687E-03:8 -3.533E-03:9 -1.536E-04:a -1.326E-06:b 
2.800E-04:c 4.191E-07:d -2.804E-04:e -2.695E-09:f -5.421E-07:10 -4.162E-05:11 -5.805E-07:12 4.274E-05:13 
#C 7.2082965755E-09 19
3.300E00:1 3.300E00:2 3.300E00:3 3.300E00:4 3.300E00:5 3.229E00:6 3.988E00:7 3.702E-03:8 -3.546E-03:9 -1.530E-04:a -2.256E-06:b 
2.801E-04:c 2.790E-07:d -2.804E-04:e -8.950E-09:f -2.975E-07:10 -2.169E-05:11 -2.881E-07:12 2.227E-05:13 
#C 8.2083507561E-09 19
3.300E00:1 3.300E00:2 3.300E00:3 3.300E00:4 3.300E00:5 3.229E00:6 3.988E00:7 3.714E-03:8 -3.559E-03:9 -1.545E-04:a -7.172E-08:b 
2.810E-04:c -6.370E-07:d -2.804E-04:e -5.133E-09:f -1.304E-08:10 1.341E-06:11 1.783E-08:12 -1.346E-06:13 
#C 9.2084049367E-09 19
3.300E00:1 3.300E00:2 3.300E00:3 3.300E00:4 3.300E00:5 3.229E00:6 3.988E00:7 3.710E-03:8 -3.555E-03:9 -1.550E-04:a 4.743E-07:b 
2.797E-04:c 6.504E-07:d -2.804E-04:e -4.793E-09:f -1.304E-08:10 1.341E-06:11 1.783E-08:12 -1.346E-06:13 
#C 1.0208459117E-08 19
3.300E00:1 3.300E00:2 3.300E00:3 3.300E00:4 3.300E00:5 3.229E00:6 3.988E00:7 3.706E-03:8 -3.552E-03:9 -1.547E-04:a 2.013E-07:b 
2.797E-04:c 6.504E-07:d -2.804E-04:e -4.793E-09:f -1.304E-08:10 1.341E-06:11 1.783E-08:12 -1.346E-06:13 
#C 1.1208513298E-08 19
3.300E00:1 3.300E00:2 3.300E00:3 3.300E00:4 3.300E00:5 3.229E00:6 3.988E00:7 3.710E-03:8 -3.555E-03:9 -1.546E-04:a 1.934E-07:b 
2.797E-04:c 6.504E-07:d -2.804E-04:e -4.793E-09:f -1.304E-08:10 1.341E-06:11 1.783E-08:12 -1.346E-06:13 
#C 1.2208567479E-08 19
3.300E00:1 3.300E00:2 3.300E00:3 3.300E00:4 3.300E00:5 3.229E00:6 3.988E00:7 3.710E-03:8 -3.555E-03:9 -1.546E-04:a 1.934E-07:b 
2.797E-04:c 6.504E-07:d -2.804E-04:e -4.793E-09:f -1.304E-08:10 1.341E-06:11 1.783E-08:12 -1.346E-06:13 
#C 1.3208621659E-08 19
3.300E00:1 3.300E00:2 3.300E00:3 3.300E00:4 3.300E00:5 3.229E00:6 3.988E00:7 3.710E-03:8 -3.555E-03:9 -1.546E-04:a 1.934E-07:b 
2.797E-04:c 6.504E-07:d -2.804E-04:e -4.793E-09:f -1.304E-08:10 1.341E-06:11 1.783E-08:12 -1.346E-06:13 
#C 1.4208675840E-08 19
3.300E00:1 3.300E00:2 3.300E00:3 3.300E00:4 3.300E00:5 3.229E00:6 3.988E00:7 3.710E-03:8 -3.555E-03:9 -1.546E-04:a 1.934E-07:b 
2.797E-04:c 6.504E-07:d -2.804E-04:e -4.793E-09:f -1.304E-08:10 1.341E-06:11 1.783E-08:12 -1.346E-06:13 
#C 1.5000000000E-08 19
3.300E00:1 3.300E00:2 3.300E00:3 3.300E00:4 3.300E00:5 3.229E00:6 3.988E00:7 3.706E-03:8 -3.551E-03:9 -1.546E-04:a -4.513E-07:b 
2.810E-04:c -6.504E-07:d -2.804E-04:e 4.793E-09:f 1.303E-08:10 -1.341E-06:11 -1.783E-08:12 1.346E-06:13 
#C 1.5100000000E-08 19
3.300E00:1 3.300E00:2 3.300E00:3 3.300E00:4 3.300E00:5 3.229E00:6 3.988E00:7 3.697E-03:8 -3.543E-03:9 -1.559E-04:a 1.913E-06:b 
2.804E-04:c -4.856E-12:d -2.804E-04:e 0.000E00:f -3.310E-12:10 3.310E-12:11 1.671E-19:12 0.000E00:13 
#C 1.5300001523E-08 19
3.300E00:1 3.300E00:2 3.300E00:3 3.300E00:4 3.300E00:5 3.229E00:6 3.988E00:7 3.702E-03:8 -3.548E-03:9 -1.546E-04:a 2.369E-07:b 
2.804E-04:c -4.856E-12:d -2.804E-04:e 0.000E00:f -3.310E-12:10 3.310E-12:11 1.671E-19:12 0.000E00:13 
#C 1.5350001904E-08 19
3.300E00:1 3.300E00:2 3.300E00:3 3.300E00:4 3.300E00:5 3.229E00:6 3.988E00:7 3.692E-03:8 -3.539E-03:9 -1.578E-04:a 5.000E-06:b 
2.804E-04:c -4.856E-12:d -2.804E-04:e -2.776E-17:f -3.310E-12:10 3.310E-12:11 4.267E-17:12 1.041E-17:13 
#C 1.5450002665E-08 19
3.300E00:1 3.300E00:2 3.300E00:3 3.300E00:4 3.300E00:5 3.229E00:6 3.988E00:7 3.696E-03:8 -3.543E-03:9 -1.545E-04:a 1.451E-06:b 
2.804E-04:c -4.856E-12:d -2.804E-04:e 0.000E00:f -3.310E-12:10 3.310E-12:11 3.637E-18:12 0.000E00:13 
#C 1.5475002856E-08 19
3.300E00:1 3.300E00:2 3.300E00:3 3.300E00:4 3.300E00:5 3.229E00:6 3.988E00:7 3.695E-03:8 -3.542E-03:9 -1.556E-04:a 2.553E-06:b 
2.804E-04:c -4.856E-12:d -2.804E-04:e 2.082E-17:f -3.310E-12:10 3.310E-12:11 -4.927E-17:12 -3.469E-17:13 
#C 1.5525003236E-08 19
3.300E00:1 3.300E00:2 3.300E00:3 3.300E00:4 3.300E00:5 3.229E00:6 3.988E00:7 3.695E-03:8 -3.542E-03:9 -1.556E-04:a 2.553E-06:b 
2.804E-04:c -4.856E-12:d -2.804E-04:e 0.000E00:f -3.310E-12:10 3.310E-12:11 7.106E-18:12 -1.110E-16:13 
#C 1.5537503331E-08 19
3.300E00:1 3.300E00:2 3.300E00:3 3.300E00:4 3.300E00:5 3.229E00:6 3.988E00:7 3.686E-03:8 -3.534E-03:9 -1.607E-04:a 8.798E-06:b 
2.804E-04:c -4.856E-12:d -2.804E-04:e 1.804E-16:f -3.310E-12:10 3.310E-12:11 3.660E-17:12 -6.939E-17:13 
#C 1.5562503522E-08 19
3.300E00:1 3.300E00:2 3.300E00:3 3.300E00:4 3.300E00:5 3.229E00:6 3.988E00:7 3.693E-03:8 -3.541E-03:9 -1.544E-04:a 2.807E-06:b 
2.804E-04:c -4.856E-12:d -2.804E-04:e -2.220E-16:f -3.310E-12:10 3.310E-12:11 2.500E-16:12 -1.110E-16:13 
#C 1.5568753569E-08 19
3.300E00:1 3.300E00:2 3.300E00:3 3.300E00:4 3.300E00:5 3.229E00:6 3.988E00:7 3.691E-03:8 -3.539E-03:9 -1.566E-04:a 4.787E-06:b 
2.804E-04:c -4.856E-12:d -2.804E-04:e -2.220E-16:f -3.310E-12:10 3.310E-12:11 -4.162E-16:12 3.053E-16:13 
#C 1.5581253665E-08 19
3.300E00:1 3.300E00:2 3.300E00:3 3.300E00:4 3.300E00:5 3.229E00:6 3.988E00:7 3.691E-03:8 -3.539E-03:9 -1.566E-04:a 4.787E-06:b 
2.804E-04:c -4.855E-12:d -2.804E-04:e -4.441E-16:f -3.310E-12:10 3.310E-12:11 -2.219E-16:12 2.220E-16:13 
#C 1.5606253855E-08 19
3.300E00:1 3.300E00:2 3.300E00:3 3.300E00:4 3.300E00:5 3.229E00:6 3.988E00:7 3.691E-03:8 -3.539E-03:9 -1.566E-04:a 4.787E-06:b 
2.804E-04:c -4.856E-12:d -2.804E-04:e -4.441E-16:f -3.310E-12:10 3.310E-12:11 9.731E-17:12 1.110E-16:13 
#C 1.5656254236E-08 19
3.300E00:1 3.300E00:2 3.300E00:3 3.300E00:4 3.300E00:5 3.229E00:6 3.988E00:7 3.691E-03:8 -3.539E-03:9 -1.566E-04:a 4.787E-06:b 
2.804E-04:c -4.856E-12:d -2.804E-04:e 0.000E00:f -3.310E-12:10 3.310E-12:11 1.251E-16:12 -1.110E-16:13 
#C 1.5731190778E-08 19
3.300E00:1 3.300E00:2 3.300E00:3 3.300E00:4 3.300E00:5 3.229E00:6 3.988E00:7 3.692E-03:8 -3.540E-03:9 -1.566E-04:a 4.787E-06:b 
2.804E-04:c -4.856E-12:d -2.804E-04:e 0.000E00:f -3.310E-12:10 3.310E-12:11 7.106E-18:12 -5.551E-17:13 
#C 1.5845429134E-08 19
3.300E00:1 3.300E00:2 3.300E00:3 3.300E00:4 3.300E00:5 3.229E00:6 3.988E00:7 3.692E-03:8 -3.541E-03:9 -1.565E-04:a 4.787E-06:b 
2.804E-04:c -4.856E-12:d -2.804E-04:e -5.551E-17:f -3.310E-12:10 3.310E-12:11 -4.841E-17:12 6.939E-17:13 
#C 1.6000000000E-08 19
3.300E00:1 3.300E00:2 3.300E00:3 3.300E00:4 3.300E00:5 3.229E00:6 3.988E00:7 3.693E-03:8 -3.542E-03:9 -1.565E-04:a 4.787E-06:b 
2.804E-04:c -4.856E-12:d -2.804E-04:e -4.163E-17:f -3.310E-12:10 3.310E-12:11 -1.371E-17:12 5.551E-17:13 
#C 1.6022847671E-08 19
3.300E00:1 3.300E00:2 3.300E00:3 3.300E00:4 3.300E00:5 3.229E00:6 3.988E00:7 3.693E-03:8 -3.542E-03:9 -1.565E-04:a 4.787E-06:b 
2.804E-04:c -4.856E-12:d -2.804E-04:e 0.000E00:f -3.310E-12:10 3.310E-12:11 1.671E-19:12 0.000E00:13 
#C 1.6068540685E-08 19
3.300E00:1 3.300E00:2 3.300E00:3 3.300E00:4 3.300E00:5 3.229E00:6 3.988E00:7 3.694E-03:8 -3.542E-03:9 -1.565E-04:a 4.787E-06:b 
2.804E-04:c -4.855E-12:d -2.804E-04:e 0.000E00:f -3.310E-12:10 3.310E-12:11 -1.371E-17:12 5.551E-17:13 
#C 1.6159926713E-08 19
3.300E00:1 3.300E00:2 3.300E00:3 3.300E00:4 3.300E00:5 3.229E00:6 3.988E00:7 3.694E-03:8 -3.543E-03:9 -1.565E-04:a 4.787E-06:b 
2.804E-04:c -4.856E-12:d -2.804E-04:e 0.000E00:f -3.310E-12:10 3.310E-12:11 2.792E-17:12 -5.551E-17:13 
#C 1.6342698768E-08 19
3.300E00:1 3.300E00:2 3.300E00:3 3.300E00:4 3.300E00:5 3.229E00:6 3.988E00:7 3.695E-03:8 -3.544E-03:9 -1.564E-04:a 4.787E-06:b 
2.804E-04:c -4.856E-12:d -2.804E-04:e 2.776E-17:f -3.310E-12:10 3.310E-12:11 7.106E-18:12 -1.388E-17:13 
#C 1.6708242878E-08 19
3.300E00:1 3.300E00:2 3.300E00:3 3.300E00:4 3.300E00:5 3.229E00:6 3.988E00:7 3.703E-03:8 -3.548E-03:9 -1.536E-04:a -1.527E-06:b 
2.804E-04:c -4.856E-12:d -2.804E-04:e 1.388E-17:f -3.310E-12:10 3.310E-12:11 3.637E-18:12 -6.939E-18:13 
#C 1.7439331099E-08 19
3.300E00:1 3.300E00:2 3.300E00:3 3.300E00:4 3.300E00:5 3.229E00:6 3.988E00:7 3.708E-03:8 -3.553E-03:9 -1.544E-04:a 1.621E-07:b 
2.804E-04:c -4.856E-12:d -2.804E-04:e 6.939E-18:f -3.310E-12:10 3.310E-12:11 7.973E-18:12 -3.469E-18:13 
#C 1.8439385280E-08 19
3.300E00:1 3.300E00:2 3.300E00:3 3.300E00:4 3.300E00:5 3.229E00:6 3.988E00:7 3.710E-03:8 -3.556E-03:9 -1.544E-04:a -9.737E-08:b 
2.804E-04:c -4.856E-12:d -2.804E-04:e 0.000E00:f -3.310E-12:10 3.310E-12:11 -9.171E-19:12 -1.735E-18:13 
#C 1.9000000000E-08 19
3.300E00:1 3.300E00:2 3.300E00:3 3.300E00:4 3.300E00:5 3.229E00:6 3.988E00:7 3.707E-03:8 -3.553E-03:9 -1.547E-04:a 5.370E-07:b 
2.804E-04:c -4.856E-12:d -2.804E-04:e -1.388E-17:f -3.310E-12:10 3.310E-12:11 -3.750E-19:12 8.674E-18:13 
#C 1.9100000000E-08 19
3.300E00:1 3.300E00:2 3.300E00:3 3.300E00:4 3.300E00:5 3.229E00:6 3.988E00:7 3.697E-03:8 -3.543E-03:9 -1.556E-04:a 1.641E-06:b 
2.804E-04:c -4.856E-12:d -2.804E-04:e 0.000E00:f -3.310E-12:10 3.310E-12:11 1.671E-19:12 0.000E00:13 
#C 1.9300001523E-08 19
3.300E00:1 3.300E00:2 3.300E00:3 3.300E00:4 3.300E00:5 3.229E00:6 3.988E00:7 3.702E-03:8 -3.548E-03:9 -1.542E-04:a -2.073E-08:b 
2.804E-04:c -4.856E-12:d -2.804E-04:e 0.000E00:f -3.310E-12:10 3.310E-12:11 1.671E-19:12 0.000E00:13 
#C 1.9700004569E-08 19
3.300E00:1 3.300E00:2 3.300E00:3 3.300E00:4 3.300E00:5 3.229E00:6 3.988E00:7 3.704E-03:8 -3.549E-03:9 -1.542E-04:a -6.016E-07:b 
2.804E-04:c -4.856E-12:d -2.804E-04:e 0.000E00:f -3.310E-12:10 3.310E-12:11 -5.904E-18:12 0.000E00:13 
#C 2.0000000000E-08 19
3.300E00:1 3.300E00:2 3.300E00:3 3.300E00:4 3.300E00:5 3.229E00:6 3.988E00:7 3.704E-03:8 -3.550E-03:9 -1.542E-04:a -3.692E-07:b 
2.804E-04:c -4.856E-12:d -2.804E-04:e 1.388E-17:f -3.310E-12:10 3.310E-12:11 -1.024E-17:12 3.469E-18:13 
#C 2.0065006316E-08 19
3.300E00:1 3.300E00:2 3.300E00:3 3.300E00:4 3.300E00:5 3.229E00:6 3.988E00:7 3.696E-03:8 -3.540E-03:9 -1.547E-04:a -1.093E-06:b 
2.804E-04:c -4.856E-12:d -2.804E-04:e 0.000E00:f -3.310E-12:10 3.310E-12:11 1.671E-19:12 0.000E00:13 
#C 2.0195018947E-08 19
3.300E00:1 3.300E00:2 3.300E00:3 3.300E00:4 3.300E00:5 3.229E00:6 3.988E00:7 3.698E-03:8 -3.543E-03:9 -1.534E-04:a -1.095E-06:b 
2.804E-04:c -4.856E-12:d -2.804E-04:e 0.000E00:f -3.310E-12:10 3.310E-12:11 -2.759E-17:12 0.000E00:13 
#C 2.0455044210E-08 19
3.300E00:1 3.300E00:2 3.300E00:3 3.300E00:4 3.300E00:5 3.229E00:6 3.988E00:7 3.698E-03:8 -3.543E-03:9 -1.539E-04:a -1.094E-06:b 
2.804E-04:c -4.856E-12:d -2.804E-04:e 1.388E-17:f -3.310E-12:10 3.310E-12:11 -1.568E-18:12 -1.388E-17:13 
#C 2.0975094736E-08 19
3.300E00:1 3.300E00:2 3.300E00:3 3.300E00:4 3.300E00:5 3.229E00:6 3.988E00:7 3.706E-03:8 -3.551E-03:9 -1.539E-04:a -9.551E-07:b 
2.804E-04:c -4.856E-12:d -2.804E-04:e 0.000E00:f -3.310E-12:10 3.310E-12:11 -6.772E-18:12 0.000E00:13 
#C 2.1975148916E-08 19
3.300E00:1 3.300E00:2 3.300E00:3 3.300E00:4 3.300E00:5 3.229E00:6 3.988E00:7 3.710E-03:8 -3.555E-03:9 -1.545E-04:a 5.129E-08:b 
2.804E-04:c -4.856E-12:d -2.804E-04:e 3.469E-18:f -3.310E-12:10 3.310E-12:11 1.671E-19:12 0.000E00:13 
#C 2.2975203097E-08 19
3.300E00:1 3.300E00:2 3.300E00:3 3.300E00:4 3.300E00:5 3.229E00:6 3.988E00:7 3.710E-03:8 -3.555E-03:9 -1.545E-04:a 8.993E-08:b 
2.804E-04:c -4.856E-12:d -2.804E-04:e 3.469E-18:f -3.310E-12:10 3.310E-12:11 1.671E-19:12 0.000E00:13 
#C 2.3975257278E-08 19
3.300E00:1 3.300E00:2 3.300E00:3 3.300E00:4 3.300E00:5 3.229E00:6 3.988E00:7 3.710E-03:8 -3.555E-03:9 -1.545E-04:a 8.993E-08:b 
2.804E-04:c -4.856E-12:d -2.804E-04:e 3.469E-18:f -3.310E-12:10 3.310E-12:11 1.671E-19:12 0.000E00:13 
#C 2.4975311458E-08 19
3.300E00:1 3.300E00:2 3.300E00:3 3.300E00:4 3.300E00:5 3.229E00:6 3.988E00:7 3.710E-03:8 -3.555E-03:9 -1.545E-04:a 8.993E-08:b 
2.804E-04:c -4.856E-12:d -2.804E-04:e 3.469E-18:f -3.310E-12:10 3.310E-12:11 1.671E-19:12 0.000E00:13 
#C 2.5975365639E-08 19
3.300E00:1 3.300E00:2 3.300E00:3 3.300E00:4 3.300E00:5 3.229E00:6 3.988E00:7 3.710E-03:8 -3.555E-03:9 -1.545E-04:a 8.993E-08:b 
2.804E-04:c -4.856E-12:d -2.804E-04:e 3.469E-18:f -3.310E-12:10 3.310E-12:11 1.671E-19:12 0.000E00:13 
#C 2.6975419819E-08 19
3.300E00:1 3.300E00:2 3.300E00:3 3.300E00:4 3.300E00:5 3.229E00:6 3.988E00:7 3.710E-03:8 -3.555E-03:9 -1.545E-04:a 8.993E-08:b 
2.804E-04:c -4.856E-12:d -2.804E-04:e 3.469E-18:f -3.310E-12:10 3.310E-12:11 1.671E-19:12 0.000E00:13 
#C 2.7975474000E-08 19
3.300E00:1 3.300E00:2 3.300E00:3 3.300E00:4 3.300E00:5 3.229E00:6 3.988E00:7 3.710E-03:8 -3.555E-03:9 -1.545E-04:a 8.993E-08:b 
2.804E-04:c -4.856E-12:d -2.804E-04:e 3.469E-18:f -3.310E-12:10 3.310E-12:11 1.671E-19:12 0.000E00:13 
#C 2.8975528181E-08 19
3.300E00:1 3.300E00:2 3.300E00:3 3.300E00:4 3.300E00:5 3.229E00:6 3.988E00:7 3.710E-03:8 -3.555E-03:9 -1.545E-04:a 8.993E-08:b 
2.804E-04:c -4.856E-12:d -2.804E-04:e 3.469E-18:f -3.310E-12:10 3.310E-12:11 1.671E-19:12 0.000E00:13 
#C 2.9975582361E-08 19
3.300E00:1 3.300E00:2 3.300E00:3 3.300E00:4 3.300E00:5 3.229E00:6 3.988E00:7 3.710E-03:8 -3.555E-03:9 -1.545E-04:a 8.993E-08:b 
2.804E-04:c -4.856E-12:d -2.804E-04:e 3.469E-18:f -3.310E-12:10 3.310E-12:11 1.671E-19:12 0.000E00:13 
#C 3.0975636542E-08 19
3.300E00:1 3.300E00:2 3.300E00:3 3.300E00:4 3.300E00:5 3.229E00:6 3.988E00:7 3.710E-03:8 -3.555E-03:9 -1.545E-04:a 8.993E-08:b 
2.804E-04:c -4.856E-12:d -2.804E-04:e 3.469E-18:f -3.310E-12:10 3.310E-12:11 1.671E-19:12 0.000E00:13 
#C 3.1975690723E-08 19
3.300E00:1 3.300E00:2 3.300E00:3 3.300E00:4 3.300E00:5 3.229E00:6 3.988E00:7 3.710E-03:8 -3.555E-03:9 -1.545E-04:a 8.993E-08:b 
2.804E-04:c -4.856E-12:d -2.804E-04:e 3.469E-18:f -3.310E-12:10 3.310E-12:11 1.671E-19:12 0.000E00:13 
#C 3.2975744903E-08 19
