#H
SOURCE='PSPICE' VERSION='PSpice 16.0.0 (July 2006)'
TITLE='**** 05/18/10 12:08:24 ******* PSpice 16.0.0 (July 2006) ****** ID# 0 ********'
SUBTITLE=''
TIME='16:01:52' DATE='05/30/10' TEMPERATURE='2.700E01'
ANALYSIS='Transient Analysis' SERIALNO='61413'
ALLVALUES='NO' COMPLEXVALUES='NO' NODES='19'
SWEEPVAR='Time' SWEEPMODE='VAR_STEP'
XBEGIN='0.000E00' XEND='5.000E-08'
FORMAT='0 VOLTSorAMPS;EFLOAT : NODEorBRANCH;NODE  '
DGTLDATA='NO' 
#N 
'V(C_F_D_LSB)' 'V(C_F_D_2SB)' 'V(C_F_D_3SB)' 'V(C_F_D_4SB)' 'V(C_F_D_5SB)' 'V(C_F_D_MSB)' 'V(C_F_C3_NDNEG)' 'ID(M_C_F_C3_M1)' 
'IB(M_C_F_C3_M1)' 'IS(M_C_F_C3_M1)' 'IG(M_C_F_C3_M1)' 'ID(M_C_F_C3_M3)' 'IB(M_C_F_C3_M3)' 'IS(M_C_F_C3_M3)' 'IG(M_C_F_C3_M3)' 
'ID(M_C_F_C3_M4)' 'IB(M_C_F_C3_M4)' 'IS(M_C_F_C3_M4)' 'IG(M_C_F_C3_M4)' 
#C 0.0000000000E00 19
3.300E00:1 3.300E00:2 3.300E00:3 3.300E00:4 3.300E00:5 3.229E00:6 3.989E00:7 2.360E-04:8 -4.371E-12:9 -2.360E-04:a 0.000E00:b 
3.764E-03:c -3.764E-03:d -1.001E-08:e 0.000E00:f -2.948E-12:10 2.948E-12:11 2.819E-20:12 0.000E00:13 
#C 1.0000000000E-11 19
3.300E00:1 3.300E00:2 3.300E00:3 3.300E00:4 3.300E00:5 3.229E00:6 3.989E00:7 2.360E-04:8 -4.399E-12:9 -2.360E-04:a -1.690E-13:b 
3.764E-03:c -3.764E-03:d -1.001E-08:e -1.707E-13:f -2.939E-12:10 3.621E-12:11 8.896E-15:12 -6.913E-13:13 
#C 2.0000000000E-11 19
3.300E00:1 3.300E00:2 3.300E00:3 3.300E00:4 3.300E00:5 3.229E00:6 3.989E00:7 2.360E-04:8 -4.399E-12:9 -2.360E-04:a -1.690E-13:b 
3.764E-03:c -3.764E-03:d -1.001E-08:e -1.707E-13:f -2.939E-12:10 3.621E-12:11 8.896E-15:12 -6.913E-13:13 
#C 4.0000152290E-11 19
3.300E00:1 3.300E00:2 3.300E00:3 3.300E00:4 3.300E00:5 3.229E00:6 3.989E00:7 2.360E-04:8 -4.371E-12:9 -2.360E-04:a 0.000E00:b 
3.764E-03:c -3.764E-03:d -1.001E-08:e 0.000E00:f -2.948E-12:10 2.948E-12:11 2.819E-20:12 0.000E00:13 
#C 8.0000456870E-11 19
3.300E00:1 3.300E00:2 3.300E00:3 3.300E00:4 3.300E00:5 3.229E00:6 3.989E00:7 2.360E-04:8 -4.371E-12:9 -2.360E-04:a 0.000E00:b 
3.764E-03:c -3.764E-03:d -1.001E-08:e 0.000E00:f -2.948E-12:10 2.948E-12:11 2.819E-20:12 0.000E00:13 
#C 1.6000106603E-10 19
3.300E00:1 3.300E00:2 3.300E00:3 3.300E00:4 3.300E00:5 3.229E00:6 3.989E00:7 2.360E-04:8 -4.371E-12:9 -2.360E-04:a 0.000E00:b 
3.764E-03:c -3.764E-03:d -1.001E-08:e 0.000E00:f -2.948E-12:10 2.948E-12:11 2.819E-20:12 0.000E00:13 
#C 3.2000228435E-10 19
3.300E00:1 3.300E00:2 3.300E00:3 3.300E00:4 3.300E00:5 3.229E00:6 3.989E00:7 2.360E-04:8 -4.371E-12:9 -2.360E-04:a 0.000E00:b 
3.764E-03:c -3.764E-03:d -1.001E-08:e 0.000E00:f -2.948E-12:10 2.948E-12:11 2.819E-20:12 0.000E00:13 
#C 6.4000472099E-10 19
3.300E00:1 3.300E00:2 3.300E00:3 3.300E00:4 3.300E00:5 3.229E00:6 3.989E00:7 2.360E-04:8 -4.371E-12:9 -2.360E-04:a 0.000E00:b 
3.764E-03:c -3.764E-03:d -1.001E-08:e 0.000E00:f -2.948E-12:10 2.948E-12:11 2.819E-20:12 0.000E00:13 
#C 1.2800095943E-09 19
3.300E00:1 3.300E00:2 3.300E00:3 3.300E00:4 3.300E00:5 3.229E00:6 3.989E00:7 2.360E-04:8 -4.371E-12:9 -2.360E-04:a 0.000E00:b 
3.764E-03:c -3.764E-03:d -1.001E-08:e 0.000E00:f -2.948E-12:10 2.948E-12:11 2.819E-20:12 0.000E00:13 
#C 2.0000000001E-09 19
3.300E00:1 3.300E00:2 3.300E00:3 3.300E00:4 3.300E00:5 3.229E00:6 3.989E00:7 2.360E-04:8 -4.371E-12:9 -2.360E-04:a 0.000E00:b 
3.764E-03:c -3.764E-03:d -1.001E-08:e 0.000E00:f -2.948E-12:10 2.948E-12:11 2.819E-20:12 0.000E00:13 
#C 2.0200000001E-09 19
3.300E00:1 3.300E00:2 3.300E00:3 3.300E00:4 3.300E00:5 3.229E00:6 3.986E00:7 2.178E-04:8 3.412E-06:9 -2.340E-04:a 1.288E-05:b 
3.337E-03:c -3.054E-03:d 1.545E-05:e -2.978E-04:f 1.530E-05:10 1.155E-03:11 1.536E-05:12 -1.186E-03:13 
#C 2.0600003047E-09 19
3.300E00:1 3.300E00:2 3.300E00:3 3.300E00:4 3.300E00:5 3.229E00:6 3.978E00:7 2.177E-04:8 3.412E-06:9 -2.340E-04:a 1.288E-05:b 
2.395E-03:c -2.005E-03:d 2.126E-05:e -4.120E-04:f 2.141E-05:10 1.603E-03:11 2.146E-05:12 -1.646E-03:13 
#C 2.1400009138E-09 19
3.300E00:1 3.300E00:2 3.300E00:3 3.300E00:4 3.300E00:5 3.229E00:6 3.963E00:7 2.007E-04:8 6.750E-06:9 -2.341E-04:a 2.672E-05:b 
1.344E-03:c -1.046E-03:d 1.581E-05:e -3.145E-04:f 1.603E-05:10 1.156E-03:11 1.597E-05:12 -1.188E-03:13 
#C 2.2000000001E-09 19
3.300E00:1 3.300E00:2 3.300E00:3 3.300E00:4 3.300E00:5 3.229E00:6 3.954E00:7 2.400E-04:8 -1.174E-06:9 -2.312E-04:a -7.605E-06:b 
9.653E-04:c -7.302E-04:d 1.255E-05:e -2.476E-04:f 1.257E-05:10 9.220E-04:11 1.259E-05:12 -9.472E-04:13 
#C 2.2160001219E-09 19
3.300E00:1 3.300E00:2 3.300E00:3 3.300E00:4 3.300E00:5 3.229E00:6 3.952E00:7 2.203E-04:8 2.788E-06:9 -2.327E-04:a 9.559E-06:b 
9.037E-04:c -7.035E-04:d 1.058E-05:e -2.108E-04:f 1.430E-05:10 1.033E-03:11 1.428E-05:12 -1.061E-03:13 
#C 2.2480026939E-09 19
3.300E00:1 3.300E00:2 3.300E00:3 3.300E00:4 3.300E00:5 3.229E00:6 3.950E00:7 2.203E-04:8 2.788E-06:9 -2.326E-04:a 9.559E-06:b 
8.123E-04:c -6.500E-04:d 8.553E-06:e -1.708E-04:f 6.811E-06:10 4.908E-04:11 6.803E-06:12 -5.044E-04:13 
#C 2.3120078378E-09 19
3.300E00:1 3.300E00:2 3.300E00:3 3.300E00:4 3.300E00:5 3.229E00:6 3.947E00:7 2.505E-04:8 -3.092E-06:9 -2.330E-04:a -1.439E-05:b 
7.355E-04:c -7.171E-04:d 9.423E-07:e -1.931E-05:f 2.171E-06:10 1.549E-04:11 2.165E-06:12 -1.593E-04:13 
#C 2.4400181257E-09 19
3.300E00:1 3.300E00:2 3.300E00:3 3.300E00:4 3.300E00:5 3.229E00:6 3.949E00:7 2.383E-04:8 -7.396E-07:9 -2.328E-04:a -4.813E-06:b 
7.935E-04:c -8.925E-04:d -5.213E-06:e 1.042E-04:f -5.458E-06:10 -3.940E-04:11 -5.477E-06:12 4.050E-04:13 
#C 2.6960387015E-09 19
3.300E00:1 3.300E00:2 3.300E00:3 3.300E00:4 3.300E00:5 3.229E00:6 3.966E00:7 2.561E-04:8 -3.895E-06:9 -2.369E-04:a -1.535E-05:b 
1.531E-03:c -1.680E-03:d -7.992E-06:e 1.574E-04:f -7.657E-06:10 -5.605E-04:11 -7.655E-06:12 5.759E-04:13 
#C 3.2080798530E-09 19
3.300E00:1 3.300E00:2 3.300E00:3 3.300E00:4 3.300E00:5 3.229E00:6 3.986E00:7 2.243E-04:8 2.318E-06:9 -2.366E-04:a 1.004E-05:b 
3.251E-03:c -3.241E-03:d 4.187E-07:e -1.016E-05:f -1.251E-08:10 -7.615E-06:11 -2.618E-09:12 7.630E-06:13 
#C 3.8673631036E-09 19
3.300E00:1 3.300E00:2 3.300E00:3 3.300E00:4 3.300E00:5 3.229E00:6 3.988E00:7 2.464E-04:8 -2.018E-06:9 -2.362E-04:a -8.130E-06:b 
3.547E-03:c -3.570E-03:d -1.118E-06:e 2.328E-05:f -6.327E-07:10 -4.102E-05:11 -6.448E-07:12 4.230E-05:13 
#C 4.8674172842E-09 19
3.300E00:1 3.300E00:2 3.300E00:3 3.300E00:4 3.300E00:5 3.229E00:6 3.989E00:7 2.355E-04:8 1.500E-07:9 -2.366E-04:a 9.527E-07:b 
3.742E-03:c -3.743E-03:d -2.526E-08:e 2.869E-07:f -3.978E-08:10 -2.903E-06:11 -3.816E-08:12 2.981E-06:13 
#C 5.8674714648E-09 19
3.300E00:1 3.300E00:2 3.300E00:3 3.300E00:4 3.300E00:5 3.229E00:6 3.989E00:7 2.355E-04:8 1.500E-07:9 -2.366E-04:a 9.527E-07:b 
3.771E-03:c -3.770E-03:d 2.983E-08:e -7.674E-07:f 5.411E-08:10 4.093E-06:11 5.438E-08:12 -4.201E-06:13 
#C 6.8675256454E-09 19
3.300E00:1 3.300E00:2 3.300E00:3 3.300E00:4 3.300E00:5 3.229E00:6 3.989E00:7 2.355E-04:8 1.500E-07:9 -2.366E-04:a 9.527E-07:b 
3.768E-03:c -3.768E-03:d -4.579E-08:e 6.893E-07:f 5.411E-08:10 4.093E-06:11 5.438E-08:12 -4.201E-06:13 
#C 7.8675798261E-09 19
3.300E00:1 3.300E00:2 3.300E00:3 3.300E00:4 3.300E00:5 3.229E00:6 3.989E00:7 2.360E-04:8 -4.371E-12:9 -2.360E-04:a -1.735E-18:b 
3.765E-03:c -3.765E-03:d -7.979E-09:e -3.904E-08:f -2.948E-12:10 2.948E-12:11 -1.074E-19:12 0.000E00:13 
#C 8.8676340067E-09 19
3.300E00:1 3.300E00:2 3.300E00:3 3.300E00:4 3.300E00:5 3.229E00:6 3.989E00:7 2.360E-04:8 -4.371E-12:9 -2.360E-04:a 1.735E-18:b 
3.762E-03:c -3.762E-03:d -7.978E-09:e -3.904E-08:f -2.948E-12:10 2.948E-12:11 2.992E-19:12 -4.337E-19:13 
#C 9.8676881873E-09 19
3.300E00:1 3.300E00:2 3.300E00:3 3.300E00:4 3.300E00:5 3.229E00:6 3.989E00:7 2.360E-04:8 -4.371E-12:9 -2.360E-04:a 1.735E-18:b 
3.762E-03:c -3.762E-03:d -7.978E-09:e -3.904E-08:f -2.948E-12:10 2.948E-12:11 2.992E-19:12 -4.337E-19:13 
#C 1.0867742368E-08 19
3.300E00:1 3.300E00:2 3.300E00:3 3.300E00:4 3.300E00:5 3.229E00:6 3.989E00:7 2.360E-04:8 -4.371E-12:9 -2.360E-04:a 1.735E-18:b 
3.762E-03:c -3.762E-03:d -7.978E-09:e -3.904E-08:f -2.948E-12:10 2.948E-12:11 2.992E-19:12 -4.337E-19:13 
#C 1.1867796549E-08 19
3.300E00:1 3.300E00:2 3.300E00:3 3.300E00:4 3.300E00:5 3.229E00:6 3.989E00:7 2.360E-04:8 -4.371E-12:9 -2.360E-04:a 1.735E-18:b 
3.762E-03:c -3.762E-03:d -7.978E-09:e -3.904E-08:f -2.948E-12:10 2.948E-12:11 2.992E-19:12 -4.337E-19:13 
#C 1.2867850729E-08 19
3.300E00:1 3.300E00:2 3.300E00:3 3.300E00:4 3.300E00:5 3.229E00:6 3.989E00:7 2.360E-04:8 -4.371E-12:9 -2.360E-04:a 1.735E-18:b 
3.762E-03:c -3.762E-03:d -7.978E-09:e -3.904E-08:f -2.948E-12:10 2.948E-12:11 2.992E-19:12 -4.337E-19:13 
#C 1.3867904910E-08 19
3.300E00:1 3.300E00:2 3.300E00:3 3.300E00:4 3.300E00:5 3.229E00:6 3.989E00:7 2.360E-04:8 -4.371E-12:9 -2.360E-04:a 1.735E-18:b 
3.762E-03:c -3.762E-03:d -7.978E-09:e -3.904E-08:f -2.948E-12:10 2.948E-12:11 2.992E-19:12 -4.337E-19:13 
#C 1.4867959090E-08 19
3.300E00:1 3.300E00:2 3.300E00:3 3.300E00:4 3.300E00:5 3.229E00:6 3.989E00:7 2.360E-04:8 -4.371E-12:9 -2.360E-04:a 1.735E-18:b 
3.762E-03:c -3.762E-03:d -7.978E-09:e -3.904E-08:f -2.948E-12:10 2.948E-12:11 2.992E-19:12 -4.337E-19:13 
#C 1.5000000000E-08 19
3.300E00:1 3.300E00:2 3.300E00:3 3.300E00:4 3.300E00:5 3.229E00:6 3.989E00:7 2.360E-04:8 -4.371E-12:9 -2.360E-04:a 1.388E-17:b 
3.762E-03:c -3.762E-03:d -1.001E-08:e -5.963E-18:f -2.948E-12:10 2.948E-12:11 -3.174E-19:12 -1.355E-18:13 
#C 1.5100000000E-08 19
3.300E00:1 3.300E00:2 3.300E00:3 3.300E00:4 3.300E00:5 3.229E00:6 3.989E00:7 2.360E-04:8 -4.371E-12:9 -2.360E-04:a 0.000E00:b 
3.762E-03:c -3.762E-03:d -1.001E-08:e 0.000E00:f -2.948E-12:10 2.948E-12:11 2.815E-20:12 0.000E00:13 
#C 1.5264471567E-08 19
3.300E00:1 3.300E00:2 3.300E00:3 3.300E00:4 3.300E00:5 3.229E00:6 3.989E00:7 2.360E-04:8 -4.371E-12:9 -2.360E-04:a 0.000E00:b 
3.762E-03:c -3.762E-03:d -1.001E-08:e 0.000E00:f -2.948E-12:10 2.948E-12:11 2.815E-20:12 0.000E00:13 
#C 1.5305589458E-08 19
3.300E00:1 3.300E00:2 3.300E00:3 3.300E00:4 3.300E00:5 3.229E00:6 3.989E00:7 2.360E-04:8 -4.371E-12:9 -2.360E-04:a 0.000E00:b 
3.767E-03:c -3.770E-03:d -1.762E-07:e 3.196E-06:f -2.948E-12:10 2.948E-12:11 2.815E-20:12 0.000E00:13 
#C 1.5387825242E-08 19
3.300E00:1 3.300E00:2 3.300E00:3 3.300E00:4 3.300E00:5 3.229E00:6 3.989E00:7 2.360E-04:8 -4.371E-12:9 -2.360E-04:a 1.110E-16:b 
3.767E-03:c -3.766E-03:d 4.029E-08:e -9.674E-07:f -2.948E-12:10 2.948E-12:11 -5.176E-18:12 0.000E00:13 
#C 1.5408384188E-08 19
3.300E00:1 3.300E00:2 3.300E00:3 3.300E00:4 3.300E00:5 3.229E00:6 3.989E00:7 2.360E-04:8 -4.371E-12:9 -2.360E-04:a 1.943E-16:b 
3.767E-03:c -3.767E-03:d -1.306E-08:e 5.874E-08:f -2.948E-12:10 2.948E-12:11 -7.561E-18:12 -2.515E-17:13 
#C 1.5449502079E-08 19
3.300E00:1 3.300E00:2 3.300E00:3 3.300E00:4 3.300E00:5 3.229E00:6 3.989E00:7 2.360E-04:8 -4.371E-12:9 -2.360E-04:a 1.110E-16:b 
3.767E-03:c -3.767E-03:d -1.306E-08:e 5.874E-08:f -2.948E-12:10 2.948E-12:11 -1.038E-17:12 -1.388E-17:13 
#C 1.5531737863E-08 19
3.300E00:1 3.300E00:2 3.300E00:3 3.300E00:4 3.300E00:5 3.229E00:6 3.989E00:7 2.360E-04:8 -4.371E-12:9 -2.360E-04:a 1.110E-16:b 
3.768E-03:c -3.768E-03:d -1.306E-08:e 5.874E-08:f -2.948E-12:10 2.948E-12:11 1.651E-17:12 -2.082E-17:13 
#C 1.5552296808E-08 19
3.300E00:1 3.300E00:2 3.300E00:3 3.300E00:4 3.300E00:5 3.229E00:6 3.989E00:7 2.360E-04:8 -4.371E-12:9 -2.360E-04:a 1.943E-16:b 
3.768E-03:c -3.768E-03:d -1.306E-08:e 5.874E-08:f -2.948E-12:10 2.948E-12:11 -7.561E-18:12 -2.515E-17:13 
#C 1.5593414700E-08 19
3.300E00:1 3.300E00:2 3.300E00:3 3.300E00:4 3.300E00:5 3.229E00:6 3.989E00:7 2.360E-04:8 -4.371E-12:9 -2.360E-04:a -1.943E-16:b 
3.768E-03:c -3.768E-03:d -1.306E-08:e 5.874E-08:f -2.948E-12:10 2.948E-12:11 7.618E-18:12 2.515E-17:13 
#C 1.5675650483E-08 19
3.300E00:1 3.300E00:2 3.300E00:3 3.300E00:4 3.300E00:5 3.229E00:6 3.989E00:7 2.360E-04:8 -4.371E-12:9 -2.360E-04:a 1.110E-16:b 
3.768E-03:c -3.768E-03:d -1.306E-08:e 5.874E-08:f -2.948E-12:10 2.948E-12:11 1.651E-17:12 -2.082E-17:13 
#C 1.5751460141E-08 19
3.300E00:1 3.300E00:2 3.300E00:3 3.300E00:4 3.300E00:5 3.229E00:6 3.989E00:7 2.360E-04:8 -4.371E-12:9 -2.360E-04:a 0.000E00:b 
3.769E-03:c -3.769E-03:d -1.306E-08:e 5.874E-08:f -2.948E-12:10 2.948E-12:11 -8.645E-18:12 1.735E-18:13 
#C 1.5903079456E-08 19
3.300E00:1 3.300E00:2 3.300E00:3 3.300E00:4 3.300E00:5 3.229E00:6 3.989E00:7 2.360E-04:8 -4.371E-12:9 -2.360E-04:a 2.776E-17:b 
3.769E-03:c -3.769E-03:d -1.306E-08:e 5.874E-08:f -2.948E-12:10 2.948E-12:11 4.618E-19:12 -3.469E-18:13 
#C 1.6000000000E-08 19
3.300E00:1 3.300E00:2 3.300E00:3 3.300E00:4 3.300E00:5 3.229E00:6 3.989E00:7 2.360E-04:8 -4.371E-12:9 -2.360E-04:a 6.939E-18:b 
3.770E-03:c -3.770E-03:d -1.306E-08:e 5.874E-08:f -2.948E-12:10 2.948E-12:11 -2.682E-18:12 5.204E-18:13 
#C 1.6023113098E-08 19
3.300E00:1 3.300E00:2 3.300E00:3 3.300E00:4 3.300E00:5 3.229E00:6 3.989E00:7 2.360E-04:8 -4.371E-12:9 -2.360E-04:a 0.000E00:b 
3.770E-03:c -3.770E-03:d -1.306E-08:e 5.874E-08:f -2.948E-12:10 2.948E-12:11 2.815E-20:12 0.000E00:13 
#C 1.6069341622E-08 19
3.300E00:1 3.300E00:2 3.300E00:3 3.300E00:4 3.300E00:5 3.229E00:6 3.989E00:7 2.360E-04:8 -4.371E-12:9 -2.360E-04:a 0.000E00:b 
3.770E-03:c -3.770E-03:d -1.306E-08:e 5.874E-08:f -2.948E-12:10 2.948E-12:11 2.815E-20:12 0.000E00:13 
#C 1.6161798671E-08 19
3.300E00:1 3.300E00:2 3.300E00:3 3.300E00:4 3.300E00:5 3.229E00:6 3.989E00:7 2.360E-04:8 -4.371E-12:9 -2.360E-04:a 2.776E-17:b 
3.770E-03:c -3.770E-03:d -1.306E-08:e 5.874E-08:f -2.948E-12:10 2.948E-12:11 6.967E-18:12 -6.939E-18:13 
#C 1.6346712768E-08 19
3.300E00:1 3.300E00:2 3.300E00:3 3.300E00:4 3.300E00:5 3.229E00:6 3.989E00:7 2.360E-04:8 -4.371E-12:9 -2.360E-04:a -2.776E-17:b 
3.766E-03:c -3.765E-03:d 1.965E-08:e -5.706E-07:f -2.948E-12:10 2.948E-12:11 -3.875E-18:12 6.939E-18:13 
#C 1.6716540963E-08 19
3.300E00:1 3.300E00:2 3.300E00:3 3.300E00:4 3.300E00:5 3.229E00:6 3.989E00:7 2.360E-04:8 -4.371E-12:9 -2.360E-04:a -2.082E-17:b 
3.765E-03:c -3.765E-03:d -1.757E-08:e 1.455E-07:f -2.948E-12:10 2.948E-12:11 2.450E-19:12 -1.735E-18:13 
#C 1.7456197351E-08 19
3.300E00:1 3.300E00:2 3.300E00:3 3.300E00:4 3.300E00:5 3.229E00:6 3.989E00:7 2.360E-04:8 -4.371E-12:9 -2.360E-04:a -3.469E-18:b 
3.763E-03:c -3.762E-03:d -7.914E-09:e -4.027E-08:f -2.948E-12:10 2.948E-12:11 7.871E-19:12 -8.674E-19:13 
#C 1.8456251532E-08 19
3.300E00:1 3.300E00:2 3.300E00:3 3.300E00:4 3.300E00:5 3.229E00:6 3.989E00:7 2.360E-04:8 -4.371E-12:9 -2.360E-04:a -5.204E-18:b 
3.764E-03:c -3.764E-03:d -1.310E-08:e 5.952E-08:f -2.948E-12:10 2.948E-12:11 7.871E-19:12 4.337E-19:13 
#C 1.9000000000E-08 19
3.300E00:1 3.300E00:2 3.300E00:3 3.300E00:4 3.300E00:5 3.229E00:6 3.989E00:7 2.360E-04:8 -4.371E-12:9 -2.360E-04:a 1.041E-17:b 
3.765E-03:c -3.765E-03:d -1.121E-08:e 2.309E-08:f -2.948E-12:10 2.948E-12:11 -3.784E-19:12 -1.518E-18:13 
#C 1.9100000000E-08 19
3.300E00:1 3.300E00:2 3.300E00:3 3.300E00:4 3.300E00:5 3.229E00:6 3.989E00:7 2.360E-04:8 -4.371E-12:9 -2.360E-04:a 0.000E00:b 
3.765E-03:c -3.765E-03:d -1.121E-08:e 2.309E-08:f -2.948E-12:10 2.948E-12:11 2.815E-20:12 0.000E00:13 
#C 1.9300001523E-08 19
3.300E00:1 3.300E00:2 3.300E00:3 3.300E00:4 3.300E00:5 3.229E00:6 3.989E00:7 2.360E-04:8 -4.371E-12:9 -2.360E-04:a 0.000E00:b 
3.766E-03:c -3.766E-03:d -1.121E-08:e 2.309E-08:f -2.948E-12:10 2.948E-12:11 2.815E-20:12 0.000E00:13 
#C 1.9700004569E-08 19
3.300E00:1 3.300E00:2 3.300E00:3 3.300E00:4 3.300E00:5 3.229E00:6 3.989E00:7 2.360E-04:8 -4.371E-12:9 -2.360E-04:a 6.939E-18:b 
3.766E-03:c -3.766E-03:d -1.121E-08:e 2.309E-08:f -2.948E-12:10 2.948E-12:11 2.197E-18:12 -1.735E-18:13 
#C 2.0000000000E-08 19
3.300E00:1 3.300E00:2 3.300E00:3 3.300E00:4 3.300E00:5 3.229E00:6 3.989E00:7 2.360E-04:8 -4.371E-12:9 -2.360E-04:a 1.041E-17:b 
3.767E-03:c -3.767E-03:d -1.121E-08:e 2.309E-08:f -2.948E-12:10 2.948E-12:11 -1.110E-18:12 -4.337E-19:13 
#C 2.0065024942E-08 19
3.300E00:1 3.300E00:2 3.300E00:3 3.300E00:4 3.300E00:5 3.229E00:6 3.989E00:7 2.360E-04:8 -4.371E-12:9 -2.360E-04:a 0.000E00:b 
3.767E-03:c -3.767E-03:d -1.121E-08:e 2.309E-08:f -2.948E-12:10 2.948E-12:11 2.815E-20:12 0.000E00:13 
#C 2.0195084140E-08 19
3.300E00:1 3.300E00:2 3.300E00:3 3.300E00:4 3.300E00:5 3.229E00:6 3.989E00:7 2.360E-04:8 -4.371E-12:9 -2.360E-04:a 0.000E00:b 
3.767E-03:c -3.767E-03:d -1.121E-08:e 2.309E-08:f -2.948E-12:10 2.948E-12:11 2.815E-20:12 0.000E00:13 
#C 2.0455202535E-08 19
3.300E00:1 3.300E00:2 3.300E00:3 3.300E00:4 3.300E00:5 3.229E00:6 3.989E00:7 2.360E-04:8 -4.371E-12:9 -2.360E-04:a 0.000E00:b 
3.768E-03:c -3.768E-03:d -1.121E-08:e 2.309E-08:f -2.948E-12:10 2.948E-12:11 3.281E-18:12 1.735E-18:13 
#C 2.0975439325E-08 19
3.300E00:1 3.300E00:2 3.300E00:3 3.300E00:4 3.300E00:5 3.229E00:6 3.989E00:7 2.360E-04:8 -4.371E-12:9 -2.360E-04:a 0.000E00:b 
3.765E-03:c -3.765E-03:d -2.632E-09:e -1.419E-07:f -2.948E-12:10 2.948E-12:11 1.654E-18:12 8.674E-19:13 
#C 2.1975493506E-08 19
3.300E00:1 3.300E00:2 3.300E00:3 3.300E00:4 3.300E00:5 3.229E00:6 3.989E00:7 2.360E-04:8 -4.371E-12:9 -2.360E-04:a -3.469E-18:b 
3.764E-03:c -3.764E-03:d -1.207E-08:e 3.967E-08:f -2.948E-12:10 2.948E-12:11 4.076E-19:12 1.301E-18:13 
#C 2.2975547686E-08 19
3.300E00:1 3.300E00:2 3.300E00:3 3.300E00:4 3.300E00:5 3.229E00:6 3.989E00:7 2.360E-04:8 -4.371E-12:9 -2.360E-04:a -3.469E-18:b 
3.764E-03:c -3.764E-03:d -1.207E-08:e 3.967E-08:f -2.948E-12:10 2.948E-12:11 4.076E-19:12 1.301E-18:13 
#C 2.3975601867E-08 19
3.300E00:1 3.300E00:2 3.300E00:3 3.300E00:4 3.300E00:5 3.229E00:6 3.989E00:7 2.360E-04:8 -4.371E-12:9 -2.360E-04:a -3.469E-18:b 
3.764E-03:c -3.764E-03:d -1.207E-08:e 3.967E-08:f -2.948E-12:10 2.948E-12:11 4.076E-19:12 1.301E-18:13 
#C 2.4975656048E-08 19
3.300E00:1 3.300E00:2 3.300E00:3 3.300E00:4 3.300E00:5 3.229E00:6 3.989E00:7 2.360E-04:8 -4.371E-12:9 -2.360E-04:a -3.469E-18:b 
3.764E-03:c -3.764E-03:d -1.207E-08:e 3.967E-08:f -2.948E-12:10 2.948E-12:11 4.076E-19:12 1.301E-18:13 
#C 2.5975710228E-08 19
3.300E00:1 3.300E00:2 3.300E00:3 3.300E00:4 3.300E00:5 3.229E00:6 3.989E00:7 2.360E-04:8 -4.371E-12:9 -2.360E-04:a -3.469E-18:b 
3.764E-03:c -3.764E-03:d -1.207E-08:e 3.967E-08:f -2.948E-12:10 2.948E-12:11 4.076E-19:12 1.301E-18:13 
#C 2.6975764409E-08 19
3.300E00:1 3.300E00:2 3.300E00:3 3.300E00:4 3.300E00:5 3.229E00:6 3.989E00:7 2.360E-04:8 -4.371E-12:9 -2.360E-04:a -3.469E-18:b 
3.764E-03:c -3.764E-03:d -1.207E-08:e 3.967E-08:f -2.948E-12:10 2.948E-12:11 4.076E-19:12 1.301E-18:13 
#C 2.7975818589E-08 19
3.300E00:1 3.300E00:2 3.300E00:3 3.300E00:4 3.300E00:5 3.229E00:6 3.989E00:7 2.360E-04:8 -4.371E-12:9 -2.360E-04:a -3.469E-18:b 
3.764E-03:c -3.764E-03:d -1.207E-08:e 3.967E-08:f -2.948E-12:10 2.948E-12:11 4.076E-19:12 1.301E-18:13 
#C 2.8975872770E-08 19
3.300E00:1 3.300E00:2 3.300E00:3 3.300E00:4 3.300E00:5 3.229E00:6 3.989E00:7 2.360E-04:8 -4.371E-12:9 -2.360E-04:a -3.469E-18:b 
3.764E-03:c -3.764E-03:d -1.207E-08:e 3.967E-08:f -2.948E-12:10 2.948E-12:11 4.076E-19:12 1.301E-18:13 
#C 2.9975926951E-08 19
3.300E00:1 3.300E00:2 3.300E00:3 3.300E00:4 3.300E00:5 3.229E00:6 3.989E00:7 2.360E-04:8 -4.371E-12:9 -2.360E-04:a -3.469E-18:b 
3.764E-03:c -3.764E-03:d -1.207E-08:e 3.967E-08:f -2.948E-12:10 2.948E-12:11 4.076E-19:12 1.301E-18:13 
#C 3.0975981131E-08 19
3.300E00:1 3.300E00:2 3.300E00:3 3.300E00:4 3.300E00:5 3.229E00:6 3.989E00:7 2.360E-04:8 -4.371E-12:9 -2.360E-04:a -3.469E-18:b 
3.764E-03:c -3.764E-03:d -1.207E-08:e 3.967E-08:f -2.948E-12:10 2.948E-12:11 4.076E-19:12 1.301E-18:13 
#C 3.1976035312E-08 19
3.300E00:1 3.300E00:2 3.300E00:3 3.300E00:4 3.300E00:5 3.229E00:6 3.989E00:7 2.360E-04:8 -4.371E-12:9 -2.360E-04:a -3.469E-18:b 
3.764E-03:c -3.764E-03:d -1.207E-08:e 3.967E-08:f -2.948E-12:10 2.948E-12:11 4.076E-19:12 1.301E-18:13 
#C 3.2976089493E-08 19
3.300E00:1 3.300E00:2 3.300E00:3 3.300E00:4 3.300E00:5 3.229E00:6 3.989E00:7 2.360E-04:8 -4.371E-12:9 -2.360E-04:a -3.469E-18:b 
3.764E-03:c -3.764E-03:d -1.207E-08:e 3.967E-08:f -2.948E-12:10 2.948E-12:11 4.076E-19:12 1.301E-18:13 
#C 3.3976143673E-08 19
