#H
SOURCE='PSPICE' VERSION='PSpice 16.0.0 (July 2006)'
TITLE='** Profile: "TEST-transient"  [ D:\Documents\TESIS\fiocs\Design\I-COMPARADOR-02\OrCAD\i-comparador-01-pspicefiles\test\transient.sim'
SUBTITLE=''
TIME='16:10:21' DATE='04/17/10' TEMPERATURE='2.700E01'
ANALYSIS='Transient Analysis' SERIALNO='61413'
ALLVALUES='NO' COMPLEXVALUES='NO' NODES='46'
SWEEPVAR='Time' SWEEPMODE='VAR_STEP'
XBEGIN='0.000E00' XEND='5.000E-08'
FORMAT='0 VOLTSorAMPS;EFLOAT : NODEorBRANCH;NODE  '
DGTLDATA='NO' 
#N 
'V(M2:b)';'V(I1:-)';'V(M5:s)';'V(M5:b)';'V(VQ+:-)';'V(VBIAS:-)';'V(M7:s)';'V(M7:b)';'V(VQ-:-)';'V(M1:b)';'V(VDD:-)';'V(0)';'V2(I1)';'VB(M2)';
'VS(M5)';'VB(M5)';'VS(M7)';'VB(M7)';'VB(M1)';'V2(VQ+)';'V2(VBIAS)';'V2(VQ-)';'V2(VDD)' 'V(IN-)';'V(VIN:+)';'V(M1:g)';'V(IN-)';'VG(M1)';'V1(VIN)' 
'V(VQ-:+)';'V(VIN:-)';'V(N43113)';'V1(VQ-)';'V2(VIN)' 'V(NOUT)';'V(M6:d)';'V(M7:d)';'V(NOUT)';'VD(M6)';'VD(M7)' 'V(VBIAS)';'V(M5:g)';
'V(VBIAS:+)';'V(M7:g)';'V(VBIAS)';'VG(M5)';'VG(M7)';'V1(VBIAS)' 'V(M3:s)';'V(M3:b)';'V(M4:s)';'V(M4:b)';'V(M6:s)';'V(M6:b)';'V(VDD:+)';
'V(N39211)';'VS(M3)';'VB(M3)';'VS(M4)';'VB(M4)';'VS(M6)';'VB(M6)';'V1(VDD)' 'V(ND-)';'V(M3:d)';'V(M3:g)';'V(M4:g)';'V(I1:+)';'V(M1:d)';'V(ND-)';
'V1(I1)';'VD(M3)';'VG(M3)';'VG(M4)';'VD(M1)' 'V(VREF:-)';'V(VQ+:+)';'V(N398131)';'V2(VREF)';'V1(VQ+)' 'V(NDBias)';'V(M2:s)';'V(M5:d)';'V(M1:s)';
'V(NDBIAS)';'VS(M2)';'VD(M5)';'VS(M1)' 'V(IN+)';'V(M2:g)';'V(VREF:+)';'V(IN+)';'VG(M2)';'V1(VREF)' 'V(ND+)';'V(M2:d)';'V(M4:d)';'V(M6:g)';
'V(ND+)';'VD(M2)';'VD(M4)';'VG(M6)' 'I(VDD)';'I(VDD:+)' 'I(VIN)';'I(VIN:+)' 'I(VQ-)';'I(VQ-:+)' 'I(VBIAS)';'I(VBIAS:+)' 'I(VQ+)';'I(VQ+:+)' 
'I(VREF)';'I(VREF:+)' 'I(I1)';'I(I1:+)' 'IB(M1)';'I(M1:b)' 'IS(M1)';'I(M1:s)' 'IG(M1)';'I(M1:g)' 'ID(M1)';'I(M1:d)' 'IB(M7)';'I(M7:b)' 'IS(M7)';
'I(M7:s)' 'IG(M7)';'I(M7:g)' 'ID(M7)';'I(M7:d)' 'IB(M6)';'I(M6:b)' 'IS(M6)';'I(M6:s)' 'IG(M6)';'I(M6:g)' 'ID(M6)';'I(M6:d)' 'IB(M5)';'I(M5:b)' 
'IS(M5)';'I(M5:s)' 'IG(M5)';'I(M5:g)' 'ID(M5)';'I(M5:d)' 'IB(M4)';'I(M4:b)' 'IS(M4)';'I(M4:s)' 'IG(M4)';'I(M4:g)' 'ID(M4)';'I(M4:d)' 'IB(M3)';
'I(M3:b)' 'IS(M3)';'I(M3:s)' 'IG(M3)';'I(M3:g)' 'ID(M3)';'I(M3:d)' 'IB(M2)';'I(M2:b)' 'IS(M2)';'I(M2:s)' 'IG(M2)';'I(M2:g)' 'ID(M2)';'I(M2:d)' 
#C 0.0000000000E00 46
0.000E00:1 2.000E-01:2 2.000E-01:3 3.299E00:4 3.300E-01:5 3.300E00:6 3.052E00:7 2.000E-01:8 2.168E-02:9 1.200E00:a 2.174E-02:b 
-4.463E-07:c 0.000E00:d 0.000E00:e 0.000E00:f 0.000E00:10 0.000E00:11 0.000E00:12 -3.090E-12:13 -6.892E-09:14 0.000E00:15 
6.895E-09:16 -3.309E-12:17 -4.143E-07:18 0.000E00:19 4.143E-07:1a 1.501E-15:1b 4.143E-07:1c 0.000E00:1d -4.143E-07:1e 
-2.736E-14:1f -3.200E-08:20 0.000E00:21 3.200E-08:22 3.288E-12:23 2.511E-08:24 0.000E00:25 -2.511E-08:26 2.577E-13:27 6.898E-09:28 
0.000E00:29 -6.898E-09:2a -5.479E-14:2b -2.511E-08:2c 0.000E00:2d 2.511E-08:2e 
#C 5.0000000000E-13 46
0.000E00:1 2.000E-01:2 2.000E-01:3 3.299E00:4 3.300E-01:5 3.300E00:6 3.052E00:7 2.000E-01:8 2.168E-02:9 1.200E00:a 2.174E-02:b 
-4.463E-07:c -1.466E-15:d -1.466E-15:e -2.734E-14:f -1.879E-14:10 -1.879E-14:11 0.000E00:12 -3.090E-12:13 -6.892E-09:14 
1.466E-15:15 6.895E-09:16 -3.309E-12:17 -4.143E-07:18 2.777E-14:19 4.143E-07:1a 8.569E-14:1b 4.143E-07:1c 4.415E-14:1d 
-4.143E-07:1e -2.736E-14:1f -3.200E-08:20 -4.237E-16:21 3.200E-08:22 3.290E-12:23 2.511E-08:24 7.047E-15:25 -2.511E-08:26 
2.595E-13:27 6.898E-09:28 -4.517E-15:29 -6.898E-09:2a -4.329E-14:2b -2.511E-08:2c 1.879E-14:2d 2.511E-08:2e 
#C 1.0000000000E-12 46
0.000E00:1 2.000E-01:2 2.000E-01:3 3.299E00:4 3.300E-01:5 3.300E00:6 3.052E00:7 2.000E-01:8 2.168E-02:9 1.200E00:a 2.174E-02:b 
-4.463E-07:c -1.466E-15:d -1.466E-15:e -2.734E-14:f -1.879E-14:10 -1.879E-14:11 0.000E00:12 -3.090E-12:13 -6.892E-09:14 
1.466E-15:15 6.895E-09:16 -3.309E-12:17 -4.143E-07:18 2.777E-14:19 4.143E-07:1a 8.569E-14:1b 4.143E-07:1c 4.415E-14:1d 
-4.143E-07:1e -2.736E-14:1f -3.200E-08:20 -4.237E-16:21 3.200E-08:22 3.290E-12:23 2.511E-08:24 7.047E-15:25 -2.511E-08:26 
2.595E-13:27 6.898E-09:28 -4.517E-15:29 -6.898E-09:2a -4.329E-14:2b -2.511E-08:2c 1.879E-14:2d 2.511E-08:2e 
#C 2.0000803741E-12 46
0.000E00:1 2.000E-01:2 2.000E-01:3 3.299E00:4 3.300E-01:5 3.300E00:6 3.052E00:7 2.000E-01:8 2.168E-02:9 1.200E00:a 2.174E-02:b 
-4.463E-07:c -3.268E-15:d -3.268E-15:e -2.202E-14:f -1.618E-14:10 -1.618E-14:11 0.000E00:12 -3.090E-12:13 -6.892E-09:14 
0.000E00:15 6.895E-09:16 -3.309E-12:17 -4.143E-07:18 0.000E00:19 4.143E-07:1a 1.501E-15:1b 4.143E-07:1c 0.000E00:1d -4.143E-07:1e 
-2.736E-14:1f -3.200E-08:20 0.000E00:21 3.200E-08:22 3.288E-12:23 2.511E-08:24 0.000E00:25 -2.511E-08:26 2.577E-13:27 6.898E-09:28 
0.000E00:29 -6.898E-09:2a -5.479E-14:2b -2.511E-08:2c 0.000E00:2d 2.511E-08:2e 
#C 4.0002411222E-12 46
0.000E00:1 2.000E-01:2 2.000E-01:3 3.299E00:4 3.300E-01:5 3.300E00:6 3.052E00:7 2.000E-01:8 2.168E-02:9 1.200E00:a 2.174E-02:b 
-4.463E-07:c -3.268E-15:d -3.268E-15:e -2.202E-14:f -1.618E-14:10 -1.618E-14:11 0.000E00:12 -3.090E-12:13 -6.892E-09:14 
0.000E00:15 6.895E-09:16 -3.309E-12:17 -4.143E-07:18 0.000E00:19 4.143E-07:1a 1.501E-15:1b 4.143E-07:1c 0.000E00:1d -4.143E-07:1e 
-2.736E-14:1f -3.200E-08:20 0.000E00:21 3.200E-08:22 3.288E-12:23 2.511E-08:24 0.000E00:25 -2.511E-08:26 2.577E-13:27 6.898E-09:28 
0.000E00:29 -6.898E-09:2a -5.479E-14:2b -2.511E-08:2c 0.000E00:2d 2.511E-08:2e 
#C 8.0005626185E-12 46
0.000E00:1 2.000E-01:2 2.000E-01:3 3.299E00:4 3.300E-01:5 3.300E00:6 3.052E00:7 2.000E-01:8 2.168E-02:9 1.200E00:a 2.174E-02:b 
-4.463E-07:c -3.091E-15:d -3.091E-15:e -1.777E-14:f -1.322E-14:10 -1.322E-14:11 0.000E00:12 -3.090E-12:13 -6.892E-09:14 
0.000E00:15 6.895E-09:16 -3.309E-12:17 -4.143E-07:18 0.000E00:19 4.143E-07:1a 1.501E-15:1b 4.143E-07:1c 0.000E00:1d -4.143E-07:1e 
-2.736E-14:1f -3.200E-08:20 0.000E00:21 3.200E-08:22 3.288E-12:23 2.511E-08:24 0.000E00:25 -2.511E-08:26 2.577E-13:27 6.898E-09:28 
0.000E00:29 -6.898E-09:2a -5.479E-14:2b -2.511E-08:2c 0.000E00:2d 2.511E-08:2e 
#C 1.6001205611E-11 46
0.000E00:1 2.000E-01:2 2.000E-01:3 3.299E00:4 3.300E-01:5 3.300E00:6 3.052E00:7 2.000E-01:8 2.168E-02:9 1.200E00:a 2.174E-02:b 
-4.463E-07:c -2.394E-15:d -2.394E-15:e -1.263E-14:f -9.377E-15:10 -9.377E-15:11 0.000E00:12 -3.090E-12:13 -6.892E-09:14 
0.000E00:15 6.895E-09:16 -3.309E-12:17 -4.143E-07:18 0.000E00:19 4.143E-07:1a 1.501E-15:1b 4.143E-07:1c 0.000E00:1d -4.143E-07:1e 
-2.736E-14:1f -3.200E-08:20 0.000E00:21 3.200E-08:22 3.288E-12:23 2.511E-08:24 0.000E00:25 -2.511E-08:26 2.577E-13:27 6.898E-09:28 
0.000E00:29 -6.898E-09:2a -5.479E-14:2b -2.511E-08:2c 0.000E00:2d 2.511E-08:2e 
#C 3.2002491596E-11 46
0.000E00:1 2.000E-01:2 2.000E-01:3 3.299E00:4 3.300E-01:5 3.300E00:6 3.052E00:7 2.000E-01:8 2.168E-02:9 1.200E00:a 2.174E-02:b 
-4.463E-07:c -1.511E-15:d -1.511E-15:e -7.888E-15:f -5.706E-15:10 -5.706E-15:11 0.000E00:12 -3.090E-12:13 -6.892E-09:14 
0.000E00:15 6.895E-09:16 -3.309E-12:17 -4.143E-07:18 0.000E00:19 4.143E-07:1a 1.501E-15:1b 4.143E-07:1c 0.000E00:1d -4.143E-07:1e 
-2.736E-14:1f -3.200E-08:20 0.000E00:21 3.200E-08:22 3.288E-12:23 2.511E-08:24 0.000E00:25 -2.511E-08:26 2.577E-13:27 6.898E-09:28 
0.000E00:29 -6.898E-09:2a -5.479E-14:2b -2.511E-08:2c 0.000E00:2d 2.511E-08:2e 
#C 6.4005063566E-11 46
0.000E00:1 2.000E-01:2 2.000E-01:3 3.299E00:4 3.300E-01:5 3.300E00:6 3.052E00:7 2.000E-01:8 2.168E-02:9 1.200E00:a 2.174E-02:b 
-4.463E-07:c -7.745E-16:d -7.745E-16:e -4.419E-15:f -2.972E-15:10 -2.972E-15:11 0.000E00:12 -3.090E-12:13 -6.892E-09:14 
0.000E00:15 6.895E-09:16 -3.309E-12:17 -4.143E-07:18 0.000E00:19 4.143E-07:1a 1.501E-15:1b 4.143E-07:1c 0.000E00:1d -4.143E-07:1e 
-2.736E-14:1f -3.200E-08:20 0.000E00:21 3.200E-08:22 3.288E-12:23 2.511E-08:24 0.000E00:25 -2.511E-08:26 2.577E-13:27 6.898E-09:28 
0.000E00:29 -6.898E-09:2a -5.479E-14:2b -2.511E-08:2c 0.000E00:2d 2.511E-08:2e 
#C 1.1400544429E-10 46
0.000E00:1 2.000E-01:2 2.000E-01:3 3.299E00:4 3.300E-01:5 3.300E00:6 3.052E00:7 2.000E-01:8 2.168E-02:9 1.200E00:a 2.174E-02:b 
-4.463E-07:c -4.340E-16:d -4.340E-16:e -2.901E-15:f -1.766E-15:10 -1.766E-15:11 0.000E00:12 -3.090E-12:13 -6.892E-09:14 
0.000E00:15 6.895E-09:16 -3.309E-12:17 -4.143E-07:18 0.000E00:19 4.143E-07:1a 1.501E-15:1b 4.143E-07:1c 0.000E00:1d -4.143E-07:1e 
-2.736E-14:1f -3.200E-08:20 0.000E00:21 3.200E-08:22 3.288E-12:23 2.511E-08:24 0.000E00:25 -2.511E-08:26 2.577E-13:27 6.898E-09:28 
0.000E00:29 -6.898E-09:2a -5.479E-14:2b -2.511E-08:2c 0.000E00:2d 2.511E-08:2e 
#C 1.6400582502E-10 46
0.000E00:1 2.000E-01:2 2.000E-01:3 3.299E00:4 3.300E-01:5 3.300E00:6 3.052E00:7 2.000E-01:8 2.168E-02:9 1.200E00:a 2.174E-02:b 
-4.463E-07:c -4.340E-16:d -4.340E-16:e -2.901E-15:f -1.766E-15:10 -1.766E-15:11 0.000E00:12 -3.090E-12:13 -6.892E-09:14 
0.000E00:15 6.895E-09:16 -3.309E-12:17 -4.143E-07:18 0.000E00:19 4.143E-07:1a 1.501E-15:1b 4.143E-07:1c 0.000E00:1d -4.143E-07:1e 
-2.736E-14:1f -3.200E-08:20 0.000E00:21 3.200E-08:22 3.288E-12:23 2.511E-08:24 0.000E00:25 -2.511E-08:26 2.577E-13:27 6.898E-09:28 
0.000E00:29 -6.898E-09:2a -5.479E-14:2b -2.511E-08:2c 0.000E00:2d 2.511E-08:2e 
#C 2.1400620574E-10 46
0.000E00:1 2.000E-01:2 2.000E-01:3 3.299E00:4 3.300E-01:5 3.300E00:6 3.052E00:7 2.000E-01:8 2.168E-02:9 1.200E00:a 2.174E-02:b 
-4.463E-07:c -4.340E-16:d -4.340E-16:e -2.901E-15:f -1.766E-15:10 -1.766E-15:11 0.000E00:12 -3.090E-12:13 -6.892E-09:14 
0.000E00:15 6.895E-09:16 -3.309E-12:17 -4.143E-07:18 0.000E00:19 4.143E-07:1a 1.501E-15:1b 4.143E-07:1c 0.000E00:1d -4.143E-07:1e 
-2.736E-14:1f -3.200E-08:20 0.000E00:21 3.200E-08:22 3.288E-12:23 2.511E-08:24 0.000E00:25 -2.511E-08:26 2.577E-13:27 6.898E-09:28 
0.000E00:29 -6.898E-09:2a -5.479E-14:2b -2.511E-08:2c 0.000E00:2d 2.511E-08:2e 
#C 2.6400658647E-10 46
0.000E00:1 2.000E-01:2 2.000E-01:3 3.299E00:4 3.300E-01:5 3.300E00:6 3.052E00:7 2.000E-01:8 2.168E-02:9 1.200E00:a 2.174E-02:b 
-4.463E-07:c -4.340E-16:d -4.340E-16:e -2.901E-15:f -1.766E-15:10 -1.766E-15:11 0.000E00:12 -3.090E-12:13 -6.892E-09:14 
0.000E00:15 6.895E-09:16 -3.309E-12:17 -4.143E-07:18 0.000E00:19 4.143E-07:1a 1.501E-15:1b 4.143E-07:1c 0.000E00:1d -4.143E-07:1e 
-2.736E-14:1f -3.200E-08:20 0.000E00:21 3.200E-08:22 3.288E-12:23 2.511E-08:24 0.000E00:25 -2.511E-08:26 2.577E-13:27 6.898E-09:28 
0.000E00:29 -6.898E-09:2a -5.479E-14:2b -2.511E-08:2c 0.000E00:2d 2.511E-08:2e 
#C 3.1400696719E-10 46
0.000E00:1 2.000E-01:2 2.000E-01:3 3.299E00:4 3.300E-01:5 3.300E00:6 3.052E00:7 2.000E-01:8 2.168E-02:9 1.200E00:a 2.174E-02:b 
-4.463E-07:c -4.340E-16:d -4.340E-16:e -2.901E-15:f -1.766E-15:10 -1.766E-15:11 0.000E00:12 -3.090E-12:13 -6.892E-09:14 
0.000E00:15 6.895E-09:16 -3.309E-12:17 -4.143E-07:18 0.000E00:19 4.143E-07:1a 1.501E-15:1b 4.143E-07:1c 0.000E00:1d -4.143E-07:1e 
-2.736E-14:1f -3.200E-08:20 0.000E00:21 3.200E-08:22 3.288E-12:23 2.511E-08:24 0.000E00:25 -2.511E-08:26 2.577E-13:27 6.898E-09:28 
0.000E00:29 -6.898E-09:2a -5.479E-14:2b -2.511E-08:2c 0.000E00:2d 2.511E-08:2e 
#C 3.6400734791E-10 46
0.000E00:1 2.000E-01:2 2.000E-01:3 3.299E00:4 3.300E-01:5 3.300E00:6 3.052E00:7 2.000E-01:8 2.168E-02:9 1.200E00:a 2.174E-02:b 
-4.463E-07:c -4.340E-16:d -4.340E-16:e -2.901E-15:f -1.766E-15:10 -1.766E-15:11 0.000E00:12 -3.090E-12:13 -6.892E-09:14 
0.000E00:15 6.895E-09:16 -3.309E-12:17 -4.143E-07:18 0.000E00:19 4.143E-07:1a 1.501E-15:1b 4.143E-07:1c 0.000E00:1d -4.143E-07:1e 
-2.736E-14:1f -3.200E-08:20 0.000E00:21 3.200E-08:22 3.288E-12:23 2.511E-08:24 0.000E00:25 -2.511E-08:26 2.577E-13:27 6.898E-09:28 
0.000E00:29 -6.898E-09:2a -5.479E-14:2b -2.511E-08:2c 0.000E00:2d 2.511E-08:2e 
#C 4.1400772864E-10 46
0.000E00:1 2.000E-01:2 2.000E-01:3 3.299E00:4 3.300E-01:5 3.300E00:6 3.052E00:7 2.000E-01:8 2.168E-02:9 1.200E00:a 2.174E-02:b 
-4.463E-07:c -4.340E-16:d -4.340E-16:e -2.901E-15:f -1.766E-15:10 -1.766E-15:11 0.000E00:12 -3.090E-12:13 -6.892E-09:14 
0.000E00:15 6.895E-09:16 -3.309E-12:17 -4.143E-07:18 0.000E00:19 4.143E-07:1a 1.501E-15:1b 4.143E-07:1c 0.000E00:1d -4.143E-07:1e 
-2.736E-14:1f -3.200E-08:20 0.000E00:21 3.200E-08:22 3.288E-12:23 2.511E-08:24 0.000E00:25 -2.511E-08:26 2.577E-13:27 6.898E-09:28 
0.000E00:29 -6.898E-09:2a -5.479E-14:2b -2.511E-08:2c 0.000E00:2d 2.511E-08:2e 
#C 4.6400810936E-10 46
0.000E00:1 2.000E-01:2 2.000E-01:3 3.299E00:4 3.300E-01:5 3.300E00:6 3.052E00:7 2.000E-01:8 2.168E-02:9 1.200E00:a 2.174E-02:b 
-4.463E-07:c -4.340E-16:d -4.340E-16:e -2.901E-15:f -1.766E-15:10 -1.766E-15:11 0.000E00:12 -3.090E-12:13 -6.892E-09:14 
0.000E00:15 6.895E-09:16 -3.309E-12:17 -4.143E-07:18 0.000E00:19 4.143E-07:1a 1.501E-15:1b 4.143E-07:1c 0.000E00:1d -4.143E-07:1e 
-2.736E-14:1f -3.200E-08:20 0.000E00:21 3.200E-08:22 3.288E-12:23 2.511E-08:24 0.000E00:25 -2.511E-08:26 2.577E-13:27 6.898E-09:28 
0.000E00:29 -6.898E-09:2a -5.479E-14:2b -2.511E-08:2c 0.000E00:2d 2.511E-08:2e 
#C 5.1400849009E-10 46
0.000E00:1 2.000E-01:2 2.000E-01:3 3.299E00:4 3.300E-01:5 3.300E00:6 3.052E00:7 2.000E-01:8 2.168E-02:9 1.200E00:a 2.174E-02:b 
-4.463E-07:c -4.340E-16:d -4.340E-16:e -2.901E-15:f -1.766E-15:10 -1.766E-15:11 0.000E00:12 -3.090E-12:13 -6.892E-09:14 
0.000E00:15 6.895E-09:16 -3.309E-12:17 -4.143E-07:18 0.000E00:19 4.143E-07:1a 1.501E-15:1b 4.143E-07:1c 0.000E00:1d -4.143E-07:1e 
-2.736E-14:1f -3.200E-08:20 0.000E00:21 3.200E-08:22 3.288E-12:23 2.511E-08:24 0.000E00:25 -2.511E-08:26 2.577E-13:27 6.898E-09:28 
0.000E00:29 -6.898E-09:2a -5.479E-14:2b -2.511E-08:2c 0.000E00:2d 2.511E-08:2e 
#C 5.6400887081E-10 46
0.000E00:1 2.000E-01:2 2.000E-01:3 3.299E00:4 3.300E-01:5 3.300E00:6 3.052E00:7 2.000E-01:8 2.168E-02:9 1.200E00:a 2.174E-02:b 
-4.463E-07:c -4.340E-16:d -4.340E-16:e -2.901E-15:f -1.766E-15:10 -1.766E-15:11 0.000E00:12 -3.090E-12:13 -6.892E-09:14 
0.000E00:15 6.895E-09:16 -3.309E-12:17 -4.143E-07:18 0.000E00:19 4.143E-07:1a 1.501E-15:1b 4.143E-07:1c 0.000E00:1d -4.143E-07:1e 
-2.736E-14:1f -3.200E-08:20 0.000E00:21 3.200E-08:22 3.288E-12:23 2.511E-08:24 0.000E00:25 -2.511E-08:26 2.577E-13:27 6.898E-09:28 
0.000E00:29 -6.898E-09:2a -5.479E-14:2b -2.511E-08:2c 0.000E00:2d 2.511E-08:2e 
#C 6.1400925154E-10 46
0.000E00:1 2.000E-01:2 2.000E-01:3 3.299E00:4 3.300E-01:5 3.300E00:6 3.052E00:7 2.000E-01:8 2.168E-02:9 1.200E00:a 2.174E-02:b 
-4.463E-07:c -4.340E-16:d -4.340E-16:e -2.901E-15:f -1.766E-15:10 -1.766E-15:11 0.000E00:12 -3.090E-12:13 -6.892E-09:14 
0.000E00:15 6.895E-09:16 -3.309E-12:17 -4.143E-07:18 0.000E00:19 4.143E-07:1a 1.501E-15:1b 4.143E-07:1c 0.000E00:1d -4.143E-07:1e 
-2.736E-14:1f -3.200E-08:20 0.000E00:21 3.200E-08:22 3.288E-12:23 2.511E-08:24 0.000E00:25 -2.511E-08:26 2.577E-13:27 6.898E-09:28 
0.000E00:29 -6.898E-09:2a -5.479E-14:2b -2.511E-08:2c 0.000E00:2d 2.511E-08:2e 
#C 6.6400963226E-10 46
0.000E00:1 2.000E-01:2 2.000E-01:3 3.299E00:4 3.300E-01:5 3.300E00:6 3.052E00:7 2.000E-01:8 2.168E-02:9 1.200E00:a 2.174E-02:b 
-4.463E-07:c -4.340E-16:d -4.340E-16:e -2.901E-15:f -1.766E-15:10 -1.766E-15:11 0.000E00:12 -3.090E-12:13 -6.892E-09:14 
0.000E00:15 6.895E-09:16 -3.309E-12:17 -4.143E-07:18 0.000E00:19 4.143E-07:1a 1.501E-15:1b 4.143E-07:1c 0.000E00:1d -4.143E-07:1e 
-2.736E-14:1f -3.200E-08:20 0.000E00:21 3.200E-08:22 3.288E-12:23 2.511E-08:24 0.000E00:25 -2.511E-08:26 2.577E-13:27 6.898E-09:28 
0.000E00:29 -6.898E-09:2a -5.479E-14:2b -2.511E-08:2c 0.000E00:2d 2.511E-08:2e 
#C 7.1401001299E-10 46
0.000E00:1 2.000E-01:2 2.000E-01:3 3.299E00:4 3.300E-01:5 3.300E00:6 3.052E00:7 2.000E-01:8 2.168E-02:9 1.200E00:a 2.174E-02:b 
-4.463E-07:c -4.340E-16:d -4.340E-16:e -2.901E-15:f -1.766E-15:10 -1.766E-15:11 0.000E00:12 -3.090E-12:13 -6.892E-09:14 
0.000E00:15 6.895E-09:16 -3.309E-12:17 -4.143E-07:18 0.000E00:19 4.143E-07:1a 1.501E-15:1b 4.143E-07:1c 0.000E00:1d -4.143E-07:1e 
-2.736E-14:1f -3.200E-08:20 0.000E00:21 3.200E-08:22 3.288E-12:23 2.511E-08:24 0.000E00:25 -2.511E-08:26 2.577E-13:27 6.898E-09:28 
0.000E00:29 -6.898E-09:2a -5.479E-14:2b -2.511E-08:2c 0.000E00:2d 2.511E-08:2e 
#C 7.6401039371E-10 46
0.000E00:1 2.000E-01:2 2.000E-01:3 3.299E00:4 3.300E-01:5 3.300E00:6 3.052E00:7 2.000E-01:8 2.168E-02:9 1.200E00:a 2.174E-02:b 
-4.463E-07:c -4.340E-16:d -4.340E-16:e -2.901E-15:f -1.766E-15:10 -1.766E-15:11 0.000E00:12 -3.090E-12:13 -6.892E-09:14 
0.000E00:15 6.895E-09:16 -3.309E-12:17 -4.143E-07:18 0.000E00:19 4.143E-07:1a 1.501E-15:1b 4.143E-07:1c 0.000E00:1d -4.143E-07:1e 
-2.736E-14:1f -3.200E-08:20 0.000E00:21 3.200E-08:22 3.288E-12:23 2.511E-08:24 0.000E00:25 -2.511E-08:26 2.577E-13:27 6.898E-09:28 
0.000E00:29 -6.898E-09:2a -5.479E-14:2b -2.511E-08:2c 0.000E00:2d 2.511E-08:2e 
#C 8.1401077444E-10 46
0.000E00:1 2.000E-01:2 2.000E-01:3 3.299E00:4 3.300E-01:5 3.300E00:6 3.052E00:7 2.000E-01:8 2.168E-02:9 1.200E00:a 2.174E-02:b 
-4.463E-07:c -4.340E-16:d -4.340E-16:e -2.901E-15:f -1.766E-15:10 -1.766E-15:11 0.000E00:12 -3.090E-12:13 -6.892E-09:14 
0.000E00:15 6.895E-09:16 -3.309E-12:17 -4.143E-07:18 0.000E00:19 4.143E-07:1a 1.501E-15:1b 4.143E-07:1c 0.000E00:1d -4.143E-07:1e 
-2.736E-14:1f -3.200E-08:20 0.000E00:21 3.200E-08:22 3.288E-12:23 2.511E-08:24 0.000E00:25 -2.511E-08:26 2.577E-13:27 6.898E-09:28 
0.000E00:29 -6.898E-09:2a -5.479E-14:2b -2.511E-08:2c 0.000E00:2d 2.511E-08:2e 
#C 8.6401115516E-10 46
0.000E00:1 2.000E-01:2 2.000E-01:3 3.299E00:4 3.300E-01:5 3.300E00:6 3.052E00:7 2.000E-01:8 2.168E-02:9 1.200E00:a 2.174E-02:b 
-4.463E-07:c -4.340E-16:d -4.340E-16:e -2.901E-15:f -1.766E-15:10 -1.766E-15:11 0.000E00:12 -3.090E-12:13 -6.892E-09:14 
0.000E00:15 6.895E-09:16 -3.309E-12:17 -4.143E-07:18 0.000E00:19 4.143E-07:1a 1.501E-15:1b 4.143E-07:1c 0.000E00:1d -4.143E-07:1e 
-2.736E-14:1f -3.200E-08:20 0.000E00:21 3.200E-08:22 3.288E-12:23 2.511E-08:24 0.000E00:25 -2.511E-08:26 2.577E-13:27 6.898E-09:28 
0.000E00:29 -6.898E-09:2a -5.479E-14:2b -2.511E-08:2c 0.000E00:2d 2.511E-08:2e 
#C 9.1401153589E-10 46
0.000E00:1 2.000E-01:2 2.000E-01:3 3.299E00:4 3.300E-01:5 3.300E00:6 3.052E00:7 2.000E-01:8 2.168E-02:9 1.200E00:a 2.174E-02:b 
-4.463E-07:c -4.340E-16:d -4.340E-16:e -2.901E-15:f -1.766E-15:10 -1.766E-15:11 0.000E00:12 -3.090E-12:13 -6.892E-09:14 
0.000E00:15 6.895E-09:16 -3.309E-12:17 -4.143E-07:18 0.000E00:19 4.143E-07:1a 1.501E-15:1b 4.143E-07:1c 0.000E00:1d -4.143E-07:1e 
-2.736E-14:1f -3.200E-08:20 0.000E00:21 3.200E-08:22 3.288E-12:23 2.511E-08:24 0.000E00:25 -2.511E-08:26 2.577E-13:27 6.898E-09:28 
0.000E00:29 -6.898E-09:2a -5.479E-14:2b -2.511E-08:2c 0.000E00:2d 2.511E-08:2e 
#C 9.6401191661E-10 46
0.000E00:1 2.000E-01:2 2.000E-01:3 3.299E00:4 3.300E-01:5 3.300E00:6 3.052E00:7 2.000E-01:8 2.168E-02:9 1.200E00:a 2.174E-02:b 
-4.463E-07:c -4.340E-16:d -4.340E-16:e -2.901E-15:f -1.766E-15:10 -1.766E-15:11 0.000E00:12 -3.090E-12:13 -6.892E-09:14 
0.000E00:15 6.895E-09:16 -3.309E-12:17 -4.143E-07:18 0.000E00:19 4.143E-07:1a 1.501E-15:1b 4.143E-07:1c 0.000E00:1d -4.143E-07:1e 
-2.736E-14:1f -3.200E-08:20 0.000E00:21 3.200E-08:22 3.288E-12:23 2.511E-08:24 0.000E00:25 -2.511E-08:26 2.577E-13:27 6.898E-09:28 
0.000E00:29 -6.898E-09:2a -5.479E-14:2b -2.511E-08:2c 0.000E00:2d 2.511E-08:2e 
#C 1.0140122973E-09 46
0.000E00:1 2.000E-01:2 2.000E-01:3 3.299E00:4 3.300E-01:5 3.300E00:6 3.052E00:7 2.000E-01:8 2.168E-02:9 1.200E00:a 2.174E-02:b 
-4.463E-07:c -4.340E-16:d -4.340E-16:e -2.901E-15:f -1.766E-15:10 -1.766E-15:11 0.000E00:12 -3.090E-12:13 -6.892E-09:14 
0.000E00:15 6.895E-09:16 -3.309E-12:17 -4.143E-07:18 0.000E00:19 4.143E-07:1a 1.501E-15:1b 4.143E-07:1c 0.000E00:1d -4.143E-07:1e 
-2.736E-14:1f -3.200E-08:20 0.000E00:21 3.200E-08:22 3.288E-12:23 2.511E-08:24 0.000E00:25 -2.511E-08:26 2.577E-13:27 6.898E-09:28 
0.000E00:29 -6.898E-09:2a -5.479E-14:2b -2.511E-08:2c 0.000E00:2d 2.511E-08:2e 
#C 1.0640126781E-09 46
0.000E00:1 2.000E-01:2 2.000E-01:3 3.299E00:4 3.300E-01:5 3.300E00:6 3.052E00:7 2.000E-01:8 2.168E-02:9 1.200E00:a 2.174E-02:b 
-4.463E-07:c -4.340E-16:d -4.340E-16:e -2.901E-15:f -1.766E-15:10 -1.766E-15:11 0.000E00:12 -3.090E-12:13 -6.892E-09:14 
