#H
SOURCE='PSPICE' VERSION='PSpice 16.0.0 (July 2006)'
TITLE='**** 05/18/10 12:08:24 ******* PSpice 16.0.0 (July 2006) ****** ID# 0 ********'
SUBTITLE=''
TIME='16:01:35' DATE='05/30/10' TEMPERATURE='2.700E01'
ANALYSIS='Transient Analysis' SERIALNO='61413'
ALLVALUES='NO' COMPLEXVALUES='NO' NODES='19'
SWEEPVAR='Time' SWEEPMODE='VAR_STEP'
XBEGIN='0.000E00' XEND='5.000E-08'
FORMAT='0 VOLTSorAMPS;EFLOAT : NODEorBRANCH;NODE  '
DGTLDATA='NO' 
#N 
'V(C_F_D_LSB)' 'V(C_F_D_2SB)' 'V(C_F_D_3SB)' 'V(C_F_D_4SB)' 'V(C_F_D_5SB)' 'V(C_F_D_MSB)' 'V(C_F_C2_NDNEG)' 'ID(M_C_F_C2_M4)' 
'IB(M_C_F_C2_M4)' 'IS(M_C_F_C2_M4)' 'IG(M_C_F_C2_M4)' 'ID(M_C_F_C2_M3)' 'IB(M_C_F_C2_M3)' 'IS(M_C_F_C2_M3)' 'IG(M_C_F_C2_M3)' 
'ID(M_C_F_C2_M1)' 'IB(M_C_F_C2_M1)' 'IS(M_C_F_C2_M1)' 'IG(M_C_F_C2_M1)' 
#C 0.0000000000E00 19
3.300E00:1 3.300E00:2 3.300E00:3 3.300E00:4 3.300E00:5 3.229E00:6 3.989E00:7 -2.948E-12:8 2.948E-12:9 2.819E-20:a 0.000E00:b 
3.764E-03:c -3.764E-03:d -1.001E-08:e 0.000E00:f 2.360E-04:10 -4.371E-12:11 -2.360E-04:12 0.000E00:13 
#C 1.0000000000E-11 19
3.300E00:1 3.300E00:2 3.300E00:3 3.300E00:4 3.300E00:5 3.229E00:6 3.989E00:7 -2.939E-12:8 3.623E-12:9 8.882E-15:a -6.924E-13:b 
3.764E-03:c -3.764E-03:d -1.001E-08:e -1.709E-13:f 2.360E-04:10 -4.399E-12:11 -2.360E-04:12 -1.692E-13:13 
#C 2.0000000000E-11 19
3.300E00:1 3.300E00:2 3.300E00:3 3.300E00:4 3.300E00:5 3.229E00:6 3.989E00:7 -2.939E-12:8 3.623E-12:9 8.882E-15:a -6.924E-13:b 
3.764E-03:c -3.764E-03:d -1.001E-08:e -1.709E-13:f 2.360E-04:10 -4.399E-12:11 -2.360E-04:12 -1.692E-13:13 
#C 4.0000152290E-11 19
3.300E00:1 3.300E00:2 3.300E00:3 3.300E00:4 3.300E00:5 3.229E00:6 3.989E00:7 -2.948E-12:8 2.948E-12:9 2.819E-20:a 0.000E00:b 
3.764E-03:c -3.764E-03:d -1.001E-08:e 0.000E00:f 2.360E-04:10 -4.371E-12:11 -2.360E-04:12 0.000E00:13 
#C 8.0000456870E-11 19
3.300E00:1 3.300E00:2 3.300E00:3 3.300E00:4 3.300E00:5 3.229E00:6 3.989E00:7 -2.948E-12:8 2.948E-12:9 2.819E-20:a 0.000E00:b 
3.764E-03:c -3.764E-03:d -1.001E-08:e 0.000E00:f 2.360E-04:10 -4.371E-12:11 -2.360E-04:12 0.000E00:13 
#C 1.6000106603E-10 19
3.300E00:1 3.300E00:2 3.300E00:3 3.300E00:4 3.300E00:5 3.229E00:6 3.989E00:7 -2.948E-12:8 2.948E-12:9 2.819E-20:a 0.000E00:b 
3.764E-03:c -3.764E-03:d -1.001E-08:e 0.000E00:f 2.360E-04:10 -4.371E-12:11 -2.360E-04:12 0.000E00:13 
#C 3.2000228435E-10 19
3.300E00:1 3.300E00:2 3.300E00:3 3.300E00:4 3.300E00:5 3.229E00:6 3.989E00:7 -2.948E-12:8 2.948E-12:9 2.819E-20:a 0.000E00:b 
3.764E-03:c -3.764E-03:d -1.001E-08:e 0.000E00:f 2.360E-04:10 -4.371E-12:11 -2.360E-04:12 0.000E00:13 
#C 6.4000472099E-10 19
3.300E00:1 3.300E00:2 3.300E00:3 3.300E00:4 3.300E00:5 3.229E00:6 3.989E00:7 -2.948E-12:8 2.948E-12:9 2.819E-20:a 0.000E00:b 
3.764E-03:c -3.764E-03:d -1.001E-08:e 0.000E00:f 2.360E-04:10 -4.371E-12:11 -2.360E-04:12 0.000E00:13 
#C 1.2800095943E-09 19
3.300E00:1 3.300E00:2 3.300E00:3 3.300E00:4 3.300E00:5 3.229E00:6 3.989E00:7 -2.948E-12:8 2.948E-12:9 2.819E-20:a 0.000E00:b 
3.764E-03:c -3.764E-03:d -1.001E-08:e 0.000E00:f 2.360E-04:10 -4.371E-12:11 -2.360E-04:12 0.000E00:13 
#C 2.0000000001E-09 19
3.300E00:1 3.300E00:2 3.300E00:3 3.300E00:4 3.300E00:5 3.229E00:6 3.989E00:7 -2.948E-12:8 2.948E-12:9 2.819E-20:a 0.000E00:b 
3.764E-03:c -3.764E-03:d -1.001E-08:e 0.000E00:f 2.360E-04:10 -4.371E-12:11 -2.360E-04:12 0.000E00:13 
#C 2.0200000001E-09 19
3.300E00:1 3.300E00:2 3.300E00:3 3.300E00:4 3.300E00:5 3.229E00:6 3.986E00:7 1.530E-05:8 1.155E-03:9 1.536E-05:a -1.186E-03:b 
3.337E-03:c -3.054E-03:d 1.545E-05:e -2.978E-04:f 2.178E-04:10 3.412E-06:11 -2.340E-04:12 1.288E-05:13 
#C 2.0600003047E-09 19
3.300E00:1 3.300E00:2 3.300E00:3 3.300E00:4 3.300E00:5 3.229E00:6 3.978E00:7 2.141E-05:8 1.603E-03:9 2.146E-05:a -1.646E-03:b 
2.395E-03:c -2.005E-03:d 2.126E-05:e -4.120E-04:f 2.177E-04:10 3.412E-06:11 -2.340E-04:12 1.288E-05:13 
#C 2.1400009138E-09 19
3.300E00:1 3.300E00:2 3.300E00:3 3.300E00:4 3.300E00:5 3.229E00:6 3.963E00:7 1.603E-05:8 1.156E-03:9 1.597E-05:a -1.188E-03:b 
1.344E-03:c -1.046E-03:d 1.581E-05:e -3.145E-04:f 2.007E-04:10 6.749E-06:11 -2.341E-04:12 2.672E-05:13 
#C 2.2000000001E-09 19
3.300E00:1 3.300E00:2 3.300E00:3 3.300E00:4 3.300E00:5 3.229E00:6 3.954E00:7 1.254E-05:8 9.034E-04:9 1.252E-05:a -9.285E-04:b 
9.630E-04:c -7.268E-04:d 1.245E-05:e -2.487E-04:f 2.242E-04:10 2.043E-06:11 -2.328E-04:12 6.584E-06:13 
#C 2.2160001219E-09 19
3.300E00:1 3.300E00:2 3.300E00:3 3.300E00:4 3.300E00:5 3.229E00:6 3.952E00:7 1.439E-05:8 1.040E-03:9 1.438E-05:a -1.069E-03:b 
9.017E-04:c -7.020E-04:d 1.055E-05:e -2.103E-04:f 2.197E-04:10 2.955E-06:11 -2.332E-04:12 1.055E-05:13 
#C 2.2480026939E-09 19
3.300E00:1 3.300E00:2 3.300E00:3 3.300E00:4 3.300E00:5 3.229E00:6 3.950E00:7 6.803E-06:8 4.883E-04:9 6.769E-06:a -5.019E-04:b 
8.103E-04:c -6.474E-04:d 8.583E-06:e -1.714E-04:f 2.197E-04:10 2.955E-06:11 -2.332E-04:12 1.055E-05:13 
#C 2.3120078378E-09 19
3.300E00:1 3.300E00:2 3.300E00:3 3.300E00:4 3.300E00:5 3.229E00:6 3.947E00:7 2.151E-06:8 1.547E-04:9 2.162E-06:a -1.590E-04:b 
7.339E-04:c -7.163E-04:d 8.976E-07:e -1.842E-05:f 2.511E-04:10 -3.213E-06:11 -2.328E-04:12 -1.504E-05:13 
#C 2.4400181257E-09 19
3.300E00:1 3.300E00:2 3.300E00:3 3.300E00:4 3.300E00:5 3.229E00:6 3.949E00:7 -5.470E-06:8 -3.949E-04:9 -5.489E-06:a 4.058E-04:b 
7.923E-04:c -8.915E-04:d -5.226E-06:e 1.044E-04:f 2.384E-04:10 -7.458E-07:11 -2.328E-04:12 -4.805E-06:13 
#C 2.6960387015E-09 19
3.300E00:1 3.300E00:2 3.300E00:3 3.300E00:4 3.300E00:5 3.229E00:6 3.966E00:7 -7.665E-06:8 -5.612E-04:9 -7.663E-06:a 5.765E-04:b 
1.530E-03:c -1.679E-03:d -7.999E-06:e 1.575E-04:f 2.561E-04:10 -3.887E-06:11 -2.368E-04:12 -1.537E-05:13 
#C 3.2080798530E-09 19
3.300E00:1 3.300E00:2 3.300E00:3 3.300E00:4 3.300E00:5 3.229E00:6 3.986E00:7 -1.110E-08:8 -7.440E-06:9 -2.027E-10:a 7.452E-06:b 
3.251E-03:c -3.241E-03:d 4.209E-07:e -1.021E-05:f 2.245E-04:10 2.292E-06:11 -2.367E-04:12 9.953E-06:13 
#C 3.8673631036E-09 19
3.300E00:1 3.300E00:2 3.300E00:3 3.300E00:4 3.300E00:5 3.229E00:6 3.989E00:7 1.159E-06:8 8.492E-05:9 1.158E-06:a -8.723E-05:b 
3.750E-03:c -3.726E-03:d 1.249E-06:e -2.472E-05:f 2.331E-04:10 5.737E-07:11 -2.361E-04:12 2.499E-06:13 
#C 4.8674172842E-09 19
3.300E00:1 3.300E00:2 3.300E00:3 3.300E00:4 3.300E00:5 3.229E00:6 3.990E00:7 3.744E-07:8 2.801E-05:9 3.724E-07:a -2.876E-05:b 
3.786E-03:c -3.781E-03:d 2.851E-07:e -5.688E-06:f 2.358E-04:10 7.988E-08:11 -2.365E-04:12 6.230E-07:13 
#C 5.8674714648E-09 19
3.300E00:1 3.300E00:2 3.300E00:3 3.300E00:4 3.300E00:5 3.229E00:6 3.990E00:7 3.744E-07:8 2.801E-05:9 3.724E-07:a -2.876E-05:b 
3.790E-03:c -3.796E-03:d -3.110E-07:e 5.800E-06:f 2.358E-04:10 7.988E-08:11 -2.365E-04:12 6.230E-07:13 
#C 6.8675256454E-09 19
3.300E00:1 3.300E00:2 3.300E00:3 3.300E00:4 3.300E00:5 3.229E00:6 3.990E00:7 3.744E-07:8 2.801E-05:9 3.724E-07:a -2.876E-05:b 
3.803E-03:c -3.798E-03:d 2.742E-07:e -5.479E-06:f 2.358E-04:10 7.988E-08:11 -2.365E-04:12 6.230E-07:13 
#C 7.8675798261E-09 19
3.300E00:1 3.300E00:2 3.300E00:3 3.300E00:4 3.300E00:5 3.229E00:6 3.989E00:7 -2.948E-12:8 2.948E-12:9 -3.789E-19:a 6.505E-19:b 
3.772E-03:c -3.771E-03:d 2.548E-08:e -6.826E-07:f 2.360E-04:10 -4.374E-12:11 -2.360E-04:12 -1.735E-18:13 
#C 8.8676340067E-09 19
3.300E00:1 3.300E00:2 3.300E00:3 3.300E00:4 3.300E00:5 3.229E00:6 3.989E00:7 -2.948E-12:8 2.948E-12:9 4.342E-19:a -6.505E-19:b 
3.773E-03:c -3.774E-03:d -4.672E-08:e 7.059E-07:f 2.360E-04:10 -4.374E-12:11 -2.360E-04:12 1.735E-18:13 
#C 9.8676881873E-09 19
3.300E00:1 3.300E00:2 3.300E00:3 3.300E00:4 3.300E00:5 3.229E00:6 3.989E00:7 -2.948E-12:8 2.948E-12:9 4.342E-19:a -6.505E-19:b 
3.773E-03:c -3.774E-03:d -4.672E-08:e 7.059E-07:f 2.360E-04:10 -4.374E-12:11 -2.360E-04:12 1.735E-18:13 
#C 1.0867742368E-08 19
3.300E00:1 3.300E00:2 3.300E00:3 3.300E00:4 3.300E00:5 3.229E00:6 3.989E00:7 -2.948E-12:8 2.948E-12:9 4.342E-19:a -6.505E-19:b 
3.773E-03:c -3.774E-03:d -4.672E-08:e 7.059E-07:f 2.360E-04:10 -4.374E-12:11 -2.360E-04:12 1.735E-18:13 
#C 1.1867796549E-08 19
3.300E00:1 3.300E00:2 3.300E00:3 3.300E00:4 3.300E00:5 3.229E00:6 3.989E00:7 -2.948E-12:8 2.948E-12:9 4.342E-19:a -6.505E-19:b 
3.773E-03:c -3.774E-03:d -4.672E-08:e 7.059E-07:f 2.360E-04:10 -4.374E-12:11 -2.360E-04:12 1.735E-18:13 
#C 1.2867850729E-08 19
3.300E00:1 3.300E00:2 3.300E00:3 3.300E00:4 3.300E00:5 3.229E00:6 3.989E00:7 -2.948E-12:8 2.948E-12:9 4.342E-19:a -6.505E-19:b 
3.773E-03:c -3.774E-03:d -4.672E-08:e 7.059E-07:f 2.360E-04:10 -4.374E-12:11 -2.360E-04:12 1.735E-18:13 
#C 1.3867904910E-08 19
3.300E00:1 3.300E00:2 3.300E00:3 3.300E00:4 3.300E00:5 3.229E00:6 3.989E00:7 -2.948E-12:8 2.948E-12:9 4.342E-19:a -6.505E-19:b 
3.773E-03:c -3.774E-03:d -4.672E-08:e 7.059E-07:f 2.360E-04:10 -4.374E-12:11 -2.360E-04:12 1.735E-18:13 
#C 1.4867959090E-08 19
3.300E00:1 3.300E00:2 3.300E00:3 3.300E00:4 3.300E00:5 3.229E00:6 3.989E00:7 -2.948E-12:8 2.948E-12:9 4.342E-19:a -6.505E-19:b 
3.773E-03:c -3.774E-03:d -4.672E-08:e 7.059E-07:f 2.360E-04:10 -4.374E-12:11 -2.360E-04:12 1.735E-18:13 
#C 1.5000000000E-08 19
3.300E00:1 3.300E00:2 3.300E00:3 3.300E00:4 3.300E00:5 3.229E00:6 3.990E00:7 -2.948E-12:8 2.948E-12:9 -3.789E-19:a 6.505E-19:b 
3.804E-03:c -3.810E-03:d -2.973E-07:e 5.524E-06:f 2.360E-04:10 -4.374E-12:11 -2.360E-04:12 -1.735E-18:13 
#C 1.5100000000E-08 19
3.300E00:1 3.300E00:2 3.300E00:3 3.300E00:4 3.300E00:5 3.229E00:6 3.990E00:7 -2.948E-12:8 2.948E-12:9 2.764E-20:a 0.000E00:b 
3.798E-03:c -3.798E-03:d 3.089E-08:e -7.867E-07:f 2.360E-04:10 -4.374E-12:11 -2.360E-04:12 0.000E00:13 
#C 1.5264471567E-08 19
3.300E00:1 3.300E00:2 3.300E00:3 3.300E00:4 3.300E00:5 3.229E00:6 3.990E00:7 -2.948E-12:8 2.948E-12:9 2.764E-20:a 0.000E00:b 
3.788E-03:c -3.788E-03:d 3.089E-08:e -7.867E-07:f 2.360E-04:10 -4.374E-12:11 -2.360E-04:12 0.000E00:13 
#C 1.5305589458E-08 19
3.300E00:1 3.300E00:2 3.300E00:3 3.300E00:4 3.300E00:5 3.229E00:6 3.990E00:7 -2.948E-12:8 2.948E-12:9 2.764E-20:a 0.000E00:b 
3.827E-03:c -3.851E-03:d -1.321E-06:e 2.522E-05:f 2.360E-04:10 -4.374E-12:11 -2.360E-04:12 0.000E00:13 
#C 1.5387825242E-08 19
3.300E00:1 3.300E00:2 3.300E00:3 3.300E00:4 3.300E00:5 3.229E00:6 3.990E00:7 -2.948E-12:8 2.948E-12:9 7.834E-18:a -6.939E-18:b 
3.820E-03:c -3.810E-03:d 5.147E-07:e -1.009E-05:f 2.360E-04:10 -4.374E-12:11 -2.360E-04:12 5.551E-17:13 
#C 1.5408384188E-08 19
3.300E00:1 3.300E00:2 3.300E00:3 3.300E00:4 3.300E00:5 3.229E00:6 3.990E00:7 -2.948E-12:8 2.948E-12:9 2.445E-19:a -2.342E-17:b 
3.835E-03:c -3.846E-03:d -6.098E-07:e 1.153E-05:f 2.360E-04:10 -4.374E-12:11 -2.360E-04:12 1.943E-16:13 
#C 1.5449502079E-08 19
3.300E00:1 3.300E00:2 3.300E00:3 3.300E00:4 3.300E00:5 3.229E00:6 3.990E00:7 -2.948E-12:8 2.948E-12:9 -1.212E-17:a -1.388E-17:b 
3.833E-03:c -3.826E-03:d 3.698E-07:e -7.304E-06:f 2.360E-04:10 -4.374E-12:11 -2.360E-04:12 0.000E00:13 
#C 1.5531737863E-08 19
3.300E00:1 3.300E00:2 3.300E00:3 3.300E00:4 3.300E00:5 3.229E00:6 3.990E00:7 -2.948E-12:8 2.948E-12:9 1.762E-18:a -1.388E-17:b 
3.816E-03:c -3.813E-03:d 1.926E-07:e -3.896E-06:f 2.360E-04:10 -4.374E-12:11 -2.360E-04:12 1.110E-16:13 
#C 1.5552296808E-08 19
3.300E00:1 3.300E00:2 3.300E00:3 3.300E00:4 3.300E00:5 3.229E00:6 3.990E00:7 -2.948E-12:8 2.948E-12:9 2.445E-19:a -2.342E-17:b 
3.834E-03:c -3.847E-03:d -7.361E-07:e 1.396E-05:f 2.360E-04:10 -4.374E-12:11 -2.360E-04:12 1.943E-16:13 
#C 1.5593414700E-08 19
3.300E00:1 3.300E00:2 3.300E00:3 3.300E00:4 3.300E00:5 3.229E00:6 3.990E00:7 -2.948E-12:8 2.948E-12:9 -1.212E-17:a -1.388E-17:b 
3.833E-03:c -3.825E-03:d 4.094E-07:e -8.065E-06:f 2.360E-04:10 -4.374E-12:11 -2.360E-04:12 0.000E00:13 
#C 1.5675650483E-08 19
3.300E00:1 3.300E00:2 3.300E00:3 3.300E00:4 3.300E00:5 3.229E00:6 3.990E00:7 -2.948E-12:8 2.948E-12:9 1.762E-18:a -1.388E-17:b 
3.816E-03:c -3.813E-03:d 2.035E-07:e -4.105E-06:f 2.360E-04:10 -4.374E-12:11 -2.360E-04:12 1.110E-16:13 
#C 1.5751506707E-08 19
3.300E00:1 3.300E00:2 3.300E00:3 3.300E00:4 3.300E00:5 3.229E00:6 3.990E00:7 -2.948E-12:8 2.948E-12:9 -6.478E-18:a 3.469E-18:b 
3.813E-03:c -3.814E-03:d -3.412E-08:e 4.633E-07:f 2.360E-04:10 -4.374E-12:11 -2.360E-04:12 -1.388E-17:13 
#C 1.5903219155E-08 19
3.300E00:1 3.300E00:2 3.300E00:3 3.300E00:4 3.300E00:5 3.229E00:6 3.990E00:7 -2.948E-12:8 2.948E-12:9 -3.442E-18:a -3.469E-18:b 
3.801E-03:c -3.799E-03:d 6.421E-08:e -1.427E-06:f 2.360E-04:10 -4.374E-12:11 -2.360E-04:12 2.776E-17:13 
#C 1.6000000000E-08 19
3.300E00:1 3.300E00:2 3.300E00:3 3.300E00:4 3.300E00:5 3.229E00:6 3.990E00:7 -2.948E-12:8 2.948E-12:9 -1.165E-18:a -2.602E-18:b 
3.805E-03:c -3.807E-03:d -7.646E-08:e 1.278E-06:f 2.360E-04:10 -4.374E-12:11 -2.360E-04:12 4.163E-17:13 
#C 1.6023148023E-08 19
3.300E00:1 3.300E00:2 3.300E00:3 3.300E00:4 3.300E00:5 3.229E00:6 3.990E00:7 -2.948E-12:8 2.948E-12:9 2.764E-20:a 0.000E00:b 
3.828E-03:c -3.840E-03:d -6.651E-07:e 1.260E-05:f 2.360E-04:10 -4.374E-12:11 -2.360E-04:12 0.000E00:13 
#C 1.6069446396E-08 19
3.300E00:1 3.300E00:2 3.300E00:3 3.300E00:4 3.300E00:5 3.229E00:6 3.990E00:7 -2.948E-12:8 2.948E-12:9 2.764E-20:a 0.000E00:b 
3.818E-03:c -3.815E-03:d 1.413E-07:e -2.910E-06:f 2.360E-04:10 -4.374E-12:11 -2.360E-04:12 0.000E00:13 
#C 1.6162043143E-08 19
3.300E00:1 3.300E00:2 3.300E00:3 3.300E00:4 3.300E00:5 3.229E00:6 3.990E00:7 -2.948E-12:8 2.948E-12:9 -8.397E-19:a 0.000E00:b 
3.811E-03:c -3.812E-03:d -3.586E-08:e 4.966E-07:f 2.360E-04:10 -4.374E-12:11 -2.360E-04:12 2.776E-17:13 
#C 1.6347236637E-08 19
3.300E00:1 3.300E00:2 3.300E00:3 3.300E00:4 3.300E00:5 3.229E00:6 3.990E00:7 -2.948E-12:8 2.948E-12:9 4.613E-19:a -6.939E-18:b 
3.799E-03:c -3.798E-03:d 3.502E-08:e -8.662E-07:f 2.360E-04:10 -4.374E-12:11 -2.360E-04:12 2.776E-17:13 
#C 1.6717623625E-08 19
3.300E00:1 3.300E00:2 3.300E00:3 3.300E00:4 3.300E00:5 3.229E00:6 3.990E00:7 -2.948E-12:8 2.948E-12:9 2.445E-19:a -3.469E-18:b 
3.783E-03:c -3.783E-03:d 8.245E-09:e -3.512E-07:f 2.360E-04:10 -4.374E-12:11 -2.360E-04:12 1.388E-17:13 
#C 1.7458397601E-08 19
3.300E00:1 3.300E00:2 3.300E00:3 3.300E00:4 3.300E00:5 3.229E00:6 3.989E00:7 -2.948E-12:8 2.948E-12:9 1.361E-19:a -1.735E-18:b 
3.774E-03:c -3.774E-03:d -1.599E-08:e 1.149E-07:f 2.360E-04:10 -4.374E-12:11 -2.360E-04:12 6.939E-18:13 
#C 1.8458451782E-08 19
3.300E00:1 3.300E00:2 3.300E00:3 3.300E00:4 3.300E00:5 3.229E00:6 3.989E00:7 -2.948E-12:8 2.948E-12:9 -4.060E-19:a 0.000E00:b 
3.772E-03:c -3.772E-03:d -1.154E-08:e 2.943E-08:f 2.360E-04:10 -4.374E-12:11 -2.360E-04:12 -1.735E-18:13 
#C 1.9000000000E-08 19
3.300E00:1 3.300E00:2 3.300E00:3 3.300E00:4 3.300E00:5 3.229E00:6 3.989E00:7 -2.948E-12:8 2.948E-12:9 -4.603E-19:a 4.337E-19:b 
3.775E-03:c -3.775E-03:d -1.713E-08:e 1.370E-07:f 2.360E-04:10 -4.374E-12:11 -2.360E-04:12 0.000E00:13 
#C 1.9100000000E-08 19
3.300E00:1 3.300E00:2 3.300E00:3 3.300E00:4 3.300E00:5 3.229E00:6 3.990E00:7 -2.948E-12:8 2.948E-12:9 2.764E-20:a 0.000E00:b 
3.796E-03:c -3.799E-03:d -1.508E-07:e 2.708E-06:f 2.360E-04:10 -4.374E-12:11 -2.360E-04:12 0.000E00:13 
#C 1.9300001523E-08 19
3.300E00:1 3.300E00:2 3.300E00:3 3.300E00:4 3.300E00:5 3.229E00:6 3.990E00:7 -2.948E-12:8 2.948E-12:9 2.764E-20:a 0.000E00:b 
3.785E-03:c -3.785E-03:d 2.645E-08:e -7.012E-07:f 2.360E-04:10 -4.374E-12:11 -2.360E-04:12 0.000E00:13 
#C 1.9700004569E-08 19
3.300E00:1 3.300E00:2 3.300E00:3 3.300E00:4 3.300E00:5 3.229E00:6 3.990E00:7 -2.948E-12:8 2.948E-12:9 2.764E-20:a 0.000E00:b 
3.784E-03:c -3.785E-03:d -4.213E-08:e 6.176E-07:f 2.360E-04:10 -4.374E-12:11 -2.360E-04:12 0.000E00:13 
#C 1.9737503998E-08 19
3.300E00:1 3.300E00:2 3.300E00:3 3.300E00:4 3.300E00:5 3.229E00:6 3.990E00:7 -2.948E-12:8 2.948E-12:9 4.188E-18:a -1.247E-17:b 
3.818E-03:c -3.830E-03:d -6.746E-07:e 1.278E-05:f 2.360E-04:10 -4.374E-12:11 -2.360E-04:12 4.727E-17:13 
#C 1.9763753598E-08 19
3.300E00:1 3.300E00:2 3.300E00:3 3.300E00:4 3.300E00:5 3.229E00:6 3.990E00:7 -2.948E-12:8 2.948E-12:9 2.764E-20:a 0.000E00:b 
3.828E-03:c -3.832E-03:d -2.545E-07:e 4.702E-06:f 2.360E-04:10 -4.374E-12:11 -2.360E-04:12 0.000E00:13 
#C 1.9816251087E-08 19
3.300E00:1 3.300E00:2 3.300E00:3 3.300E00:4 3.300E00:5 3.229E00:6 3.990E00:7 -2.948E-12:8 2.948E-12:9 2.764E-20:a 1.388E-17:b 
3.826E-03:c -3.823E-03:d 1.774E-07:e -3.604E-06:f 2.360E-04:10 -4.374E-12:11 -2.360E-04:12 -1.110E-16:13 
#C 1.9921246066E-08 19
3.300E00:1 3.300E00:2 3.300E00:3 3.300E00:4 3.300E00:5 3.229E00:6 3.990E00:7 -2.948E-12:8 2.948E-12:9 7.834E-18:a 0.000E00:b 
3.810E-03:c -3.807E-03:d 1.530E-07:e -3.134E-06:f 2.360E-04:10 -4.374E-12:11 -2.360E-04:12 0.000E00:13 
#C 2.0000000000E-08 19
3.300E00:1 3.300E00:2 3.300E00:3 3.300E00:4 3.300E00:5 3.229E00:6 3.990E00:7 -2.948E-12:8 2.948E-12:9 -4.960E-18:a 8.674E-18:b 
3.811E-03:c -3.812E-03:d -6.654E-08:e 1.087E-06:f 2.360E-04:10 -4.374E-12:11 -2.360E-04:12 -6.939E-17:13 
#C 2.0020998996E-08 19
3.300E00:1 3.300E00:2 3.300E00:3 3.300E00:4 3.300E00:5 3.229E00:6 3.990E00:7 -2.948E-12:8 2.948E-12:9 2.764E-20:a 0.000E00:b 
3.830E-03:c -3.842E-03:d -6.236E-07:e 1.180E-05:f 2.360E-04:10 -4.374E-12:11 -2.360E-04:12 0.000E00:13 
#C 2.0062995823E-08 19
3.300E00:1 3.300E00:2 3.300E00:3 3.300E00:4 3.300E00:5 3.229E00:6 3.990E00:7 -2.948E-12:8 2.948E-12:9 -5.177E-18:a 1.388E-17:b 
3.832E-03:c -3.826E-03:d 3.498E-07:e -6.918E-06:f 2.360E-04:10 -4.374E-12:11 -2.360E-04:12 -1.110E-16:13 
#C 2.0146989478E-08 19
3.300E00:1 3.300E00:2 3.300E00:3 3.300E00:4 3.300E00:5 3.229E00:6 3.990E00:7 -2.948E-12:8 2.948E-12:9 8.701E-18:a -2.082E-17:b 
3.816E-03:c -3.812E-03:d 2.243E-07:e -4.506E-06:f 2.360E-04:10 -4.374E-12:11 -2.360E-04:12 5.551E-17:13 
#C 2.0314976787E-08 19
3.300E00:1 3.300E00:2 3.300E00:3 3.300E00:4 3.300E00:5 3.229E00:6 3.990E00:7 -2.948E-12:8 2.948E-12:9 4.613E-19:a 0.000E00:b 
3.798E-03:c -3.797E-03:d 2.495E-08:e -6.727E-07:f 2.360E-04:10 -4.374E-12:11 -2.360E-04:12 2.776E-17:13 
#C 2.0650951406E-08 19
3.300E00:1 3.300E00:2 3.300E00:3 3.300E00:4 3.300E00:5 3.229E00:6 3.990E00:7 -2.948E-12:8 2.948E-12:9 2.445E-19:a 1.735E-18:b 
3.784E-03:c -3.784E-03:d -1.229E-08:e 4.372E-08:f 2.360E-04:10 -4.374E-12:11 -2.360E-04:12 -1.388E-17:13 
#C 2.1322900644E-08 19
3.300E00:1 3.300E00:2 3.300E00:3 3.300E00:4 3.300E00:5 3.229E00:6 3.989E00:7 -2.948E-12:8 2.948E-12:9 1.654E-18:a 0.000E00:b 
3.775E-03:c -3.775E-03:d -1.326E-08:e 6.240E-08:f 2.360E-04:10 -4.374E-12:11 -2.360E-04:12 0.000E00:13 
#C 2.2322954824E-08 19
3.300E00:1 3.300E00:2 3.300E00:3 3.300E00:4 3.300E00:5 3.229E00:6 3.989E00:7 -2.948E-12:8 2.948E-12:9 2.764E-20:a 0.000E00:b 
3.772E-03:c -3.772E-03:d -1.141E-08:e 2.688E-08:f 2.360E-04:10 -4.374E-12:11 -2.360E-04:12 -3.469E-18:13 
#C 2.3323009005E-08 19
3.300E00:1 3.300E00:2 3.300E00:3 3.300E00:4 3.300E00:5 3.229E00:6 3.989E00:7 -2.948E-12:8 2.948E-12:9 2.764E-20:a 0.000E00:b 
3.772E-03:c -3.772E-03:d -1.141E-08:e 2.688E-08:f 2.360E-04:10 -4.374E-12:11 -2.360E-04:12 -3.469E-18:13 
#C 2.4323063186E-08 19
3.300E00:1 3.300E00:2 3.300E00:3 3.300E00:4 3.300E00:5 3.229E00:6 3.989E00:7 -2.948E-12:8 2.948E-12:9 2.764E-20:a 0.000E00:b 
3.772E-03:c -3.772E-03:d -1.141E-08:e 2.688E-08:f 2.360E-04:10 -4.374E-12:11 -2.360E-04:12 -3.469E-18:13 
#C 2.5323117366E-08 19
3.300E00:1 3.300E00:2 3.300E00:3 3.300E00:4 3.300E00:5 3.229E00:6 3.989E00:7 -2.948E-12:8 2.948E-12:9 2.764E-20:a 0.000E00:b 
3.772E-03:c -3.772E-03:d -1.141E-08:e 2.688E-08:f 2.360E-04:10 -4.374E-12:11 -2.360E-04:12 -3.469E-18:13 
#C 2.6323171547E-08 19
3.300E00:1 3.300E00:2 3.300E00:3 3.300E00:4 3.300E00:5 3.229E00:6 3.989E00:7 -2.948E-12:8 2.948E-12:9 2.764E-20:a 0.000E00:b 
3.772E-03:c -3.772E-03:d -1.141E-08:e 2.688E-08:f 2.360E-04:10 -4.374E-12:11 -2.360E-04:12 -3.469E-18:13 
#C 2.7323225727E-08 19
3.300E00:1 3.300E00:2 3.300E00:3 3.300E00:4 3.300E00:5 3.229E00:6 3.989E00:7 -2.948E-12:8 2.948E-12:9 2.764E-20:a 0.000E00:b 
3.772E-03:c -3.772E-03:d -1.141E-08:e 2.688E-08:f 2.360E-04:10 -4.374E-12:11 -2.360E-04:12 -3.469E-18:13 
#C 2.8323279908E-08 19
