#H
SOURCE='PSPICE' VERSION='PSpice 16.0.0 (July 2006)'
TITLE='**** 05/18/10 12:08:24 ******* PSpice 16.0.0 (July 2006) ****** ID# 0 ********'
SUBTITLE=''
TIME='12:00:55' DATE='06/04/10' TEMPERATURE='2.700E01'
ANALYSIS='Transient Analysis' SERIALNO='61413'
ALLVALUES='NO' COMPLEXVALUES='NO' NODES='20'
SWEEPVAR='Time' SWEEPMODE='VAR_STEP'
XBEGIN='0.000E00' XEND='5.000E-07'
FORMAT='0 VOLTSorAMPS;EFLOAT : NODEorBRANCH;NODE  '
DGTLDATA='NO' 
#N 
'V(C_F_D_LSB)' 'V(C_F_D_2SB)' 'V(C_F_D_3SB)' 'V(C_F_D_4SB)' 'V(C_F_D_5SB)' 'V(C_F_C32_MSB)' 'V(C_F_C1_NDPOS)' 'I(I_INY1)' 
'ID(M_C_F_C1_M12)' 'IB(M_C_F_C1_M12)' 'IS(M_C_F_C1_M12)' 'IG(M_C_F_C1_M12)' 'ID(M_C_F_C1_M2)' 'IB(M_C_F_C1_M2)' 'IS(M_C_F_C1_M2)' 
'IG(M_C_F_C1_M2)' 'ID(M_C_F_C1_M4)' 'IB(M_C_F_C1_M4)' 'IS(M_C_F_C1_M4)' 'IG(M_C_F_C1_M4)' 
#C 0.0000000000E00 20
3.300E00:1 3.300E00:2 3.300E00:3 3.300E00:4 3.300E00:5 3.235E00:6 1.731E00:7 0.000E00:8 -7.447E-04:9 1.218E-13:a 7.447E-04:b 
0.000E00:c 1.265E-04:d -2.168E-12:e -1.265E-04:f 0.000E00:10 -1.265E-04:11 1.579E-12:12 1.265E-04:13 0.000E00:14 
#C 2.0000000000E-11 20
3.300E00:1 3.300E00:2 3.300E00:3 3.300E00:4 3.300E00:5 3.235E00:6 1.731E00:7 0.000E00:8 -7.447E-04:9 -1.547E-12:a 7.447E-04:b 
2.101E-12:c 1.265E-04:d -5.271E-12:e -1.265E-04:f -3.220E-15:10 -1.265E-04:11 5.803E-13:12 1.265E-04:13 8.237E-12:14 
#C 4.0000000000E-11 20
3.300E00:1 3.300E00:2 3.300E00:3 3.300E00:4 3.300E00:5 3.235E00:6 1.731E00:7 0.000E00:8 -7.447E-04:9 -1.547E-12:a 7.447E-04:b 
2.101E-12:c 1.265E-04:d -5.271E-12:e -1.265E-04:f -3.220E-15:10 -1.265E-04:11 5.803E-13:12 1.265E-04:13 8.237E-12:14 
#C 8.0000304580E-11 20
3.300E00:1 3.300E00:2 3.300E00:3 3.300E00:4 3.300E00:5 3.235E00:6 1.731E00:7 0.000E00:8 -7.447E-04:9 1.218E-13:a 7.447E-04:b 
0.000E00:c 1.265E-04:d -2.168E-12:e -1.265E-04:f 0.000E00:10 -1.265E-04:11 1.579E-12:12 1.265E-04:13 0.000E00:14 
#C 1.6000091374E-10 20
3.300E00:1 3.300E00:2 3.300E00:3 3.300E00:4 3.300E00:5 3.235E00:6 1.731E00:7 0.000E00:8 -7.447E-04:9 1.218E-13:a 7.447E-04:b 
0.000E00:c 1.265E-04:d -2.168E-12:e -1.265E-04:f 0.000E00:10 -1.265E-04:11 1.579E-12:12 1.265E-04:13 0.000E00:14 
#C 3.2000213206E-10 20
3.300E00:1 3.300E00:2 3.300E00:3 3.300E00:4 3.300E00:5 3.235E00:6 1.731E00:7 0.000E00:8 -7.447E-04:9 1.218E-13:a 7.447E-04:b 
0.000E00:c 1.265E-04:d -2.168E-12:e -1.265E-04:f 0.000E00:10 -1.265E-04:11 1.579E-12:12 1.265E-04:13 0.000E00:14 
#C 6.4000456870E-10 20
3.300E00:1 3.300E00:2 3.300E00:3 3.300E00:4 3.300E00:5 3.235E00:6 1.731E00:7 0.000E00:8 -7.447E-04:9 1.218E-13:a 7.447E-04:b 
0.000E00:c 1.265E-04:d -2.168E-12:e -1.265E-04:f 0.000E00:10 -1.265E-04:11 1.579E-12:12 1.265E-04:13 0.000E00:14 
#C 1.2800094420E-09 20
3.300E00:1 3.300E00:2 3.300E00:3 3.300E00:4 3.300E00:5 3.235E00:6 1.731E00:7 0.000E00:8 -7.447E-04:9 1.218E-13:a 7.447E-04:b 
0.000E00:c 1.265E-04:d -2.168E-12:e -1.265E-04:f 0.000E00:10 -1.265E-04:11 1.579E-12:12 1.265E-04:13 0.000E00:14 
#C 2.0000000010E-09 20
3.300E00:1 3.300E00:2 3.300E00:3 3.300E00:4 3.300E00:5 3.235E00:6 1.731E00:7 1.333E-10:8 -7.447E-04:9 1.218E-13:a 7.447E-04:b 
0.000E00:c 1.265E-04:d -2.168E-12:e -1.265E-04:f 0.000E00:10 -1.265E-04:11 1.579E-12:12 1.265E-04:13 0.000E00:14 
#C 2.0200000009E-09 20
3.300E00:1 3.300E00:2 3.300E00:3 3.300E00:4 3.300E00:5 3.235E00:6 1.733E00:7 1.946E-03:8 -7.523E-04:9 -1.815E-03:a 6.371E-04:b 
1.930E-03:c 1.332E-04:d -3.067E-06:e -1.301E-04:f -2.850E-09:10 -1.199E-04:11 -4.002E-07:12 1.253E-04:13 -4.952E-06:14 
#C 2.0600003055E-09 20
3.300E00:1 3.300E00:2 3.300E00:3 3.300E00:4 3.300E00:5 3.235E00:6 1.738E00:7 3.459E-03:8 -7.591E-04:9 -3.143E-03:a 4.700E-04:b 
3.433E-03:c 1.379E-04:d -4.672E-06:e -1.332E-04:f -1.152E-08:10 -1.147E-04:11 -6.111E-07:12 1.247E-04:13 -9.365E-06:14 
#C 2.1400009146E-09 20
3.300E00:1 3.300E00:2 3.300E00:3 3.300E00:4 3.300E00:5 3.235E00:6 1.750E00:7 3.962E-03:8 -7.624E-04:9 -3.403E-03:a 2.287E-04:b 
3.937E-03:c 1.380E-04:d -4.670E-06:e -1.333E-04:f -6.929E-09:10 -1.147E-04:11 -6.139E-07:12 1.247E-04:13 -9.373E-06:14 
#C 2.2000000010E-09 20
3.300E00:1 3.300E00:2 3.300E00:3 3.300E00:4 3.300E00:5 3.235E00:6 1.759E00:7 3.995E-03:8 -7.643E-04:9 -3.258E-03:a 5.790E-05:b 
3.964E-03:c 1.372E-04:d 3.012E-06:e -1.401E-04:f -2.674E-08:10 -1.064E-04:11 4.970E-07:12 1.288E-04:13 -2.295E-05:14 
#C 2.2160001228E-09 20
3.300E00:1 3.300E00:2 3.300E00:3 3.300E00:4 3.300E00:5 3.235E00:6 1.761E00:7 3.871E-03:8 -7.663E-04:9 -3.097E-03:a 1.884E-05:b 
3.845E-03:c 1.377E-04:d -8.284E-07:e -1.368E-04:f -1.505E-08:10 -1.105E-04:11 -5.971E-08:12 1.267E-04:13 -1.616E-05:14 
#C 2.2480026948E-09 20
3.300E00:1 3.300E00:2 3.300E00:3 3.300E00:4 3.300E00:5 3.235E00:6 1.765E00:7 3.633E-03:8 -7.618E-04:9 -2.805E-03:a -4.390E-05:b 
3.611E-03:c 1.351E-04:d -7.592E-07:e -1.344E-04:f -2.550E-08:10 -1.131E-04:11 3.036E-07:12 1.279E-04:13 -1.513E-05:14 
#C 2.3120078387E-09 20
3.300E00:1 3.300E00:2 3.300E00:3 3.300E00:4 3.300E00:5 3.235E00:6 1.772E00:7 3.197E-03:8 -7.554E-04:9 -2.265E-03:a -1.552E-04:b 
3.176E-03:c 1.352E-04:d -7.584E-07:e -1.344E-04:f -2.341E-08:10 -1.131E-04:11 3.021E-07:12 1.279E-04:13 -1.513E-05:14 
#C 2.4400181266E-09 20
3.300E00:1 3.300E00:2 3.300E00:3 3.300E00:4 3.300E00:5 3.235E00:6 1.784E00:7 2.475E-03:8 -7.495E-04:9 -1.390E-03:a -3.193E-04:b 
2.459E-03:c 1.328E-04:d -3.078E-06:e -1.297E-04:f -3.511E-08:10 -1.208E-04:11 -2.762E-07:12 1.257E-04:13 -4.588E-06:14 
#C 2.6960387024E-09 20
3.300E00:1 3.300E00:2 3.300E00:3 3.300E00:4 3.300E00:5 3.235E00:6 1.796E00:7 1.483E-03:8 -7.467E-04:9 -2.605E-04:a -4.708E-04:b 
1.478E-03:c 1.291E-04:d -2.917E-07:e -1.287E-04:f -4.414E-08:10 -1.238E-04:11 -1.043E-08:12 1.265E-04:13 -2.700E-06:14 
#C 3.2080798539E-09 20
3.300E00:1 3.300E00:2 3.300E00:3 3.300E00:4 3.300E00:5 3.235E00:6 1.800E00:7 5.327E-04:8 -7.415E-04:9 5.761E-04:a -3.671E-04:b 
5.325E-04:c 1.260E-04:d 6.300E-07:e -1.266E-04:f -3.702E-08:10 -1.273E-04:11 1.540E-07:12 1.270E-04:13 1.584E-07:14 
#C 4.2321621570E-09 20
3.300E00:1 3.300E00:2 3.300E00:3 3.300E00:4 3.300E00:5 3.235E00:6 1.785E00:7 6.870E-05:8 -7.422E-04:9 5.490E-04:a 1.227E-04:b 
7.054E-05:c 1.261E-04:d 7.687E-08:e -1.261E-04:f -2.144E-08:10 -1.279E-04:11 3.746E-08:12 1.266E-04:13 1.276E-06:14 
#C 6.2803267631E-09 20
3.300E00:1 3.300E00:2 3.300E00:3 3.300E00:4 3.300E00:5 3.235E00:6 1.769E00:7 1.143E-06:8 -7.441E-04:9 1.203E-04:a 6.223E-04:b 
1.415E-06:c 1.267E-04:d -9.884E-08:e -1.266E-04:f -2.007E-08:10 -1.270E-04:11 -2.029E-08:12 1.264E-04:13 5.576E-07:14 
#C 1.0376655975E-08 20
3.300E00:1 3.300E00:2 3.300E00:3 3.300E00:4 3.300E00:5 3.235E00:6 1.763E00:7 3.162E-10:8 -7.450E-04:9 -9.068E-05:a 8.364E-04:b 
-6.918E-07:c 1.271E-04:d -1.173E-07:e -1.269E-04:f -3.173E-08:10 -1.264E-04:11 -4.132E-08:12 1.264E-04:13 4.302E-08:14 
#C 1.5000000001E-08 20
3.300E00:1 3.300E00:2 3.300E00:3 3.300E00:4 3.300E00:5 3.235E00:6 1.765E00:7 3.049E-14:8 -7.449E-04:9 -5.033E-05:a 7.957E-04:b 
-5.553E-07:c 1.269E-04:d 8.753E-10:e -1.269E-04:f -3.276E-08:10 -1.264E-04:11 -1.252E-08:12 1.265E-04:13 -6.213E-08:14 
#C 1.5100000001E-08 20
3.300E00:1 3.300E00:2 3.300E00:3 3.300E00:4 3.300E00:5 3.235E00:6 1.766E00:7 2.496E-14:8 -7.448E-04:9 -4.769E-05:a 7.919E-04:b 
5.646E-07:c 1.269E-04:d -1.244E-08:e -1.268E-04:f -3.130E-08:10 -1.265E-04:11 -1.316E-08:12 1.264E-04:13 5.447E-08:14 
#C 1.5300001524E-08 20
3.300E00:1 3.300E00:2 3.300E00:3 3.300E00:4 3.300E00:5 3.235E00:6 1.766E00:7 1.673E-14:8 -7.407E-04:9 -4.770E-05:a 7.878E-04:b 
5.323E-07:c 1.269E-04:d -1.244E-08:e -1.268E-04:f -3.130E-08:10 -1.265E-04:11 -1.316E-08:12 1.264E-04:13 5.447E-08:14 
#C 1.5350001905E-08 20
3.300E00:1 3.300E00:2 3.300E00:3 3.300E00:4 3.300E00:5 3.235E00:6 1.766E00:7 1.514E-14:8 -7.396E-04:9 -4.771E-05:a 7.869E-04:b 
5.000E-07:c 1.269E-04:d -1.244E-08:e -1.268E-04:f -3.130E-08:10 -1.265E-04:11 -1.316E-08:12 1.264E-04:13 5.447E-08:14 
#C 1.5450002666E-08 20
3.300E00:1 3.300E00:2 3.300E00:3 3.300E00:4 3.300E00:5 3.235E00:6 1.766E00:7 1.240E-14:8 -7.376E-04:9 -4.772E-05:a 7.848E-04:b 
4.785E-07:c 1.269E-04:d -1.244E-08:e -1.268E-04:f -3.130E-08:10 -1.265E-04:11 -1.316E-08:12 1.264E-04:13 5.447E-08:14 
#C 1.5475002856E-08 20
3.300E00:1 3.300E00:2 3.300E00:3 3.300E00:4 3.300E00:5 3.235E00:6 1.766E00:7 1.179E-14:8 -7.371E-04:9 -4.772E-05:a 7.843E-04:b 
4.731E-07:c 1.269E-04:d -1.244E-08:e -1.268E-04:f -3.130E-08:10 -1.265E-04:11 -1.316E-08:12 1.264E-04:13 5.447E-08:14 
#C 1.5525003237E-08 20
3.300E00:1 3.300E00:2 3.300E00:3 3.300E00:4 3.300E00:5 3.235E00:6 1.766E00:7 1.067E-14:8 -7.361E-04:9 -4.772E-05:a 7.833E-04:b 
4.624E-07:c 1.269E-04:d -1.244E-08:e -1.268E-04:f -3.130E-08:10 -1.265E-04:11 -1.316E-08:12 1.264E-04:13 5.447E-08:14 
#C 1.5537503332E-08 20
3.300E00:1 3.300E00:2 3.300E00:3 3.300E00:4 3.300E00:5 3.235E00:6 1.766E00:7 1.041E-14:8 -7.358E-04:9 -4.772E-05:a 7.831E-04:b 
4.597E-07:c 1.269E-04:d -1.244E-08:e -1.268E-04:f -3.130E-08:10 -1.265E-04:11 -1.316E-08:12 1.264E-04:13 5.447E-08:14 
#C 1.5562503523E-08 20
3.300E00:1 3.300E00:2 3.300E00:3 3.300E00:4 3.300E00:5 3.235E00:6 1.766E00:7 9.897E-15:8 -7.353E-04:9 -4.773E-05:a 7.826E-04:b 
4.543E-07:c 1.269E-04:d -1.244E-08:e -1.268E-04:f -3.130E-08:10 -1.265E-04:11 -1.316E-08:12 1.264E-04:13 5.447E-08:14 
#C 1.5568753570E-08 20
3.300E00:1 3.300E00:2 3.300E00:3 3.300E00:4 3.300E00:5 3.235E00:6 1.766E00:7 9.775E-15:8 -7.352E-04:9 -4.773E-05:a 7.824E-04:b 
4.529E-07:c 1.269E-04:d -1.244E-08:e -1.268E-04:f -3.130E-08:10 -1.265E-04:11 -1.316E-08:12 1.264E-04:13 5.447E-08:14 
#C 1.5581253665E-08 20
3.300E00:1 3.300E00:2 3.300E00:3 3.300E00:4 3.300E00:5 3.235E00:6 1.766E00:7 9.533E-15:8 -7.349E-04:9 -4.773E-05:a 7.822E-04:b 
4.503E-07:c 1.269E-04:d -1.244E-08:e -1.268E-04:f -3.130E-08:10 -1.265E-04:11 -1.316E-08:12 1.264E-04:13 5.447E-08:14 
#C 1.5606253856E-08 20
3.300E00:1 3.300E00:2 3.300E00:3 3.300E00:4 3.300E00:5 3.235E00:6 1.766E00:7 9.068E-15:8 -7.344E-04:9 -4.773E-05:a 7.817E-04:b 
4.449E-07:c 1.269E-04:d -1.244E-08:e -1.268E-04:f -3.130E-08:10 -1.265E-04:11 -1.316E-08:12 1.264E-04:13 5.447E-08:14 
#C 1.5656254236E-08 20
3.300E00:1 3.300E00:2 3.300E00:3 3.300E00:4 3.300E00:5 3.235E00:6 1.766E00:7 8.205E-15:8 -7.334E-04:9 -4.773E-05:a 7.807E-04:b 
4.341E-07:c 1.269E-04:d -1.244E-08:e -1.268E-04:f -3.130E-08:10 -1.265E-04:11 -1.316E-08:12 1.264E-04:13 5.447E-08:14 
#C 1.5731190779E-08 20
3.300E00:1 3.300E00:2 3.300E00:3 3.300E00:4 3.300E00:5 3.235E00:6 1.766E00:7 7.063E-15:8 -7.319E-04:9 -4.774E-05:a 7.792E-04:b 
4.180E-07:c 1.269E-04:d -1.244E-08:e -1.268E-04:f -3.130E-08:10 -1.248E-04:11 5.209E-08:12 1.267E-04:13 -1.997E-06:14 
#C 1.5845429134E-08 20
3.300E00:1 3.300E00:2 3.300E00:3 3.300E00:4 3.300E00:5 3.235E00:6 1.767E00:7 5.621E-15:8 -7.468E-04:9 -1.632E-05:a 7.627E-04:b 
4.429E-07:c 1.259E-04:d 3.411E-06:e -1.293E-04:f -1.741E-08:10 -1.264E-04:11 1.335E-07:12 1.270E-04:13 -7.146E-07:14 
#C 1.6000000001E-08 20
3.300E00:1 3.300E00:2 3.300E00:3 3.300E00:4 3.300E00:5 3.235E00:6 1.767E00:7 4.126E-15:8 -7.388E-04:9 -2.816E-05:a 7.665E-04:b 
4.208E-07:c 1.268E-04:d -2.831E-07:e -1.265E-04:f -1.152E-08:10 -1.260E-04:11 9.365E-08:12 1.268E-04:13 -9.079E-07:14 
#C 1.6022847672E-08 20
3.300E00:1 3.300E00:2 3.300E00:3 3.300E00:4 3.300E00:5 3.235E00:6 1.767E00:7 3.942E-15:8 -7.385E-04:9 -2.816E-05:a 7.663E-04:b 
4.199E-07:c 1.266E-04:d 5.951E-07:e -1.272E-04:f -1.558E-08:10 -1.260E-04:11 9.365E-08:12 1.268E-04:13 -9.079E-07:14 
#C 1.6068540686E-08 20
3.300E00:1 3.300E00:2 3.300E00:3 3.300E00:4 3.300E00:5 3.235E00:6 1.767E00:7 3.598E-15:8 -7.380E-04:9 -2.816E-05:a 7.657E-04:b 
4.156E-07:c 1.266E-04:d 5.951E-07:e -1.272E-04:f -1.558E-08:10 -1.260E-04:11 9.365E-08:12 1.268E-04:13 -9.079E-07:14 
#C 1.6159926714E-08 20
3.300E00:1 3.300E00:2 3.300E00:3 3.300E00:4 3.300E00:5 3.235E00:6 1.767E00:7 2.997E-15:8 -7.369E-04:9 -2.816E-05:a 7.646E-04:b 
4.088E-07:c 1.266E-04:d 5.951E-07:e -1.272E-04:f -1.558E-08:10 -1.260E-04:11 9.365E-08:12 1.268E-04:13 -9.079E-07:14 
#C 1.6342698769E-08 20
3.300E00:1 3.300E00:2 3.300E00:3 3.300E00:4 3.300E00:5 3.235E00:6 1.767E00:7 2.079E-15:8 -7.446E-04:9 -1.006E-05:a 7.548E-04:b 
-1.453E-07:c 1.266E-04:d 5.951E-07:e -1.272E-04:f -1.558E-08:10 -1.260E-04:11 9.365E-08:12 1.269E-04:13 -9.079E-07:14 
#C 1.6708242879E-08 20
3.300E00:1 3.300E00:2 3.300E00:3 3.300E00:4 3.300E00:5 3.235E00:6 1.767E00:7 1.001E-15:8 -7.445E-04:9 -6.849E-06:a 7.517E-04:b 
-2.960E-07:c 1.267E-04:d 5.951E-07:e -1.272E-04:f -1.558E-08:10 -1.260E-04:11 9.365E-08:12 1.269E-04:13 -9.079E-07:14 
#C 1.7439331100E-08 20
3.300E00:1 3.300E00:2 3.300E00:3 3.300E00:4 3.300E00:5 3.235E00:6 1.767E00:7 2.316E-16:8 -7.444E-04:9 -3.210E-06:a 7.480E-04:b 
-3.298E-07:c 1.267E-04:d 5.951E-07:e -1.273E-04:f -1.558E-08:10 -1.271E-04:11 -1.177E-07:12 1.261E-04:13 1.171E-06:14 
#C 1.8901507543E-08 20
3.300E00:1 3.300E00:2 3.300E00:3 3.300E00:4 3.300E00:5 3.235E00:6 1.767E00:7 1.214E-17:8 -7.447E-04:9 5.149E-07:a 7.450E-04:b 
-8.159E-07:c 1.274E-04:d -1.246E-06:e -1.262E-04:f -3.767E-09:10 -1.266E-04:11 -4.887E-08:12 1.263E-04:13 3.490E-07:14 
#C 1.9000000001E-08 20
3.300E00:1 3.300E00:2 3.300E00:3 3.300E00:4 3.300E00:5 3.235E00:6 1.767E00:7 1.041E-17:8 -7.433E-04:9 -2.226E-06:a 7.461E-04:b 
-5.925E-07:c 1.271E-04:d -5.095E-07:e -1.266E-04:f -8.492E-09:10 -1.266E-04:11 -4.259E-08:12 1.263E-04:13 3.451E-07:14 
#C 1.9100000001E-08 20
3.300E00:1 3.300E00:2 3.300E00:3 3.300E00:4 3.300E00:5 3.235E00:6 1.767E00:7 8.674E-18:8 -7.432E-04:9 -2.226E-06:a 7.461E-04:b 
-5.925E-07:c 1.271E-04:d -5.095E-07:e -1.266E-04:f -8.492E-09:10 -1.266E-04:11 -4.259E-08:12 1.263E-04:13 3.451E-07:14 
#C 1.9276089817E-08 20
3.300E00:1 3.300E00:2 3.300E00:3 3.300E00:4 3.300E00:5 3.235E00:6 1.767E00:7 6.072E-18:8 -7.431E-04:9 -2.226E-06:a 7.459E-04:b 
-5.926E-07:c 1.271E-04:d -5.095E-07:e -1.266E-04:f -8.492E-09:10 -1.266E-04:11 -4.259E-08:12 1.263E-04:13 3.451E-07:14 
#C 1.9628269448E-08 20
3.300E00:1 3.300E00:2 3.300E00:3 3.300E00:4 3.300E00:5 3.235E00:6 1.767E00:7 3.469E-18:8 -7.427E-04:9 -2.226E-06:a 7.456E-04:b 
-5.928E-07:c 1.271E-04:d -5.095E-07:e -1.266E-04:f -8.492E-09:10 -1.266E-04:11 -4.259E-08:12 1.263E-04:13 3.451E-07:14 
#C 2.0000000001E-08 20
3.300E00:1 3.300E00:2 3.300E00:3 3.300E00:4 3.300E00:5 3.235E00:6 1.767E00:7 0.000E00:8 -7.424E-04:9 -2.227E-06:a 7.452E-04:b 
-5.930E-07:c 1.271E-04:d -5.095E-07:e -1.265E-04:f -8.491E-09:10 -1.266E-04:11 -4.259E-08:12 1.263E-04:13 3.451E-07:14 
#C 2.0070435927E-08 20
3.300E00:1 3.300E00:2 3.300E00:3 3.300E00:4 3.300E00:5 3.235E00:6 1.767E00:7 0.000E00:8 -7.423E-04:9 -2.227E-06:a 7.451E-04:b 
-5.930E-07:c 1.271E-04:d -5.095E-07:e -1.265E-04:f -8.491E-09:10 -1.266E-04:11 -4.259E-08:12 1.263E-04:13 3.451E-07:14 
#C 2.0211298467E-08 20
3.300E00:1 3.300E00:2 3.300E00:3 3.300E00:4 3.300E00:5 3.235E00:6 1.767E00:7 0.000E00:8 -7.422E-04:9 -2.227E-06:a 7.450E-04:b 
-5.931E-07:c 1.270E-04:d -5.095E-07:e -1.265E-04:f -8.491E-09:10 -1.266E-04:11 -4.259E-08:12 1.263E-04:13 3.451E-07:14 
#C 2.0493023546E-08 20
3.300E00:1 3.300E00:2 3.300E00:3 3.300E00:4 3.300E00:5 3.235E00:6 1.767E00:7 0.000E00:8 -7.419E-04:9 -2.227E-06:a 7.447E-04:b 
-5.932E-07:c 1.270E-04:d -5.095E-07:e -1.265E-04:f -8.491E-09:10 -1.266E-04:11 -4.259E-08:12 1.263E-04:13 3.451E-07:14 
#C 2.1056473703E-08 20
3.300E00:1 3.300E00:2 3.300E00:3 3.300E00:4 3.300E00:5 3.235E00:6 1.767E00:7 0.000E00:8 -7.414E-04:9 -2.227E-06:a 7.442E-04:b 
-5.935E-07:c 1.270E-04:d -5.095E-07:e -1.265E-04:f -8.491E-09:10 -1.266E-04:11 -4.259E-08:12 1.263E-04:13 3.451E-07:14 
#C 2.2183374018E-08 20
3.300E00:1 3.300E00:2 3.300E00:3 3.300E00:4 3.300E00:5 3.235E00:6 1.767E00:7 0.000E00:8 -7.447E-04:9 2.918E-06:a 7.419E-04:b 
-1.397E-07:c 1.262E-04:d 1.358E-06:e -1.276E-04:f -2.908E-08:10 -1.266E-04:11 -4.259E-08:12 1.263E-04:13 3.451E-07:14 
#C 2.4437174649E-08 20
3.300E00:1 3.300E00:2 3.300E00:3 3.300E00:4 3.300E00:5 3.235E00:6 1.767E00:7 0.000E00:8 -7.444E-04:9 8.601E-07:a 7.438E-04:b 
-3.214E-07:c 1.270E-04:d -2.484E-07:e -1.267E-04:f -1.517E-08:10 -1.266E-04:11 -4.259E-08:12 1.263E-04:13 3.451E-07:14 
#C 2.8944775910E-08 20
3.300E00:1 3.300E00:2 3.300E00:3 3.300E00:4 3.300E00:5 3.235E00:6 1.767E00:7 0.000E00:8 -7.447E-04:9 1.443E-07:a 7.452E-04:b 
-6.183E-07:c 1.268E-04:d 9.536E-08:e -1.269E-04:f -1.744E-08:10 -1.265E-04:11 -4.259E-08:12 1.262E-04:13 3.451E-07:14 
#C 3.5000000001E-08 20
3.300E00:1 3.300E00:2 3.300E00:3 3.300E00:4 3.300E00:5 3.235E00:6 1.767E00:7 0.000E00:8 -7.447E-04:9 -1.355E-07:a 7.455E-04:b 
-7.182E-07:c 1.269E-04:d 9.536E-08:e -1.269E-04:f -1.744E-08:10 -1.262E-04:11 5.857E-08:12 1.266E-04:13 -4.595E-07:14 
#C 3.5100000001E-08 20
3.300E00:1 3.300E00:2 3.300E00:3 3.300E00:4 3.300E00:5 3.235E00:6 1.767E00:7 0.000E00:8 -7.448E-04:9 7.079E-08:a 7.454E-04:b 
-6.385E-07:c 1.269E-04:d 9.536E-08:e -1.269E-04:f -1.744E-08:10 -1.263E-04:11 2.171E-08:12 1.265E-04:13 -1.663E-07:14 
#C 3.5300001524E-08 20
3.300E00:1 3.300E00:2 3.300E00:3 3.300E00:4 3.300E00:5 3.235E00:6 1.767E00:7 0.000E00:8 -7.448E-04:9 7.079E-08:a 7.454E-04:b 
-6.385E-07:c 1.269E-04:d 9.536E-08:e -1.269E-04:f -1.744E-08:10 -1.263E-04:11 2.171E-08:12 1.265E-04:13 -1.663E-07:14 
#C 3.5350001905E-08 20
3.300E00:1 3.300E00:2 3.300E00:3 3.300E00:4 3.300E00:5 3.235E00:6 1.767E00:7 0.000E00:8 -7.448E-04:9 7.079E-08:a 7.454E-04:b 
-6.385E-07:c 1.269E-04:d 9.536E-08:e -1.269E-04:f -1.744E-08:10 -1.263E-04:11 2.171E-08:12 1.265E-04:13 -1.663E-07:14 
#C 3.5450002666E-08 20
3.300E00:1 3.300E00:2 3.300E00:3 3.300E00:4 3.300E00:5 3.235E00:6 1.767E00:7 0.000E00:8 -7.448E-04:9 7.079E-08:a 7.454E-04:b 
-6.385E-07:c 1.269E-04:d 9.536E-08:e -1.270E-04:f -1.744E-08:10 -1.263E-04:11 2.171E-08:12 1.265E-04:13 -1.663E-07:14 
#C 3.5475002856E-08 20
3.300E00:1 3.300E00:2 3.300E00:3 3.300E00:4 3.300E00:5 3.235E00:6 1.767E00:7 0.000E00:8 -7.448E-04:9 7.079E-08:a 7.454E-04:b 
-6.385E-07:c 1.269E-04:d 9.536E-08:e -1.270E-04:f -1.744E-08:10 -1.263E-04:11 2.171E-08:12 1.265E-04:13 -1.663E-07:14 
#C 3.5525003237E-08 20
3.300E00:1 3.300E00:2 3.300E00:3 3.300E00:4 3.300E00:5 3.235E00:6 1.767E00:7 0.000E00:8 -7.449E-04:9 7.079E-08:a 7.454E-04:b 
-6.385E-07:c 1.269E-04:d 9.536E-08:e -1.270E-04:f -1.744E-08:10 -1.263E-04:11 2.171E-08:12 1.265E-04:13 -1.663E-07:14 
#C 3.5625003999E-08 20
3.300E00:1 3.300E00:2 3.300E00:3 3.300E00:4 3.300E00:5 3.235E00:6 1.767E00:7 0.000E00:8 -7.449E-04:9 7.079E-08:a 7.454E-04:b 
-6.385E-07:c 1.269E-04:d 9.536E-08:e -1.270E-04:f -1.744E-08:10 -1.263E-04:11 2.171E-08:12 1.265E-04:13 -1.663E-07:14 
#C 3.5650004189E-08 20
3.300E00:1 3.300E00:2 3.300E00:3 3.300E00:4 3.300E00:5 3.235E00:6 1.767E00:7 0.000E00:8 -7.449E-04:9 7.079E-08:a 7.454E-04:b 
-6.385E-07:c 1.269E-04:d 9.536E-08:e -1.270E-04:f -1.744E-08:10 -1.263E-04:11 2.171E-08:12 1.265E-04:13 -1.663E-07:14 
#C 3.5700004570E-08 20
3.300E00:1 3.300E00:2 3.300E00:3 3.300E00:4 3.300E00:5 3.235E00:6 1.767E00:7 0.000E00:8 -7.449E-04:9 7.079E-08:a 7.454E-04:b 
-6.385E-07:c 1.269E-04:d 9.536E-08:e -1.270E-04:f -1.744E-08:10 -1.263E-04:11 2.171E-08:12 1.265E-04:13 -1.663E-07:14 
#C 3.5800005331E-08 20
3.300E00:1 3.300E00:2 3.300E00:3 3.300E00:4 3.300E00:5 3.235E00:6 1.767E00:7 0.000E00:8 -7.449E-04:9 7.079E-08:a 7.454E-04:b 
-6.385E-07:c 1.269E-04:d 9.536E-08:e -1.270E-04:f -1.744E-08:10 -1.263E-04:11 2.171E-08:12 1.265E-04:13 -1.663E-07:14 
#C 3.6000000001E-08 20
3.300E00:1 3.300E00:2 3.300E00:3 3.300E00:4 3.300E00:5 3.235E00:6 1.767E00:7 0.000E00:8 -7.449E-04:9 7.079E-08:a 7.454E-04:b 
-6.385E-07:c 1.269E-04:d 9.536E-08:e -1.270E-04:f -1.744E-08:10 -1.263E-04:11 2.171E-08:12 1.265E-04:13 -1.663E-07:14 
#C 3.6020000153E-08 20
3.300E00:1 3.300E00:2 3.300E00:3 3.300E00:4 3.300E00:5 3.235E00:6 1.767E00:7 0.000E00:8 -7.449E-04:9 7.079E-08:a 7.454E-04:b 
-6.385E-07:c 1.269E-04:d 9.536E-08:e -1.270E-04:f -1.744E-08:10 -1.263E-04:11 2.171E-08:12 1.265E-04:13 -1.663E-07:14 
#C 3.6060000458E-08 20
3.300E00:1 3.300E00:2 3.300E00:3 3.300E00:4 3.300E00:5 3.235E00:6 1.767E00:7 0.000E00:8 -7.449E-04:9 7.079E-08:a 7.454E-04:b 
