#H
SOURCE='PSPICE' VERSION='PSpice 16.0.0 (July 2006)'
TITLE='**** 05/18/10 12:08:24 ******* PSpice 16.0.0 (July 2006) ****** ID# 0 ********'
SUBTITLE=''
TIME='16:02:31' DATE='05/30/10' TEMPERATURE='2.700E01'
ANALYSIS='Transient Analysis' SERIALNO='61413'
ALLVALUES='NO' COMPLEXVALUES='NO' NODES='19'
SWEEPVAR='Time' SWEEPMODE='VAR_STEP'
XBEGIN='0.000E00' XEND='5.000E-08'
FORMAT='0 VOLTSorAMPS;EFLOAT : NODEorBRANCH;NODE  '
DGTLDATA='NO' 
#N 
'V(C_F_D_LSB)' 'V(C_F_D_2SB)' 'V(C_F_D_3SB)' 'V(C_F_D_4SB)' 'V(C_F_D_5SB)' 'V(C_F_D_MSB)' 'V(C_F_C60_NDPOS)' 'ID(M_C_F_C60_M12)' 
'IB(M_C_F_C60_M12)' 'IS(M_C_F_C60_M12)' 'IG(M_C_F_C60_M12)' 'ID(M_C_F_C60_M4)' 'IB(M_C_F_C60_M4)' 'IS(M_C_F_C60_M4)' 'IG(M_C_F_C60_M4)' 
'ID(M_C_F_C60_M2)' 'IB(M_C_F_C60_M2)' 'IS(M_C_F_C60_M2)' 'IG(M_C_F_C60_M2)' 
#C 0.0000000000E00 19
3.300E00:1 3.300E00:2 3.300E00:3 3.300E00:4 3.300E00:5 3.229E00:6 3.988E00:7 -3.310E-12:8 3.310E-12:9 1.658E-19:a 0.000E00:b 
3.720E-03:c -3.570E-03:d -1.495E-04:e 0.000E00:f 2.805E-04:10 -4.864E-12:11 -2.805E-04:12 0.000E00:13 
#C 1.0000000000E-11 19
3.300E00:1 3.300E00:2 3.300E00:3 3.300E00:4 3.300E00:5 3.229E00:6 3.988E00:7 -3.310E-12:8 3.308E-12:9 -1.941E-16:a 1.776E-15:b 
3.720E-03:c -3.570E-03:d -1.495E-04:e 0.000E00:f 2.805E-04:10 -4.841E-12:11 -2.805E-04:12 6.661E-16:13 
#C 2.0000000000E-11 19
3.300E00:1 3.300E00:2 3.300E00:3 3.300E00:4 3.300E00:5 3.229E00:6 3.988E00:7 -3.310E-12:8 3.308E-12:9 -1.941E-16:a 1.776E-15:b 
3.720E-03:c -3.570E-03:d -1.495E-04:e 0.000E00:f 2.805E-04:10 -4.841E-12:11 -2.805E-04:12 6.661E-16:13 
#C 4.0000152290E-11 19
3.300E00:1 3.300E00:2 3.300E00:3 3.300E00:4 3.300E00:5 3.229E00:6 3.988E00:7 -3.310E-12:8 3.310E-12:9 1.658E-19:a 0.000E00:b 
3.720E-03:c -3.570E-03:d -1.495E-04:e 0.000E00:f 2.805E-04:10 -4.864E-12:11 -2.805E-04:12 0.000E00:13 
#C 8.0000456870E-11 19
3.300E00:1 3.300E00:2 3.300E00:3 3.300E00:4 3.300E00:5 3.229E00:6 3.988E00:7 -3.310E-12:8 3.310E-12:9 1.658E-19:a 0.000E00:b 
3.720E-03:c -3.570E-03:d -1.495E-04:e 0.000E00:f 2.805E-04:10 -4.864E-12:11 -2.805E-04:12 0.000E00:13 
#C 1.6000106603E-10 19
3.300E00:1 3.300E00:2 3.300E00:3 3.300E00:4 3.300E00:5 3.229E00:6 3.988E00:7 -3.310E-12:8 3.310E-12:9 1.658E-19:a 0.000E00:b 
3.720E-03:c -3.570E-03:d -1.495E-04:e 0.000E00:f 2.805E-04:10 -4.864E-12:11 -2.805E-04:12 0.000E00:13 
#C 3.2000228435E-10 19
3.300E00:1 3.300E00:2 3.300E00:3 3.300E00:4 3.300E00:5 3.229E00:6 3.988E00:7 -3.310E-12:8 3.310E-12:9 1.658E-19:a 0.000E00:b 
3.720E-03:c -3.570E-03:d -1.495E-04:e 0.000E00:f 2.805E-04:10 -4.864E-12:11 -2.805E-04:12 0.000E00:13 
#C 6.4000472099E-10 19
3.300E00:1 3.300E00:2 3.300E00:3 3.300E00:4 3.300E00:5 3.229E00:6 3.988E00:7 -3.310E-12:8 3.310E-12:9 1.658E-19:a 0.000E00:b 
3.720E-03:c -3.570E-03:d -1.495E-04:e 0.000E00:f 2.805E-04:10 -4.864E-12:11 -2.805E-04:12 0.000E00:13 
#C 1.2800095943E-09 19
3.300E00:1 3.300E00:2 3.300E00:3 3.300E00:4 3.300E00:5 3.229E00:6 3.988E00:7 -3.310E-12:8 3.310E-12:9 1.658E-19:a 0.000E00:b 
3.720E-03:c -3.570E-03:d -1.495E-04:e 0.000E00:f 2.805E-04:10 -4.864E-12:11 -2.805E-04:12 0.000E00:13 
#C 2.0000000001E-09 19
3.300E00:1 3.300E00:2 3.300E00:3 3.300E00:4 3.300E00:5 3.229E00:6 3.988E00:7 -3.310E-12:8 3.310E-12:9 1.658E-19:a 0.000E00:b 
3.720E-03:c -3.570E-03:d -1.495E-04:e 0.000E00:f 2.805E-04:10 -4.864E-12:11 -2.805E-04:12 0.000E00:13 
#C 2.0200000001E-09 19
3.300E00:1 3.300E00:2 3.300E00:3 3.300E00:4 3.300E00:5 3.229E00:6 3.987E00:7 2.123E-05:8 1.691E-03:9 2.249E-05:a -1.735E-03:b 
3.516E-03:c -3.408E-03:d -2.400E-04:e 1.326E-04:f 2.805E-04:10 -4.864E-12:11 -2.805E-04:12 0.000E00:13 
#C 2.0600003047E-09 19
3.300E00:1 3.300E00:2 3.300E00:3 3.300E00:4 3.300E00:5 3.229E00:6 3.985E00:7 3.408E-05:8 2.772E-03:9 3.694E-05:a -2.843E-03:b 
3.118E-03:c -3.039E-03:d -2.983E-04:e 2.190E-04:f 2.698E-04:10 1.026E-05:11 -2.800E-04:12 1.861E-08:13 
#C 2.1400009138E-09 19
3.300E00:1 3.300E00:2 3.300E00:3 3.300E00:4 3.300E00:5 3.229E00:6 3.979E00:7 3.408E-05:8 2.747E-03:9 3.694E-05:a -2.818E-03:b 
2.546E-03:c -2.465E-03:d -2.943E-04:e 2.131E-04:f 2.698E-04:10 1.026E-05:11 -2.800E-04:12 1.907E-08:13 
#C 2.2000000001E-09 19
3.300E00:1 3.300E00:2 3.300E00:3 3.300E00:4 3.300E00:5 3.229E00:6 3.976E00:7 3.408E-05:8 2.743E-03:9 3.694E-05:a -2.814E-03:b 
2.214E-03:c -2.125E-03:d -2.796E-04:e 1.904E-04:f 2.822E-04:10 -1.721E-06:11 -2.806E-04:12 6.723E-08:13 
#C 2.2160001219E-09 19
3.300E00:1 3.300E00:2 3.300E00:3 3.300E00:4 3.300E00:5 3.229E00:6 3.974E00:7 3.408E-05:8 2.737E-03:9 3.694E-05:a -2.808E-03:b 
2.110E-03:c -2.025E-03:d -2.927E-04:e 2.078E-04:f 2.760E-04:10 4.270E-06:11 -2.803E-04:12 4.318E-08:13 
#C 2.2480026939E-09 19
3.300E00:1 3.300E00:2 3.300E00:3 3.300E00:4 3.300E00:5 3.229E00:6 3.973E00:7 3.408E-05:8 2.732E-03:9 3.694E-05:a -2.803E-03:b 
2.007E-03:c -1.918E-03:d -2.654E-04:e 1.758E-04:f 2.760E-04:10 4.270E-06:11 -2.803E-04:12 4.319E-08:13 
#C 2.3120078378E-09 19
3.300E00:1 3.300E00:2 3.300E00:3 3.300E00:4 3.300E00:5 3.229E00:6 3.969E00:7 1.797E-05:8 1.182E-03:9 1.609E-05:a -1.216E-03:b 
1.752E-03:c -1.661E-03:d -2.700E-04:e 1.793E-04:f 2.760E-04:10 4.270E-06:11 -2.803E-04:12 4.325E-08:13 
#C 2.4400181257E-09 19
3.300E00:1 3.300E00:2 3.300E00:3 3.300E00:4 3.300E00:5 3.229E00:6 3.966E00:7 4.561E-06:8 4.049E-04:9 5.561E-06:a -4.150E-04:b 
1.681E-03:c -1.541E-03:d -1.529E-04:e 1.306E-05:f 2.760E-04:10 4.271E-06:11 -2.803E-04:12 4.333E-08:13 
#C 2.6960387015E-09 19
3.300E00:1 3.300E00:2 3.300E00:3 3.300E00:4 3.300E00:5 3.229E00:6 3.966E00:7 -6.733E-06:8 -5.533E-04:9 -7.524E-06:a 5.676E-04:b 
1.696E-03:c -1.539E-03:d -1.147E-04:e -4.266E-05:f 2.825E-04:10 -2.071E-06:11 -2.805E-04:12 1.186E-07:13 
#C 3.2080798530E-09 19
3.300E00:1 3.300E00:2 3.300E00:3 3.300E00:4 3.300E00:5 3.229E00:6 3.973E00:7 -1.267E-05:8 -1.015E-03:9 -1.378E-05:a 1.041E-03:b 
2.197E-03:c -2.026E-03:d -9.174E-05:e -7.856E-05:f 2.837E-04:10 -3.203E-06:11 -2.806E-04:12 7.807E-08:13 
#C 4.2081340336E-09 19
3.300E00:1 3.300E00:2 3.300E00:3 3.300E00:4 3.300E00:5 3.229E00:6 3.987E00:7 -1.292E-06:8 -9.810E-05:9 -1.153E-06:a 1.005E-04:b 
3.547E-03:c -3.394E-03:d -1.414E-04:e -1.168E-05:f 2.807E-04:10 -2.679E-07:11 -2.805E-04:12 8.657E-08:13 
#C 5.2081882143E-09 19
3.300E00:1 3.300E00:2 3.300E00:3 3.300E00:4 3.300E00:5 3.229E00:6 3.988E00:7 -1.560E-07:8 -9.721E-06:9 -2.812E-07:a 1.016E-05:b 
3.703E-03:c -3.555E-03:d -1.517E-04:e 3.604E-06:f 2.808E-04:10 -3.102E-07:11 -2.805E-04:12 -1.420E-08:13 
#C 6.2082423949E-09 19
3.300E00:1 3.300E00:2 3.300E00:3 3.300E00:4 3.300E00:5 3.229E00:6 3.988E00:7 1.500E-07:8 1.500E-05:9 1.997E-07:a -1.535E-05:b 
3.737E-03:c -3.587E-03:d -1.503E-04:e 1.293E-06:f 2.808E-04:10 -3.102E-07:11 -2.805E-04:12 -1.420E-08:13 
#C 7.2082965755E-09 19
3.300E00:1 3.300E00:2 3.300E00:3 3.300E00:4 3.300E00:5 3.229E00:6 3.988E00:7 1.500E-07:8 1.500E-05:9 1.997E-07:a -1.535E-05:b 
3.736E-03:c -3.586E-03:d -1.499E-04:e 5.642E-07:f 2.808E-04:10 -3.102E-07:11 -2.805E-04:12 -1.420E-08:13 
#C 8.2083507561E-09 19
3.300E00:1 3.300E00:2 3.300E00:3 3.300E00:4 3.300E00:5 3.229E00:6 3.988E00:7 -1.500E-07:8 -1.500E-05:9 -1.997E-07:a 1.535E-05:b 
3.717E-03:c -3.568E-03:d -1.499E-04:e 7.436E-07:f 2.802E-04:10 3.102E-07:11 -2.805E-04:12 1.420E-08:13 
#C 9.2084049367E-09 19
3.300E00:1 3.300E00:2 3.300E00:3 3.300E00:4 3.300E00:5 3.229E00:6 3.988E00:7 -3.310E-12:8 3.310E-12:9 2.334E-18:a -1.735E-18:b 
3.725E-03:c -3.576E-03:d -1.492E-04:e -3.145E-07:f 2.805E-04:10 -4.866E-12:11 -2.805E-04:12 5.204E-18:13 
#C 1.0208459117E-08 19
3.300E00:1 3.300E00:2 3.300E00:3 3.300E00:4 3.300E00:5 3.229E00:6 3.988E00:7 -3.310E-12:8 3.310E-12:9 2.334E-18:a -1.735E-18:b 
3.725E-03:c -3.576E-03:d -1.496E-04:e -1.830E-07:f 2.805E-04:10 -4.866E-12:11 -2.805E-04:12 5.204E-18:13 
#C 1.1208513298E-08 19
3.300E00:1 3.300E00:2 3.300E00:3 3.300E00:4 3.300E00:5 3.229E00:6 3.988E00:7 -3.310E-12:8 3.310E-12:9 2.334E-18:a -1.735E-18:b 
3.725E-03:c -3.576E-03:d -1.496E-04:e -1.830E-07:f 2.805E-04:10 -4.866E-12:11 -2.805E-04:12 5.204E-18:13 
#C 1.2208567479E-08 19
3.300E00:1 3.300E00:2 3.300E00:3 3.300E00:4 3.300E00:5 3.229E00:6 3.988E00:7 -3.310E-12:8 3.310E-12:9 2.334E-18:a -1.735E-18:b 
3.725E-03:c -3.576E-03:d -1.496E-04:e -1.830E-07:f 2.805E-04:10 -4.866E-12:11 -2.805E-04:12 5.204E-18:13 
#C 1.3208621659E-08 19
3.300E00:1 3.300E00:2 3.300E00:3 3.300E00:4 3.300E00:5 3.229E00:6 3.988E00:7 -3.310E-12:8 3.310E-12:9 2.334E-18:a -1.735E-18:b 
3.725E-03:c -3.576E-03:d -1.496E-04:e -1.830E-07:f 2.805E-04:10 -4.866E-12:11 -2.805E-04:12 5.204E-18:13 
#C 1.4208675840E-08 19
3.300E00:1 3.300E00:2 3.300E00:3 3.300E00:4 3.300E00:5 3.229E00:6 3.988E00:7 -3.310E-12:8 3.310E-12:9 2.334E-18:a -1.735E-18:b 
3.725E-03:c -3.576E-03:d -1.496E-04:e -1.830E-07:f 2.805E-04:10 -4.866E-12:11 -2.805E-04:12 5.204E-18:13 
#C 1.5000000000E-08 19
3.300E00:1 3.300E00:2 3.300E00:3 3.300E00:4 3.300E00:5 3.229E00:6 3.988E00:7 -3.310E-12:8 3.310E-12:9 -2.003E-18:a 1.735E-18:b 
3.725E-03:c -3.576E-03:d -1.495E-04:e 1.830E-07:f 2.805E-04:10 -4.866E-12:11 -2.805E-04:12 -5.204E-18:13 
#C 1.5100000000E-08 19
3.300E00:1 3.300E00:2 3.300E00:3 3.300E00:4 3.300E00:5 3.229E00:6 3.988E00:7 -3.310E-12:8 3.310E-12:9 1.651E-19:a 0.000E00:b 
3.734E-03:c -3.585E-03:d -1.490E-04:e -9.836E-08:f 2.805E-04:10 -4.866E-12:11 -2.805E-04:12 0.000E00:13 
#C 1.5300001523E-08 19
3.300E00:1 3.300E00:2 3.300E00:3 3.300E00:4 3.300E00:5 3.229E00:6 3.988E00:7 -3.310E-12:8 3.310E-12:9 1.651E-19:a 0.000E00:b 
3.730E-03:c -3.581E-03:d -1.497E-04:e 2.547E-07:f 2.805E-04:10 -4.866E-12:11 -2.805E-04:12 0.000E00:13 
#C 1.5350001904E-08 19
3.300E00:1 3.300E00:2 3.300E00:3 3.300E00:4 3.300E00:5 3.229E00:6 3.988E00:7 -3.310E-12:8 3.310E-12:9 3.226E-17:a 3.296E-17:b 
3.737E-03:c -3.587E-03:d -1.481E-04:e -1.792E-06:f 2.805E-04:10 -4.866E-12:11 -2.805E-04:12 -4.510E-17:13 
#C 1.5450002665E-08 19
3.300E00:1 3.300E00:2 3.300E00:3 3.300E00:4 3.300E00:5 3.229E00:6 3.988E00:7 -3.310E-12:8 3.310E-12:9 3.635E-18:a 0.000E00:b 
3.735E-03:c -3.584E-03:d -1.498E-04:e -4.319E-07:f 2.805E-04:10 -4.866E-12:11 -2.805E-04:12 0.000E00:13 
#C 1.5475002856E-08 19
3.300E00:1 3.300E00:2 3.300E00:3 3.300E00:4 3.300E00:5 3.229E00:6 3.988E00:7 -3.310E-12:8 3.310E-12:9 -7.703E-17:a 1.041E-17:b 
3.735E-03:c -3.585E-03:d -1.492E-04:e -8.395E-07:f 2.805E-04:10 -4.866E-12:11 -2.805E-04:12 -1.388E-17:13 
#C 1.5525003236E-08 19
3.300E00:1 3.300E00:2 3.300E00:3 3.300E00:4 3.300E00:5 3.229E00:6 3.988E00:7 -3.310E-12:8 3.310E-12:9 -4.841E-17:a -5.551E-17:b 
3.735E-03:c -3.585E-03:d -1.492E-04:e -8.395E-07:f 2.805E-04:10 -4.866E-12:11 -2.805E-04:12 1.110E-16:13 
#C 1.5537503331E-08 19
3.300E00:1 3.300E00:2 3.300E00:3 3.300E00:4 3.300E00:5 3.229E00:6 3.988E00:7 -3.310E-12:8 3.310E-12:9 -1.198E-17:a 2.776E-17:b 
3.735E-03:c -3.585E-03:d -1.492E-04:e -8.395E-07:f 2.805E-04:10 -4.866E-12:11 -2.805E-04:12 1.249E-16:13 
#C 1.5562503522E-08 19
3.300E00:1 3.300E00:2 3.300E00:3 3.300E00:4 3.300E00:5 3.229E00:6 3.988E00:7 -3.310E-12:8 3.310E-12:9 2.792E-17:a 1.110E-16:b 
3.735E-03:c -3.584E-03:d -1.492E-04:e -8.395E-07:f 2.805E-04:10 -4.866E-12:11 -2.805E-04:12 -2.220E-16:13 
#C 1.5568753569E-08 19
3.300E00:1 3.300E00:2 3.300E00:3 3.300E00:4 3.300E00:5 3.229E00:6 3.988E00:7 -3.310E-12:8 3.310E-12:9 -1.282E-16:a 2.776E-17:b 
3.734E-03:c -3.584E-03:d -1.492E-04:e -8.395E-07:f 2.805E-04:10 -4.866E-12:11 -2.805E-04:12 5.551E-17:13 
#C 1.5581253665E-08 19
3.300E00:1 3.300E00:2 3.300E00:3 3.300E00:4 3.300E00:5 3.229E00:6 3.988E00:7 -3.310E-12:8 3.310E-12:9 -1.941E-16:a 2.220E-16:b 
3.734E-03:c -3.584E-03:d -1.492E-04:e -8.395E-07:f 2.805E-04:10 -4.866E-12:11 -2.805E-04:12 -4.441E-16:13 
#C 1.5606253855E-08 19
3.300E00:1 3.300E00:2 3.300E00:3 3.300E00:4 3.300E00:5 3.229E00:6 3.988E00:7 -3.310E-12:8 3.309E-12:9 2.222E-16:a 1.110E-16:b 
3.734E-03:c -3.584E-03:d -1.492E-04:e -8.395E-07:f 2.805E-04:10 -4.866E-12:11 -2.805E-04:12 0.000E00:13 
#C 1.5656254236E-08 19
3.300E00:1 3.300E00:2 3.300E00:3 3.300E00:4 3.300E00:5 3.229E00:6 3.988E00:7 -3.310E-12:8 3.310E-12:9 2.098E-17:a 0.000E00:b 
3.734E-03:c -3.584E-03:d -1.492E-04:e -8.395E-07:f 2.805E-04:10 -4.866E-12:11 -2.805E-04:12 0.000E00:13 
#C 1.5731190778E-08 19
3.300E00:1 3.300E00:2 3.300E00:3 3.300E00:4 3.300E00:5 3.229E00:6 3.988E00:7 -3.310E-12:8 3.310E-12:9 5.568E-17:a -8.327E-17:b 
3.734E-03:c -3.584E-03:d -1.492E-04:e -8.395E-07:f 2.805E-04:10 -4.866E-12:11 -2.805E-04:12 2.776E-17:13 
#C 1.5845429134E-08 19
3.300E00:1 3.300E00:2 3.300E00:3 3.300E00:4 3.300E00:5 3.229E00:6 3.988E00:7 -3.310E-12:8 3.310E-12:9 2.445E-17:a 2.776E-17:b 
3.733E-03:c -3.583E-03:d -1.492E-04:e -8.395E-07:f 2.805E-04:10 -4.866E-12:11 -2.805E-04:12 -5.551E-17:13 
#C 1.6000000000E-08 19
3.300E00:1 3.300E00:2 3.300E00:3 3.300E00:4 3.300E00:5 3.229E00:6 3.988E00:7 -3.310E-12:8 3.310E-12:9 -6.774E-18:a 1.388E-17:b 
3.732E-03:c -3.582E-03:d -1.492E-04:e -8.395E-07:f 2.805E-04:10 -4.866E-12:11 -2.805E-04:12 0.000E00:13 
#C 1.6022847671E-08 19
3.300E00:1 3.300E00:2 3.300E00:3 3.300E00:4 3.300E00:5 3.229E00:6 3.988E00:7 -3.310E-12:8 3.310E-12:9 1.651E-19:a 0.000E00:b 
3.737E-03:c -3.590E-03:d -1.495E-04:e 2.802E-06:f 2.805E-04:10 -4.866E-12:11 -2.805E-04:12 0.000E00:13 
#C 1.6068540685E-08 19
3.300E00:1 3.300E00:2 3.300E00:3 3.300E00:4 3.300E00:5 3.229E00:6 3.988E00:7 -3.310E-12:8 3.310E-12:9 -5.535E-17:a 1.110E-16:b 
3.735E-03:c -3.585E-03:d -1.509E-04:e 1.271E-06:f 2.805E-04:10 -4.866E-12:11 -2.805E-04:12 0.000E00:13 
#C 1.6159926713E-08 19
3.300E00:1 3.300E00:2 3.300E00:3 3.300E00:4 3.300E00:5 3.229E00:6 3.988E00:7 -3.310E-12:8 3.310E-12:9 3.486E-17:a -5.551E-17:b 
3.735E-03:c -3.587E-03:d -1.504E-04:e 1.883E-06:f 2.805E-04:10 -4.866E-12:11 -2.805E-04:12 5.551E-17:13 
#C 1.6342698768E-08 19
3.300E00:1 3.300E00:2 3.300E00:3 3.300E00:4 3.300E00:5 3.229E00:6 3.988E00:7 -3.310E-12:8 3.310E-12:9 1.751E-17:a -1.388E-17:b 
3.735E-03:c -3.587E-03:d -1.503E-04:e 1.883E-06:f 2.805E-04:10 -4.866E-12:11 -2.805E-04:12 0.000E00:13 
#C 1.6708242878E-08 19
3.300E00:1 3.300E00:2 3.300E00:3 3.300E00:4 3.300E00:5 3.229E00:6 3.988E00:7 -3.310E-12:8 3.310E-12:9 8.839E-18:a -6.939E-18:b 
3.730E-03:c -3.580E-03:d -1.496E-04:e -1.946E-07:f 2.805E-04:10 -4.866E-12:11 -2.805E-04:12 0.000E00:13 
#C 1.7439331099E-08 19
3.300E00:1 3.300E00:2 3.300E00:3 3.300E00:4 3.300E00:5 3.229E00:6 3.988E00:7 -3.310E-12:8 3.310E-12:9 -1.570E-18:a -3.469E-18:b 
3.727E-03:c -3.578E-03:d -1.495E-04:e -1.248E-08:f 2.805E-04:10 -4.866E-12:11 -2.805E-04:12 6.939E-18:13 
#C 1.8439385280E-08 19
3.300E00:1 3.300E00:2 3.300E00:3 3.300E00:4 3.300E00:5 3.229E00:6 3.988E00:7 -3.310E-12:8 3.310E-12:9 -5.039E-18:a 0.000E00:b 
3.723E-03:c -3.573E-03:d -1.496E-04:e 2.471E-07:f 2.805E-04:10 -4.866E-12:11 -2.805E-04:12 0.000E00:13 
#C 1.9000000000E-08 19
3.300E00:1 3.300E00:2 3.300E00:3 3.300E00:4 3.300E00:5 3.229E00:6 3.988E00:7 -3.310E-12:8 3.310E-12:9 2.550E-18:a 1.214E-17:b 
3.727E-03:c -3.578E-03:d -1.493E-04:e -2.057E-07:f 2.805E-04:10 -4.866E-12:11 -2.805E-04:12 -1.301E-17:13 
#C 1.9100000000E-08 19
3.300E00:1 3.300E00:2 3.300E00:3 3.300E00:4 3.300E00:5 3.229E00:6 3.988E00:7 -3.310E-12:8 3.310E-12:9 1.651E-19:a 0.000E00:b 
3.734E-03:c -3.584E-03:d -1.483E-04:e -1.981E-06:f 2.805E-04:10 -4.866E-12:11 -2.805E-04:12 0.000E00:13 
#C 1.9300001523E-08 19
3.300E00:1 3.300E00:2 3.300E00:3 3.300E00:4 3.300E00:5 3.229E00:6 3.988E00:7 -3.310E-12:8 3.310E-12:9 1.651E-19:a 0.000E00:b 
3.730E-03:c -3.581E-03:d -1.499E-04:e 7.798E-07:f 2.805E-04:10 -4.866E-12:11 -2.805E-04:12 0.000E00:13 
#C 1.9700004569E-08 19
3.300E00:1 3.300E00:2 3.300E00:3 3.300E00:4 3.300E00:5 3.229E00:6 3.988E00:7 -3.310E-12:8 3.310E-12:9 7.971E-18:a -1.388E-17:b 
3.726E-03:c -3.577E-03:d -1.499E-04:e 7.798E-07:f 2.805E-04:10 -4.866E-12:11 -2.805E-04:12 1.388E-17:13 
#C 2.0000000000E-08 19
3.300E00:1 3.300E00:2 3.300E00:3 3.300E00:4 3.300E00:5 3.229E00:6 3.988E00:7 -3.310E-12:8 3.310E-12:9 -1.136E-18:a -5.204E-18:b 
3.730E-03:c -3.581E-03:d -1.493E-04:e -6.660E-08:f 2.805E-04:10 -4.866E-12:11 -2.805E-04:12 -3.469E-18:13 
#C 2.0065006316E-08 19
3.300E00:1 3.300E00:2 3.300E00:3 3.300E00:4 3.300E00:5 3.229E00:6 3.988E00:7 -3.310E-12:8 3.310E-12:9 1.651E-19:a 0.000E00:b 
3.731E-03:c -3.582E-03:d -1.495E-04:e 1.873E-07:f 2.805E-04:10 -4.866E-12:11 -2.805E-04:12 0.000E00:13 
#C 2.0195018947E-08 19
3.300E00:1 3.300E00:2 3.300E00:3 3.300E00:4 3.300E00:5 3.229E00:6 3.988E00:7 -3.310E-12:8 3.310E-12:9 2.792E-17:a -2.776E-17:b 
3.733E-03:c -3.584E-03:d -1.495E-04:e 1.873E-07:f 2.805E-04:10 -4.866E-12:11 -2.805E-04:12 2.776E-17:13 
#C 2.0455044210E-08 19
3.300E00:1 3.300E00:2 3.300E00:3 3.300E00:4 3.300E00:5 3.229E00:6 3.988E00:7 -3.310E-12:8 3.310E-12:9 1.231E-17:a -1.388E-17:b 
3.732E-03:c -3.582E-03:d -1.494E-04:e -5.260E-07:f 2.805E-04:10 -4.866E-12:11 -2.805E-04:12 -1.388E-17:13 
#C 2.0975094736E-08 19
3.300E00:1 3.300E00:2 3.300E00:3 3.300E00:4 3.300E00:5 3.229E00:6 3.988E00:7 -3.310E-12:8 3.310E-12:9 1.032E-18:a 0.000E00:b 
3.729E-03:c -3.579E-03:d -1.494E-04:e -2.407E-07:f 2.805E-04:10 -4.866E-12:11 -2.805E-04:12 -6.939E-18:13 
#C 2.1975148916E-08 19
3.300E00:1 3.300E00:2 3.300E00:3 3.300E00:4 3.300E00:5 3.229E00:6 3.988E00:7 -3.310E-12:8 3.310E-12:9 3.635E-18:a -3.469E-18:b 
3.724E-03:c -3.575E-03:d -1.494E-04:e -2.407E-07:f 2.805E-04:10 -4.866E-12:11 -2.805E-04:12 -3.469E-18:13 
#C 2.2975203097E-08 19
3.300E00:1 3.300E00:2 3.300E00:3 3.300E00:4 3.300E00:5 3.229E00:6 3.988E00:7 -3.310E-12:8 3.310E-12:9 3.635E-18:a -3.469E-18:b 
3.726E-03:c -3.576E-03:d -1.496E-04:e 2.370E-07:f 2.805E-04:10 -4.866E-12:11 -2.805E-04:12 -3.469E-18:13 
#C 2.3975257278E-08 19
3.300E00:1 3.300E00:2 3.300E00:3 3.300E00:4 3.300E00:5 3.229E00:6 3.988E00:7 -3.310E-12:8 3.310E-12:9 3.635E-18:a -3.469E-18:b 
3.726E-03:c -3.576E-03:d -1.496E-04:e 2.370E-07:f 2.805E-04:10 -4.866E-12:11 -2.805E-04:12 -3.469E-18:13 
#C 2.4975311458E-08 19
3.300E00:1 3.300E00:2 3.300E00:3 3.300E00:4 3.300E00:5 3.229E00:6 3.988E00:7 -3.310E-12:8 3.310E-12:9 3.635E-18:a -3.469E-18:b 
3.726E-03:c -3.576E-03:d -1.496E-04:e 2.370E-07:f 2.805E-04:10 -4.866E-12:11 -2.805E-04:12 -3.469E-18:13 
#C 2.5975365639E-08 19
3.300E00:1 3.300E00:2 3.300E00:3 3.300E00:4 3.300E00:5 3.229E00:6 3.988E00:7 -3.310E-12:8 3.310E-12:9 3.635E-18:a -3.469E-18:b 
3.726E-03:c -3.576E-03:d -1.496E-04:e 2.370E-07:f 2.805E-04:10 -4.866E-12:11 -2.805E-04:12 -3.469E-18:13 
#C 2.6975419819E-08 19
3.300E00:1 3.300E00:2 3.300E00:3 3.300E00:4 3.300E00:5 3.229E00:6 3.988E00:7 -3.310E-12:8 3.310E-12:9 3.635E-18:a -3.469E-18:b 
3.726E-03:c -3.576E-03:d -1.496E-04:e 2.370E-07:f 2.805E-04:10 -4.866E-12:11 -2.805E-04:12 -3.469E-18:13 
#C 2.7975474000E-08 19
3.300E00:1 3.300E00:2 3.300E00:3 3.300E00:4 3.300E00:5 3.229E00:6 3.988E00:7 -3.310E-12:8 3.310E-12:9 3.635E-18:a -3.469E-18:b 
3.726E-03:c -3.576E-03:d -1.496E-04:e 2.370E-07:f 2.805E-04:10 -4.866E-12:11 -2.805E-04:12 -3.469E-18:13 
#C 2.8975528181E-08 19
3.300E00:1 3.300E00:2 3.300E00:3 3.300E00:4 3.300E00:5 3.229E00:6 3.988E00:7 -3.310E-12:8 3.310E-12:9 3.635E-18:a -3.469E-18:b 
3.726E-03:c -3.576E-03:d -1.496E-04:e 2.370E-07:f 2.805E-04:10 -4.866E-12:11 -2.805E-04:12 -3.469E-18:13 
#C 2.9975582361E-08 19
3.300E00:1 3.300E00:2 3.300E00:3 3.300E00:4 3.300E00:5 3.229E00:6 3.988E00:7 -3.310E-12:8 3.310E-12:9 3.635E-18:a -3.469E-18:b 
3.726E-03:c -3.576E-03:d -1.496E-04:e 2.370E-07:f 2.805E-04:10 -4.866E-12:11 -2.805E-04:12 -3.469E-18:13 
#C 3.0975636542E-08 19
3.300E00:1 3.300E00:2 3.300E00:3 3.300E00:4 3.300E00:5 3.229E00:6 3.988E00:7 -3.310E-12:8 3.310E-12:9 3.635E-18:a -3.469E-18:b 
3.726E-03:c -3.576E-03:d -1.496E-04:e 2.370E-07:f 2.805E-04:10 -4.866E-12:11 -2.805E-04:12 -3.469E-18:13 
#C 3.1975690723E-08 19
3.300E00:1 3.300E00:2 3.300E00:3 3.300E00:4 3.300E00:5 3.229E00:6 3.988E00:7 -3.310E-12:8 3.310E-12:9 3.635E-18:a -3.469E-18:b 
3.726E-03:c -3.576E-03:d -1.496E-04:e 2.370E-07:f 2.805E-04:10 -4.866E-12:11 -2.805E-04:12 -3.469E-18:13 
#C 3.2975744903E-08 19
