#H
SOURCE='PSPICE' VERSION='PSpice 16.0.0 (July 2006)'
TITLE='**** 05/18/10 12:08:24 ******* PSpice 16.0.0 (July 2006) ****** ID# 0 ********'
SUBTITLE=''
TIME='16:02:08' DATE='05/30/10' TEMPERATURE='2.700E01'
ANALYSIS='Transient Analysis' SERIALNO='61413'
ALLVALUES='NO' COMPLEXVALUES='NO' NODES='19'
SWEEPVAR='Time' SWEEPMODE='VAR_STEP'
XBEGIN='0.000E00' XEND='5.000E-08'
FORMAT='0 VOLTSorAMPS;EFLOAT : NODEorBRANCH;NODE  '
DGTLDATA='NO' 
#N 
'V(C_F_D_LSB)' 'V(C_F_D_2SB)' 'V(C_F_D_3SB)' 'V(C_F_D_4SB)' 'V(C_F_D_5SB)' 'V(C_F_D_MSB)' 'V(C_F_C4_NDNEG)' 'ID(M_C_F_C4_M1)' 
'IB(M_C_F_C4_M1)' 'IS(M_C_F_C4_M1)' 'IG(M_C_F_C4_M1)' 'ID(M_C_F_C4_M3)' 'IB(M_C_F_C4_M3)' 'IS(M_C_F_C4_M3)' 'IG(M_C_F_C4_M3)' 
'ID(M_C_F_C4_M4)' 'IB(M_C_F_C4_M4)' 'IS(M_C_F_C4_M4)' 'IG(M_C_F_C4_M4)' 
#C 0.0000000000E00 19
3.300E00:1 3.300E00:2 3.300E00:3 3.300E00:4 3.300E00:5 3.229E00:6 3.989E00:7 2.360E-04:8 -4.371E-12:9 -2.360E-04:a 0.000E00:b 
3.764E-03:c -3.764E-03:d -1.001E-08:e 0.000E00:f -2.948E-12:10 2.948E-12:11 2.819E-20:12 0.000E00:13 
#C 1.0000000000E-11 19
3.300E00:1 3.300E00:2 3.300E00:3 3.300E00:4 3.300E00:5 3.229E00:6 3.989E00:7 2.360E-04:8 -4.399E-12:9 -2.360E-04:a -1.696E-13:b 
3.764E-03:c -3.764E-03:d -1.001E-08:e -1.709E-13:f -2.939E-12:10 3.623E-12:11 8.903E-15:12 -6.924E-13:13 
#C 2.0000000000E-11 19
3.300E00:1 3.300E00:2 3.300E00:3 3.300E00:4 3.300E00:5 3.229E00:6 3.989E00:7 2.360E-04:8 -4.399E-12:9 -2.360E-04:a -1.696E-13:b 
3.764E-03:c -3.764E-03:d -1.001E-08:e -1.709E-13:f -2.939E-12:10 3.623E-12:11 8.903E-15:12 -6.924E-13:13 
#C 4.0000152290E-11 19
3.300E00:1 3.300E00:2 3.300E00:3 3.300E00:4 3.300E00:5 3.229E00:6 3.989E00:7 2.360E-04:8 -4.371E-12:9 -2.360E-04:a 0.000E00:b 
3.764E-03:c -3.764E-03:d -1.001E-08:e 0.000E00:f -2.948E-12:10 2.948E-12:11 2.819E-20:12 0.000E00:13 
#C 8.0000456870E-11 19
3.300E00:1 3.300E00:2 3.300E00:3 3.300E00:4 3.300E00:5 3.229E00:6 3.989E00:7 2.360E-04:8 -4.371E-12:9 -2.360E-04:a 0.000E00:b 
3.764E-03:c -3.764E-03:d -1.001E-08:e 0.000E00:f -2.948E-12:10 2.948E-12:11 2.819E-20:12 0.000E00:13 
#C 1.6000106603E-10 19
3.300E00:1 3.300E00:2 3.300E00:3 3.300E00:4 3.300E00:5 3.229E00:6 3.989E00:7 2.360E-04:8 -4.371E-12:9 -2.360E-04:a 0.000E00:b 
3.764E-03:c -3.764E-03:d -1.001E-08:e 0.000E00:f -2.948E-12:10 2.948E-12:11 2.819E-20:12 0.000E00:13 
#C 3.2000228435E-10 19
3.300E00:1 3.300E00:2 3.300E00:3 3.300E00:4 3.300E00:5 3.229E00:6 3.989E00:7 2.360E-04:8 -4.371E-12:9 -2.360E-04:a 0.000E00:b 
3.764E-03:c -3.764E-03:d -1.001E-08:e 0.000E00:f -2.948E-12:10 2.948E-12:11 2.819E-20:12 0.000E00:13 
#C 6.4000472099E-10 19
3.300E00:1 3.300E00:2 3.300E00:3 3.300E00:4 3.300E00:5 3.229E00:6 3.989E00:7 2.360E-04:8 -4.371E-12:9 -2.360E-04:a 0.000E00:b 
3.764E-03:c -3.764E-03:d -1.001E-08:e 0.000E00:f -2.948E-12:10 2.948E-12:11 2.819E-20:12 0.000E00:13 
#C 1.2800095943E-09 19
3.300E00:1 3.300E00:2 3.300E00:3 3.300E00:4 3.300E00:5 3.229E00:6 3.989E00:7 2.360E-04:8 -4.371E-12:9 -2.360E-04:a 0.000E00:b 
3.764E-03:c -3.764E-03:d -1.001E-08:e 0.000E00:f -2.948E-12:10 2.948E-12:11 2.819E-20:12 0.000E00:13 
#C 2.0000000001E-09 19
3.300E00:1 3.300E00:2 3.300E00:3 3.300E00:4 3.300E00:5 3.229E00:6 3.989E00:7 2.360E-04:8 -4.371E-12:9 -2.360E-04:a 0.000E00:b 
3.764E-03:c -3.764E-03:d -1.001E-08:e 0.000E00:f -2.948E-12:10 2.948E-12:11 2.819E-20:12 0.000E00:13 
#C 2.0200000001E-09 19
3.300E00:1 3.300E00:2 3.300E00:3 3.300E00:4 3.300E00:5 3.229E00:6 3.986E00:7 2.178E-04:8 3.412E-06:9 -2.340E-04:a 1.288E-05:b 
3.337E-03:c -3.054E-03:d 1.545E-05:e -2.978E-04:f 1.530E-05:10 1.155E-03:11 1.536E-05:12 -1.186E-03:13 
#C 2.0600003047E-09 19
3.300E00:1 3.300E00:2 3.300E00:3 3.300E00:4 3.300E00:5 3.229E00:6 3.978E00:7 2.177E-04:8 3.412E-06:9 -2.340E-04:a 1.288E-05:b 
2.395E-03:c -2.005E-03:d 2.126E-05:e -4.120E-04:f 2.141E-05:10 1.603E-03:11 2.146E-05:12 -1.646E-03:13 
#C 2.1400009138E-09 19
3.300E00:1 3.300E00:2 3.300E00:3 3.300E00:4 3.300E00:5 3.229E00:6 3.963E00:7 2.007E-04:8 6.751E-06:9 -2.341E-04:a 2.672E-05:b 
1.344E-03:c -1.046E-03:d 1.581E-05:e -3.145E-04:f 1.603E-05:10 1.156E-03:11 1.597E-05:12 -1.188E-03:13 
#C 2.2000000001E-09 19
3.300E00:1 3.300E00:2 3.300E00:3 3.300E00:4 3.300E00:5 3.229E00:6 3.954E00:7 2.242E-04:8 2.041E-06:9 -2.328E-04:a 6.568E-06:b 
9.630E-04:c -7.268E-04:d 1.245E-05:e -2.487E-04:f 1.254E-05:10 9.034E-04:11 1.252E-05:12 -9.285E-04:13 
#C 2.2160001219E-09 19
3.300E00:1 3.300E00:2 3.300E00:3 3.300E00:4 3.300E00:5 3.229E00:6 3.952E00:7 2.197E-04:8 2.953E-06:9 -2.332E-04:a 1.054E-05:b 
9.017E-04:c -7.020E-04:d 1.055E-05:e -2.103E-04:f 1.439E-05:10 1.040E-03:11 1.438E-05:12 -1.069E-03:13 
#C 2.2480026939E-09 19
3.300E00:1 3.300E00:2 3.300E00:3 3.300E00:4 3.300E00:5 3.229E00:6 3.950E00:7 2.197E-04:8 2.953E-06:9 -2.332E-04:a 1.054E-05:b 
8.103E-04:c -6.474E-04:d 8.583E-06:e -1.714E-04:f 6.804E-06:10 4.883E-04:11 6.769E-06:12 -5.019E-04:13 
#C 2.3120078378E-09 19
3.300E00:1 3.300E00:2 3.300E00:3 3.300E00:4 3.300E00:5 3.229E00:6 3.947E00:7 2.511E-04:8 -3.217E-06:9 -2.328E-04:a -1.507E-05:b 
7.339E-04:c -7.163E-04:d 8.977E-07:e -1.842E-05:f 2.151E-06:10 1.547E-04:11 2.162E-06:12 -1.590E-04:13 
#C 2.4400181257E-09 19
3.300E00:1 3.300E00:2 3.300E00:3 3.300E00:4 3.300E00:5 3.229E00:6 3.949E00:7 2.384E-04:8 -7.491E-07:9 -2.328E-04:a -4.826E-06:b 
7.923E-04:c -8.915E-04:d -5.226E-06:e 1.044E-04:f -5.470E-06:10 -3.949E-04:11 -5.489E-06:12 4.058E-04:13 
#C 2.6960387015E-09 19
3.300E00:1 3.300E00:2 3.300E00:3 3.300E00:4 3.300E00:5 3.229E00:6 3.966E00:7 2.561E-04:8 -3.887E-06:9 -2.368E-04:a -1.538E-05:b 
1.530E-03:c -1.679E-03:d -8.000E-06:e 1.575E-04:f -7.665E-06:10 -5.612E-04:11 -7.663E-06:12 5.765E-04:13 
#C 3.2080798530E-09 19
3.300E00:1 3.300E00:2 3.300E00:3 3.300E00:4 3.300E00:5 3.229E00:6 3.986E00:7 2.244E-04:8 2.297E-06:9 -2.367E-04:a 9.984E-06:b 
3.251E-03:c -3.241E-03:d 4.209E-07:e -1.021E-05:f -1.112E-08:10 -7.440E-06:11 -1.861E-10:12 7.451E-06:13 
#C 3.8673631036E-09 19
3.300E00:1 3.300E00:2 3.300E00:3 3.300E00:4 3.300E00:5 3.229E00:6 3.989E00:7 2.331E-04:8 5.752E-07:9 -2.362E-04:a 2.508E-06:b 
3.750E-03:c -3.726E-03:d 1.249E-06:e -2.472E-05:f 1.159E-06:10 8.492E-05:11 1.158E-06:12 -8.724E-05:13 
#C 4.8674172842E-09 19
3.300E00:1 3.300E00:2 3.300E00:3 3.300E00:4 3.300E00:5 3.229E00:6 3.990E00:7 2.358E-04:8 8.160E-08:9 -2.365E-04:a 6.337E-07:b 
3.786E-03:c -3.781E-03:d 2.851E-07:e -5.688E-06:f 3.744E-07:10 2.801E-05:11 3.724E-07:12 -2.876E-05:13 
#C 5.8674714648E-09 19
3.300E00:1 3.300E00:2 3.300E00:3 3.300E00:4 3.300E00:5 3.229E00:6 3.990E00:7 2.358E-04:8 8.160E-08:9 -2.365E-04:a 6.337E-07:b 
3.790E-03:c -3.796E-03:d -3.110E-07:e 5.801E-06:f 3.744E-07:10 2.801E-05:11 3.724E-07:12 -2.876E-05:13 
#C 6.8675256454E-09 19
3.300E00:1 3.300E00:2 3.300E00:3 3.300E00:4 3.300E00:5 3.229E00:6 3.990E00:7 2.358E-04:8 8.160E-08:9 -2.365E-04:a 6.337E-07:b 
3.803E-03:c -3.798E-03:d 2.742E-07:e -5.479E-06:f 3.744E-07:10 2.801E-05:11 3.724E-07:12 -2.876E-05:13 
#C 7.8675798261E-09 19
3.300E00:1 3.300E00:2 3.300E00:3 3.300E00:4 3.300E00:5 3.229E00:6 3.989E00:7 2.360E-04:8 -4.374E-12:9 -2.360E-04:a 0.000E00:b 
3.772E-03:c -3.771E-03:d 2.549E-08:e -6.827E-07:f -2.948E-12:10 2.948E-12:11 -2.705E-19:12 -2.168E-19:13 
#C 8.8676340067E-09 19
3.300E00:1 3.300E00:2 3.300E00:3 3.300E00:4 3.300E00:5 3.229E00:6 3.989E00:7 2.360E-04:8 -4.374E-12:9 -2.360E-04:a 0.000E00:b 
3.773E-03:c -3.774E-03:d -4.673E-08:e 7.061E-07:f -2.948E-12:10 2.948E-12:11 3.258E-19:12 2.168E-19:13 
#C 9.8676881873E-09 19
3.300E00:1 3.300E00:2 3.300E00:3 3.300E00:4 3.300E00:5 3.229E00:6 3.989E00:7 2.360E-04:8 -4.374E-12:9 -2.360E-04:a 0.000E00:b 
3.773E-03:c -3.774E-03:d -4.673E-08:e 7.061E-07:f -2.948E-12:10 2.948E-12:11 3.258E-19:12 2.168E-19:13 
#C 1.0867742368E-08 19
3.300E00:1 3.300E00:2 3.300E00:3 3.300E00:4 3.300E00:5 3.229E00:6 3.989E00:7 2.360E-04:8 -4.374E-12:9 -2.360E-04:a 0.000E00:b 
3.773E-03:c -3.774E-03:d -4.673E-08:e 7.061E-07:f -2.948E-12:10 2.948E-12:11 3.258E-19:12 2.168E-19:13 
#C 1.1867796549E-08 19
3.300E00:1 3.300E00:2 3.300E00:3 3.300E00:4 3.300E00:5 3.229E00:6 3.989E00:7 2.360E-04:8 -4.374E-12:9 -2.360E-04:a 0.000E00:b 
3.773E-03:c -3.774E-03:d -4.673E-08:e 7.061E-07:f -2.948E-12:10 2.948E-12:11 3.258E-19:12 2.168E-19:13 
#C 1.2867850729E-08 19
3.300E00:1 3.300E00:2 3.300E00:3 3.300E00:4 3.300E00:5 3.229E00:6 3.989E00:7 2.360E-04:8 -4.374E-12:9 -2.360E-04:a 0.000E00:b 
3.773E-03:c -3.774E-03:d -4.673E-08:e 7.061E-07:f -2.948E-12:10 2.948E-12:11 3.258E-19:12 2.168E-19:13 
#C 1.3867904910E-08 19
3.300E00:1 3.300E00:2 3.300E00:3 3.300E00:4 3.300E00:5 3.229E00:6 3.989E00:7 2.360E-04:8 -4.374E-12:9 -2.360E-04:a 0.000E00:b 
3.773E-03:c -3.774E-03:d -4.673E-08:e 7.061E-07:f -2.948E-12:10 2.948E-12:11 3.258E-19:12 2.168E-19:13 
#C 1.4867959090E-08 19
3.300E00:1 3.300E00:2 3.300E00:3 3.300E00:4 3.300E00:5 3.229E00:6 3.989E00:7 2.360E-04:8 -4.374E-12:9 -2.360E-04:a 0.000E00:b 
3.773E-03:c -3.774E-03:d -4.673E-08:e 7.061E-07:f -2.948E-12:10 2.948E-12:11 3.258E-19:12 2.168E-19:13 
#C 1.5000000000E-08 19
3.300E00:1 3.300E00:2 3.300E00:3 3.300E00:4 3.300E00:5 3.229E00:6 3.990E00:7 2.360E-04:8 -4.374E-12:9 -2.360E-04:a 0.000E00:b 
3.804E-03:c -3.810E-03:d -2.972E-07:e 5.523E-06:f -2.948E-12:10 2.948E-12:11 -2.705E-19:12 -2.168E-19:13 
#C 1.5100000000E-08 19
3.300E00:1 3.300E00:2 3.300E00:3 3.300E00:4 3.300E00:5 3.229E00:6 3.990E00:7 2.360E-04:8 -4.374E-12:9 -2.360E-04:a 0.000E00:b 
3.798E-03:c -3.798E-03:d 3.088E-08:e -7.865E-07:f -2.948E-12:10 2.948E-12:11 2.764E-20:12 0.000E00:13 
#C 1.5264471567E-08 19
3.300E00:1 3.300E00:2 3.300E00:3 3.300E00:4 3.300E00:5 3.229E00:6 3.990E00:7 2.360E-04:8 -4.374E-12:9 -2.360E-04:a 0.000E00:b 
3.788E-03:c -3.788E-03:d 3.088E-08:e -7.865E-07:f -2.948E-12:10 2.948E-12:11 2.764E-20:12 0.000E00:13 
#C 1.5305589458E-08 19
3.300E00:1 3.300E00:2 3.300E00:3 3.300E00:4 3.300E00:5 3.229E00:6 3.990E00:7 2.360E-04:8 -4.374E-12:9 -2.360E-04:a 0.000E00:b 
3.827E-03:c -3.851E-03:d -1.321E-06:e 2.521E-05:f -2.948E-12:10 2.948E-12:11 2.764E-20:12 0.000E00:13 
#C 1.5387825242E-08 19
3.300E00:1 3.300E00:2 3.300E00:3 3.300E00:4 3.300E00:5 3.229E00:6 3.990E00:7 2.360E-04:8 -4.374E-12:9 -2.360E-04:a 5.551E-17:b 
3.820E-03:c -3.810E-03:d 5.146E-07:e -1.009E-05:f -2.948E-12:10 2.948E-12:11 -6.044E-18:12 -6.939E-18:13 
#C 1.5408384188E-08 19
3.300E00:1 3.300E00:2 3.300E00:3 3.300E00:4 3.300E00:5 3.229E00:6 3.990E00:7 2.360E-04:8 -4.374E-12:9 -2.360E-04:a 6.939E-17:b 
3.835E-03:c -3.846E-03:d -6.097E-07:e 1.153E-05:f -2.948E-12:10 2.948E-12:11 2.847E-18:12 -1.648E-17:13 
#C 1.5449502079E-08 19
3.300E00:1 3.300E00:2 3.300E00:3 3.300E00:4 3.300E00:5 3.229E00:6 3.990E00:7 2.360E-04:8 -4.374E-12:9 -2.360E-04:a 0.000E00:b 
3.833E-03:c -3.826E-03:d 3.700E-07:e -7.307E-06:f -2.948E-12:10 2.948E-12:11 -2.599E-17:12 0.000E00:13 
#C 1.5531737863E-08 19
3.300E00:1 3.300E00:2 3.300E00:3 3.300E00:4 3.300E00:5 3.229E00:6 3.990E00:7 2.360E-04:8 -4.374E-12:9 -2.360E-04:a 1.110E-16:b 
3.816E-03:c -3.813E-03:d 1.924E-07:e -3.891E-06:f -2.948E-12:10 2.948E-12:11 8.701E-18:12 -1.388E-17:13 
#C 1.5552296808E-08 19
3.300E00:1 3.300E00:2 3.300E00:3 3.300E00:4 3.300E00:5 3.229E00:6 3.990E00:7 2.360E-04:8 -4.374E-12:9 -2.360E-04:a 6.939E-17:b 
3.834E-03:c -3.847E-03:d -7.361E-07:e 1.396E-05:f -2.948E-12:10 2.948E-12:11 2.847E-18:12 -1.648E-17:13 
#C 1.5593414700E-08 19
3.300E00:1 3.300E00:2 3.300E00:3 3.300E00:4 3.300E00:5 3.229E00:6 3.990E00:7 2.360E-04:8 -4.374E-12:9 -2.360E-04:a -6.939E-17:b 
3.837E-03:c -3.826E-03:d 6.083E-07:e -1.189E-05:f -2.948E-12:10 2.948E-12:11 -2.791E-18:12 1.648E-17:13 
#C 1.5675650483E-08 19
3.300E00:1 3.300E00:2 3.300E00:3 3.300E00:4 3.300E00:5 3.229E00:6 3.990E00:7 2.360E-04:8 -4.374E-12:9 -2.360E-04:a 1.110E-16:b 
3.817E-03:c -3.812E-03:d 2.998E-07:e -5.957E-06:f -2.948E-12:10 2.948E-12:11 8.701E-18:12 -1.388E-17:13 
#C 1.5751460141E-08 19
3.300E00:1 3.300E00:2 3.300E00:3 3.300E00:4 3.300E00:5 3.229E00:6 3.990E00:7 2.360E-04:8 -4.374E-12:9 -2.360E-04:a 0.000E00:b 
3.813E-03:c -3.814E-03:d -3.602E-08:e 4.998E-07:f -2.948E-12:10 2.948E-12:11 -8.397E-19:12 -1.735E-18:13 
#C 1.5903079456E-08 19
3.300E00:1 3.300E00:2 3.300E00:3 3.300E00:4 3.300E00:5 3.229E00:6 3.990E00:7 2.360E-04:8 -4.374E-12:9 -2.360E-04:a -2.776E-17:b 
3.801E-03:c -3.799E-03:d 5.920E-08:e -1.331E-06:f -2.948E-12:10 2.948E-12:11 -8.397E-19:12 0.000E00:13 
#C 1.6000000000E-08 19
3.300E00:1 3.300E00:2 3.300E00:3 3.300E00:4 3.300E00:5 3.229E00:6 3.990E00:7 2.360E-04:8 -4.374E-12:9 -2.360E-04:a 6.939E-18:b 
3.805E-03:c -3.807E-03:d -7.669E-08:e 1.282E-06:f -2.948E-12:10 2.948E-12:11 2.764E-20:12 1.735E-18:13 
#C 1.6023113098E-08 19
3.300E00:1 3.300E00:2 3.300E00:3 3.300E00:4 3.300E00:5 3.229E00:6 3.990E00:7 2.360E-04:8 -4.374E-12:9 -2.360E-04:a 0.000E00:b 
3.828E-03:c -3.840E-03:d -6.675E-07:e 1.264E-05:f -2.948E-12:10 2.948E-12:11 2.764E-20:12 0.000E00:13 
#C 1.6069341622E-08 19
3.300E00:1 3.300E00:2 3.300E00:3 3.300E00:4 3.300E00:5 3.229E00:6 3.990E00:7 2.360E-04:8 -4.374E-12:9 -2.360E-04:a 0.000E00:b 
3.818E-03:c -3.815E-03:d 1.413E-07:e -2.910E-06:f -2.948E-12:10 2.948E-12:11 2.764E-20:12 0.000E00:13 
#C 1.6161798671E-08 19
3.300E00:1 3.300E00:2 3.300E00:3 3.300E00:4 3.300E00:5 3.229E00:6 3.990E00:7 2.360E-04:8 -4.374E-12:9 -2.360E-04:a 8.327E-17:b 
3.811E-03:c -3.812E-03:d -3.576E-08:e 4.949E-07:f -2.948E-12:10 2.948E-12:11 2.764E-20:12 -6.939E-18:13 
#C 1.6346712768E-08 19
3.300E00:1 3.300E00:2 3.300E00:3 3.300E00:4 3.300E00:5 3.229E00:6 3.990E00:7 2.360E-04:8 -4.374E-12:9 -2.360E-04:a -4.163E-17:b 
3.799E-03:c -3.798E-03:d 3.507E-08:e -8.671E-07:f -2.948E-12:10 2.948E-12:11 2.630E-18:12 0.000E00:13 
#C 1.6716540963E-08 19
3.300E00:1 3.300E00:2 3.300E00:3 3.300E00:4 3.300E00:5 3.229E00:6 3.990E00:7 2.360E-04:8 -4.374E-12:9 -2.360E-04:a 0.000E00:b 
3.783E-03:c -3.783E-03:d 8.328E-09:e -3.528E-07:f -2.948E-12:10 2.948E-12:11 2.764E-20:12 0.000E00:13 
#C 1.7456197351E-08 19
3.300E00:1 3.300E00:2 3.300E00:3 3.300E00:4 3.300E00:5 3.229E00:6 3.989E00:7 2.360E-04:8 -4.374E-12:9 -2.360E-04:a 6.939E-18:b 
3.774E-03:c -3.774E-03:d -1.600E-08:e 1.151E-07:f -2.948E-12:10 2.948E-12:11 1.003E-18:12 0.000E00:13 
#C 1.8456251532E-08 19
3.300E00:1 3.300E00:2 3.300E00:3 3.300E00:4 3.300E00:5 3.229E00:6 3.989E00:7 2.360E-04:8 -4.374E-12:9 -2.360E-04:a -5.204E-18:b 
3.772E-03:c -3.772E-03:d -1.154E-08:e 2.945E-08:f -2.948E-12:10 2.948E-12:11 -8.078E-20:12 8.674E-19:13 
#C 1.9000000000E-08 19
3.300E00:1 3.300E00:2 3.300E00:3 3.300E00:4 3.300E00:5 3.229E00:6 3.989E00:7 2.360E-04:8 -4.374E-12:9 -2.360E-04:a 0.000E00:b 
3.775E-03:c -3.775E-03:d -1.706E-08:e 1.355E-07:f -2.948E-12:10 2.948E-12:11 -4.603E-19:12 -9.758E-19:13 
#C 1.9100000000E-08 19
3.300E00:1 3.300E00:2 3.300E00:3 3.300E00:4 3.300E00:5 3.229E00:6 3.990E00:7 2.360E-04:8 -4.374E-12:9 -2.360E-04:a 0.000E00:b 
3.796E-03:c -3.799E-03:d -1.510E-07:e 2.711E-06:f -2.948E-12:10 2.948E-12:11 2.764E-20:12 0.000E00:13 
#C 1.9300001523E-08 19
3.300E00:1 3.300E00:2 3.300E00:3 3.300E00:4 3.300E00:5 3.229E00:6 3.990E00:7 2.360E-04:8 -4.374E-12:9 -2.360E-04:a 0.000E00:b 
3.785E-03:c -3.785E-03:d 2.643E-08:e -7.008E-07:f -2.948E-12:10 2.948E-12:11 2.764E-20:12 0.000E00:13 
#C 1.9700004569E-08 19
3.300E00:1 3.300E00:2 3.300E00:3 3.300E00:4 3.300E00:5 3.229E00:6 3.990E00:7 2.360E-04:8 -4.374E-12:9 -2.360E-04:a 0.000E00:b 
3.784E-03:c -3.785E-03:d -4.211E-08:e 6.173E-07:f -2.948E-12:10 2.948E-12:11 2.764E-20:12 0.000E00:13 
#C 1.9737503998E-08 19
3.300E00:1 3.300E00:2 3.300E00:3 3.300E00:4 3.300E00:5 3.229E00:6 3.990E00:7 2.360E-04:8 -4.374E-12:9 -2.360E-04:a 9.324E-17:b 
3.818E-03:c -3.830E-03:d -6.744E-07:e 1.278E-05:f -2.948E-12:10 2.948E-12:11 -5.908E-18:12 -1.019E-17:13 
#C 1.9763753598E-08 19
3.300E00:1 3.300E00:2 3.300E00:3 3.300E00:4 3.300E00:5 3.229E00:6 3.990E00:7 2.360E-04:8 -4.374E-12:9 -2.360E-04:a 0.000E00:b 
3.828E-03:c -3.832E-03:d -2.545E-07:e 4.701E-06:f -2.948E-12:10 2.948E-12:11 2.764E-20:12 0.000E00:13 
#C 1.9816251087E-08 19
3.300E00:1 3.300E00:2 3.300E00:3 3.300E00:4 3.300E00:5 3.229E00:6 3.990E00:7 2.360E-04:8 -4.374E-12:9 -2.360E-04:a 0.000E00:b 
3.826E-03:c -3.823E-03:d 1.774E-07:e -3.604E-06:f -2.948E-12:10 2.948E-12:11 -1.558E-17:12 1.388E-17:13 
#C 1.9921246066E-08 19
3.300E00:1 3.300E00:2 3.300E00:3 3.300E00:4 3.300E00:5 3.229E00:6 3.990E00:7 2.360E-04:8 -4.374E-12:9 -2.360E-04:a 0.000E00:b 
3.810E-03:c -3.807E-03:d 1.529E-07:e -3.134E-06:f -2.948E-12:10 2.948E-12:11 -1.385E-17:12 6.939E-18:13 
#C 2.0000000000E-08 19
3.300E00:1 3.300E00:2 3.300E00:3 3.300E00:4 3.300E00:5 3.229E00:6 3.990E00:7 2.360E-04:8 -4.374E-12:9 -2.360E-04:a -4.163E-17:b 
3.811E-03:c -3.812E-03:d -6.653E-08:e 1.086E-06:f -2.948E-12:10 2.948E-12:11 5.882E-18:12 5.204E-18:13 
#C 2.0020998996E-08 19
3.300E00:1 3.300E00:2 3.300E00:3 3.300E00:4 3.300E00:5 3.229E00:6 3.990E00:7 2.360E-04:8 -4.374E-12:9 -2.360E-04:a 0.000E00:b 
3.830E-03:c -3.842E-03:d -6.235E-07:e 1.180E-05:f -2.948E-12:10 2.948E-12:11 2.764E-20:12 0.000E00:13 
#C 2.0062995823E-08 19
3.300E00:1 3.300E00:2 3.300E00:3 3.300E00:4 3.300E00:5 3.229E00:6 3.990E00:7 2.360E-04:8 -4.374E-12:9 -2.360E-04:a 0.000E00:b 
3.832E-03:c -3.826E-03:d 3.497E-07:e -6.917E-06:f -2.948E-12:10 2.948E-12:11 -5.177E-18:12 1.388E-17:13 
#C 2.0146989478E-08 19
3.300E00:1 3.300E00:2 3.300E00:3 3.300E00:4 3.300E00:5 3.229E00:6 3.990E00:7 2.360E-04:8 -4.374E-12:9 -2.360E-04:a 1.110E-16:b 
3.816E-03:c -3.812E-03:d 2.243E-07:e -4.505E-06:f -2.948E-12:10 2.948E-12:11 -4.309E-18:12 -1.388E-17:13 
#C 2.0314976787E-08 19
3.300E00:1 3.300E00:2 3.300E00:3 3.300E00:4 3.300E00:5 3.229E00:6 3.990E00:7 2.360E-04:8 -4.374E-12:9 -2.360E-04:a 0.000E00:b 
3.798E-03:c -3.797E-03:d 2.495E-08:e -6.726E-07:f -2.948E-12:10 2.948E-12:11 -2.574E-18:12 0.000E00:13 
#C 2.0650951406E-08 19
3.300E00:1 3.300E00:2 3.300E00:3 3.300E00:4 3.300E00:5 3.229E00:6 3.990E00:7 2.360E-04:8 -4.374E-12:9 -2.360E-04:a 0.000E00:b 
3.784E-03:c -3.784E-03:d -1.229E-08:e 4.372E-08:f -2.948E-12:10 2.948E-12:11 2.764E-20:12 0.000E00:13 
#C 2.1322900644E-08 19
3.300E00:1 3.300E00:2 3.300E00:3 3.300E00:4 3.300E00:5 3.229E00:6 3.989E00:7 2.360E-04:8 -4.374E-12:9 -2.360E-04:a -6.939E-18:b 
3.775E-03:c -3.775E-03:d -1.326E-08:e 6.240E-08:f -2.948E-12:10 2.948E-12:11 6.782E-19:12 0.000E00:13 
#C 2.2322954824E-08 19
3.300E00:1 3.300E00:2 3.300E00:3 3.300E00:4 3.300E00:5 3.229E00:6 3.989E00:7 2.360E-04:8 -4.374E-12:9 -2.360E-04:a 1.735E-18:b 
3.772E-03:c -3.772E-03:d -1.141E-08:e 2.688E-08:f -2.948E-12:10 2.948E-12:11 -5.145E-19:12 4.337E-19:13 
#C 2.3323009005E-08 19
3.300E00:1 3.300E00:2 3.300E00:3 3.300E00:4 3.300E00:5 3.229E00:6 3.989E00:7 2.360E-04:8 -4.374E-12:9 -2.360E-04:a 1.735E-18:b 
3.772E-03:c -3.772E-03:d -1.141E-08:e 2.688E-08:f -2.948E-12:10 2.948E-12:11 -5.145E-19:12 4.337E-19:13 
#C 2.4323063186E-08 19
3.300E00:1 3.300E00:2 3.300E00:3 3.300E00:4 3.300E00:5 3.229E00:6 3.989E00:7 2.360E-04:8 -4.374E-12:9 -2.360E-04:a 1.735E-18:b 
3.772E-03:c -3.772E-03:d -1.141E-08:e 2.688E-08:f -2.948E-12:10 2.948E-12:11 -5.145E-19:12 4.337E-19:13 
#C 2.5323117366E-08 19
3.300E00:1 3.300E00:2 3.300E00:3 3.300E00:4 3.300E00:5 3.229E00:6 3.989E00:7 2.360E-04:8 -4.374E-12:9 -2.360E-04:a 1.735E-18:b 
3.772E-03:c -3.772E-03:d -1.141E-08:e 2.688E-08:f -2.948E-12:10 2.948E-12:11 -5.145E-19:12 4.337E-19:13 
#C 2.6323171547E-08 19
3.300E00:1 3.300E00:2 3.300E00:3 3.300E00:4 3.300E00:5 3.229E00:6 3.989E00:7 2.360E-04:8 -4.374E-12:9 -2.360E-04:a 1.735E-18:b 
3.772E-03:c -3.772E-03:d -1.141E-08:e 2.688E-08:f -2.948E-12:10 2.948E-12:11 -5.145E-19:12 4.337E-19:13 
#C 2.7323225727E-08 19
3.300E00:1 3.300E00:2 3.300E00:3 3.300E00:4 3.300E00:5 3.229E00:6 3.989E00:7 2.360E-04:8 -4.374E-12:9 -2.360E-04:a 1.735E-18:b 
3.772E-03:c -3.772E-03:d -1.141E-08:e 2.688E-08:f -2.948E-12:10 2.948E-12:11 -5.145E-19:12 4.337E-19:13 
#C 2.8323279908E-08 19
