#H
SOURCE='PSPICE' VERSION='PSpice 16.0.0 (July 2006)'
TITLE='**** 05/18/10 12:08:24 ******* PSpice 16.0.0 (July 2006) ****** ID# 0 ********'
SUBTITLE=''
TIME='12:03:32' DATE='06/04/10' TEMPERATURE='2.700E01'
ANALYSIS='Transient Analysis' SERIALNO='61413'
ALLVALUES='NO' COMPLEXVALUES='NO' NODES='20'
SWEEPVAR='Time' SWEEPMODE='VAR_STEP'
XBEGIN='0.000E00' XEND='5.000E-07'
FORMAT='0 VOLTSorAMPS;EFLOAT : NODEorBRANCH;NODE  '
DGTLDATA='NO' 
#N 
'V(C_F_D_LSB)' 'V(C_F_D_2SB)' 'V(C_F_D_3SB)' 'V(C_F_D_4SB)' 'V(C_F_D_5SB)' 'V(C_F_C32_MSB)' 'V(C_F_C63_NDPOS)' 'I(I_INY1)' 
'ID(M_C_F_C63_M2)' 'IB(M_C_F_C63_M2)' 'IS(M_C_F_C63_M2)' 'IG(M_C_F_C63_M2)' 'ID(M_C_F_C63_M4)' 'IB(M_C_F_C63_M4)' 'IS(M_C_F_C63_M4)' 
'IG(M_C_F_C63_M4)' 'ID(M_C_F_C63_M12)' 'IB(M_C_F_C63_M12)' 'IS(M_C_F_C63_M12)' 'IG(M_C_F_C63_M12)' 
#C 0.0000000000E00 20
3.300E00:1 3.300E00:2 3.300E00:3 3.300E00:4 3.300E00:5 3.235E00:6 4.397E-01:7 0.000E00:8 1.272E-04:9 -8.768E-13:a -1.272E-04:b 
0.000E00:c -1.272E-04:d 2.870E-12:e 1.272E-04:f 0.000E00:10 -7.451E-04:11 7.399E-14:12 7.451E-04:13 0.000E00:14 
#C 2.0000000000E-11 20
3.300E00:1 3.300E00:2 3.300E00:3 3.300E00:4 3.300E00:5 3.235E00:6 4.397E-01:7 0.000E00:8 1.272E-04:9 -1.086E-12:a -1.272E-04:b 
-6.661E-16:c -1.272E-04:d 3.192E-12:e 1.272E-04:f -2.649E-12:10 -7.451E-04:11 1.117E-12:12 7.451E-04:13 5.258E-13:14 
#C 4.0000000000E-11 20
3.300E00:1 3.300E00:2 3.300E00:3 3.300E00:4 3.300E00:5 3.235E00:6 4.397E-01:7 0.000E00:8 1.272E-04:9 -1.086E-12:a -1.272E-04:b 
-6.661E-16:c -1.272E-04:d 3.192E-12:e 1.272E-04:f -2.649E-12:10 -7.451E-04:11 1.117E-12:12 7.451E-04:13 5.258E-13:14 
#C 8.0000304580E-11 20
3.300E00:1 3.300E00:2 3.300E00:3 3.300E00:4 3.300E00:5 3.235E00:6 4.397E-01:7 0.000E00:8 1.272E-04:9 -8.768E-13:a -1.272E-04:b 
0.000E00:c -1.272E-04:d 2.870E-12:e 1.272E-04:f 0.000E00:10 -7.451E-04:11 7.399E-14:12 7.451E-04:13 0.000E00:14 
#C 1.6000091374E-10 20
3.300E00:1 3.300E00:2 3.300E00:3 3.300E00:4 3.300E00:5 3.235E00:6 4.397E-01:7 0.000E00:8 1.272E-04:9 -8.768E-13:a -1.272E-04:b 
0.000E00:c -1.272E-04:d 2.870E-12:e 1.272E-04:f 0.000E00:10 -7.451E-04:11 7.399E-14:12 7.451E-04:13 0.000E00:14 
#C 3.2000213206E-10 20
3.300E00:1 3.300E00:2 3.300E00:3 3.300E00:4 3.300E00:5 3.235E00:6 4.397E-01:7 0.000E00:8 1.272E-04:9 -8.768E-13:a -1.272E-04:b 
0.000E00:c -1.272E-04:d 2.870E-12:e 1.272E-04:f 0.000E00:10 -7.451E-04:11 7.399E-14:12 7.451E-04:13 0.000E00:14 
#C 6.4000456870E-10 20
3.300E00:1 3.300E00:2 3.300E00:3 3.300E00:4 3.300E00:5 3.235E00:6 4.397E-01:7 0.000E00:8 1.272E-04:9 -8.768E-13:a -1.272E-04:b 
0.000E00:c -1.272E-04:d 2.870E-12:e 1.272E-04:f 0.000E00:10 -7.451E-04:11 7.399E-14:12 7.451E-04:13 0.000E00:14 
#C 1.2800094420E-09 20
3.300E00:1 3.300E00:2 3.300E00:3 3.300E00:4 3.300E00:5 3.235E00:6 4.397E-01:7 0.000E00:8 1.272E-04:9 -8.768E-13:a -1.272E-04:b 
0.000E00:c -1.272E-04:d 2.870E-12:e 1.272E-04:f 0.000E00:10 -7.451E-04:11 7.399E-14:12 7.451E-04:13 0.000E00:14 
#C 2.0000000010E-09 20
3.300E00:1 3.300E00:2 3.300E00:3 3.300E00:4 3.300E00:5 3.235E00:6 4.397E-01:7 1.333E-10:8 1.272E-04:9 -8.768E-13:a -1.272E-04:b 
0.000E00:c -1.272E-04:d 2.870E-12:e 1.272E-04:f 0.000E00:10 -7.451E-04:11 7.399E-14:12 7.451E-04:13 0.000E00:14 
#C 2.0200000009E-09 20
3.300E00:1 3.300E00:2 3.300E00:3 3.300E00:4 3.300E00:5 3.235E00:6 4.412E-01:7 1.946E-03:8 2.950E-04:9 -3.046E-04:a 9.322E-06:b 
3.485E-07:c -1.272E-04:d 2.870E-12:e 1.272E-04:f 0.000E00:10 -7.526E-04:11 -1.682E-03:12 6.281E-04:13 1.807E-03:14 
#C 2.0600003055E-09 20
3.300E00:1 3.300E00:2 3.300E00:3 3.300E00:4 3.300E00:5 3.235E00:6 4.462E-01:7 3.459E-03:8 4.399E-04:9 -5.206E-04:a 8.099E-05:b 
-2.681E-07:c -1.666E-04:d -1.538E-05:e 7.127E-05:f 1.107E-04:10 -7.623E-04:11 -2.833E-03:12 4.115E-04:13 3.184E-03:14 
#C 2.1400009146E-09 20
3.300E00:1 3.300E00:2 3.300E00:3 3.300E00:4 3.300E00:5 3.235E00:6 4.564E-01:7 3.962E-03:8 5.211E-04:9 -5.495E-04:a 3.026E-05:b 
-1.913E-06:c -1.586E-04:d -1.145E-05:e 8.514E-05:f 8.487E-05:10 -7.553E-04:11 -2.923E-03:12 7.896E-05:13 3.600E-03:14 
#C 2.2000000010E-09 20
3.300E00:1 3.300E00:2 3.300E00:3 3.300E00:4 3.300E00:5 3.235E00:6 4.639E-01:7 3.995E-03:8 5.511E-04:9 -5.186E-04:a -2.966E-05:b 
-2.807E-06:c -1.621E-04:d -1.342E-05:e 7.775E-05:f 9.780E-05:10 -7.582E-04:11 -2.676E-03:12 -1.549E-04:13 3.589E-03:14 
#C 2.2160001228E-09 20
3.300E00:1 3.300E00:2 3.300E00:3 3.300E00:4 3.300E00:5 3.235E00:6 4.658E-01:7 3.871E-03:8 5.462E-04:9 -4.875E-04:a -5.562E-05:b 
-3.060E-06:c -1.621E-04:d -1.342E-05:e 7.768E-05:f 9.780E-05:10 -7.546E-04:11 -2.489E-03:12 -2.028E-04:13 3.446E-03:14 
#C 2.2480026948E-09 20
3.300E00:1 3.300E00:2 3.300E00:3 3.300E00:4 3.300E00:5 3.235E00:6 4.691E-01:7 3.633E-03:8 5.380E-04:9 -4.351E-04:a -9.947E-05:b 
-3.468E-06:c -1.106E-04:d 1.775E-06:e 1.328E-04:f -2.394E-05:10 -7.534E-04:11 -2.161E-03:12 -2.909E-04:13 3.205E-03:14 
#C 2.3120078387E-09 20
3.300E00:1 3.300E00:2 3.300E00:3 3.300E00:4 3.300E00:5 3.235E00:6 4.749E-01:7 3.197E-03:8 5.222E-04:9 -3.455E-04:a -1.725E-04:b 
-4.167E-06:c -1.106E-04:d 1.775E-06:e 1.328E-04:f -2.394E-05:10 -7.545E-04:11 -1.592E-03:12 -4.415E-04:13 2.788E-03:14 
#C 2.4400181266E-09 20
3.300E00:1 3.300E00:2 3.300E00:3 3.300E00:4 3.300E00:5 3.235E00:6 4.830E-01:7 2.475E-03:8 4.836E-04:9 -2.008E-04:a -2.781E-04:b 
-4.704E-06:c -8.390E-05:d 1.062E-05:e 1.651E-04:f -9.185E-05:10 -7.487E-04:11 -7.053E-04:12 -6.191E-04:13 2.073E-03:14 
#C 2.6960387024E-09 20
3.300E00:1 3.300E00:2 3.300E00:3 3.300E00:4 3.300E00:5 3.235E00:6 4.900E-01:7 1.483E-03:8 4.082E-04:9 -3.371E-05:a -3.672E-04:b 
-7.338E-06:c -6.793E-05:d 1.642E-05:e 1.872E-04:f -1.357E-04:10 -7.439E-04:11 2.869E-04:12 -6.863E-04:13 1.143E-03:14 
#C 3.2080798539E-09 20
3.300E00:1 3.300E00:2 3.300E00:3 3.300E00:4 3.300E00:5 3.235E00:6 4.865E-01:7 5.327E-04:8 2.757E-04:9 6.024E-05:a -3.274E-04:b 
-8.514E-06:c -9.214E-05:d 1.083E-05:e 1.693E-04:f -8.796E-05:10 -7.427E-04:11 6.971E-04:12 -3.032E-04:13 3.488E-04:14 
#C 4.2321621570E-09 20
3.300E00:1 3.300E00:2 3.300E00:3 3.300E00:4 3.300E00:5 3.235E00:6 4.731E-01:7 6.870E-05:8 1.554E-04:9 3.551E-05:a -1.827E-04:b 
-8.248E-06:c -1.390E-04:d -1.722E-06:e 1.253E-04:f 1.540E-05:10 -7.430E-04:11 2.811E-04:12 4.100E-04:13 5.183E-05:14 
#C 5.6729181799E-09 20
3.300E00:1 3.300E00:2 3.300E00:3 3.300E00:4 3.300E00:5 3.235E00:6 4.668E-01:7 3.851E-06:8 1.427E-04:9 2.805E-06:a -1.384E-04:b 
-7.018E-06:c -1.479E-04:d -5.037E-06:e 1.117E-04:f 4.128E-05:10 -7.454E-04:11 2.165E-05:12 7.147E-04:13 9.086E-06:14 
#C 7.9881861004E-09 20
3.300E00:1 3.300E00:2 3.300E00:3 3.300E00:4 3.300E00:5 3.235E00:6 4.648E-01:7 3.754E-08:8 1.538E-04:9 -4.399E-06:a -1.436E-04:b 
-5.781E-06:c -1.399E-04:d -3.503E-06:e 1.146E-04:f 2.877E-05:10 -7.440E-04:11 -4.822E-05:12 8.074E-04:13 -1.517E-05:14 
#C 1.0463641504E-08 20
3.300E00:1 3.300E00:2 3.300E00:3 3.300E00:4 3.300E00:5 3.235E00:6 4.646E-01:7 2.657E-10:8 1.611E-04:9 -1.058E-06:a -1.546E-04:b 
-5.462E-06:c -1.328E-04:d -2.101E-06:e 1.176E-04:f 1.730E-05:10 -7.451E-04:11 -2.022E-05:12 7.937E-04:13 -2.840E-05:14 
#C 1.5000000001E-08 20
3.300E00:1 3.300E00:2 3.300E00:3 3.300E00:4 3.300E00:5 3.235E00:6 4.636E-01:7 3.049E-14:8 1.603E-04:9 1.330E-06:a -1.569E-04:b 
-4.746E-06:c -1.279E-04:d -1.531E-06:e 1.168E-04:f 1.266E-05:10 -7.451E-04:11 -1.478E-06:12 7.789E-04:13 -3.238E-05:14 
#C 1.5100000001E-08 20
3.300E00:1 3.300E00:2 3.300E00:3 3.300E00:4 3.300E00:5 3.235E00:6 4.636E-01:7 2.496E-14:8 1.601E-04:9 1.280E-06:a -1.567E-04:b 
-4.730E-06:c -1.293E-04:d -1.936E-06:e 1.153E-04:f 1.599E-05:10 -7.472E-04:11 -2.401E-06:12 7.764E-04:13 -2.672E-05:14 
#C 1.5300001524E-08 20
3.300E00:1 3.300E00:2 3.300E00:3 3.300E00:4 3.300E00:5 3.235E00:6 4.635E-01:7 1.673E-14:8 1.599E-04:9 1.301E-06:a -1.565E-04:b 
-4.705E-06:c -1.292E-04:d -1.936E-06:e 1.151E-04:f 1.599E-05:10 -7.469E-04:11 -2.401E-06:12 7.760E-04:13 -2.672E-05:14 
#C 1.5350001905E-08 20
3.300E00:1 3.300E00:2 3.300E00:3 3.300E00:4 3.300E00:5 3.235E00:6 4.635E-01:7 1.514E-14:8 1.609E-04:9 3.395E-07:a -1.565E-04:b 
-4.693E-06:c -1.292E-04:d -1.936E-06:e 1.151E-04:f 1.599E-05:10 -7.468E-04:11 -2.401E-06:12 7.759E-04:13 -2.672E-05:14 
#C 1.5450002666E-08 20
3.300E00:1 3.300E00:2 3.300E00:3 3.300E00:4 3.300E00:5 3.235E00:6 4.635E-01:7 1.240E-14:8 1.600E-04:9 1.616E-06:a -1.569E-04:b 
-4.679E-06:c -1.291E-04:d -1.936E-06:e 1.150E-04:f 1.599E-05:10 -7.466E-04:11 -2.401E-06:12 7.758E-04:13 -2.672E-05:14 
#C 1.5475002856E-08 20
3.300E00:1 3.300E00:2 3.300E00:3 3.300E00:4 3.300E00:5 3.235E00:6 4.635E-01:7 1.179E-14:8 1.603E-04:9 1.169E-06:a -1.568E-04:b 
-4.685E-06:c -1.291E-04:d -1.936E-06:e 1.150E-04:f 1.599E-05:10 -7.466E-04:11 -2.401E-06:12 7.757E-04:13 -2.672E-05:14 
#C 1.5525003237E-08 20
3.300E00:1 3.300E00:2 3.300E00:3 3.300E00:4 3.300E00:5 3.235E00:6 4.635E-01:7 1.067E-14:8 1.603E-04:9 1.169E-06:a -1.567E-04:b 
-4.685E-06:c -1.291E-04:d -1.936E-06:e 1.150E-04:f 1.599E-05:10 -7.465E-04:11 -2.401E-06:12 7.756E-04:13 -2.672E-05:14 
#C 1.5537503332E-08 20
3.300E00:1 3.300E00:2 3.300E00:3 3.300E00:4 3.300E00:5 3.235E00:6 4.635E-01:7 1.041E-14:8 1.615E-04:9 -5.229E-07:a -1.563E-04:b 
-4.665E-06:c -1.291E-04:d -1.936E-06:e 1.150E-04:f 1.599E-05:10 -7.465E-04:11 -2.401E-06:12 7.756E-04:13 -2.672E-05:14 
#C 1.5562503523E-08 20
3.300E00:1 3.300E00:2 3.300E00:3 3.300E00:4 3.300E00:5 3.235E00:6 4.635E-01:7 9.897E-15:8 1.599E-04:9 2.000E-06:a -1.572E-04:b 
-4.661E-06:c -1.290E-04:d -1.936E-06:e 1.150E-04:f 1.599E-05:10 -7.464E-04:11 -2.401E-06:12 7.756E-04:13 -2.672E-05:14 
#C 1.5568753570E-08 20
3.300E00:1 3.300E00:2 3.300E00:3 3.300E00:4 3.300E00:5 3.235E00:6 4.635E-01:7 9.775E-15:8 1.605E-04:9 1.103E-06:a -1.569E-04:b 
-4.664E-06:c -1.290E-04:d -1.936E-06:e 1.150E-04:f 1.599E-05:10 -7.464E-04:11 -2.401E-06:12 7.756E-04:13 -2.672E-05:14 
#C 1.5581253665E-08 20
3.300E00:1 3.300E00:2 3.300E00:3 3.300E00:4 3.300E00:5 3.235E00:6 4.635E-01:7 9.533E-15:8 1.604E-04:9 1.103E-06:a -1.569E-04:b 
-4.664E-06:c -1.290E-04:d -1.936E-06:e 1.150E-04:f 1.599E-05:10 -7.464E-04:11 -2.401E-06:12 7.755E-04:13 -2.672E-05:14 
#C 1.5606253856E-08 20
3.300E00:1 3.300E00:2 3.300E00:3 3.300E00:4 3.300E00:5 3.235E00:6 4.635E-01:7 9.068E-15:8 1.604E-04:9 1.103E-06:a -1.569E-04:b 
-4.664E-06:c -1.290E-04:d -1.936E-06:e 1.150E-04:f 1.599E-05:10 -7.464E-04:11 -2.401E-06:12 7.755E-04:13 -2.672E-05:14 
#C 1.5656254236E-08 20
3.300E00:1 3.300E00:2 3.300E00:3 3.300E00:4 3.300E00:5 3.235E00:6 4.635E-01:7 8.205E-15:8 1.604E-04:9 1.103E-06:a -1.568E-04:b 
-4.664E-06:c -1.290E-04:d -1.936E-06:e 1.149E-04:f 1.599E-05:10 -7.463E-04:11 -2.401E-06:12 7.754E-04:13 -2.672E-05:14 
#C 1.5731190779E-08 20
3.300E00:1 3.300E00:2 3.300E00:3 3.300E00:4 3.300E00:5 3.235E00:6 4.634E-01:7 7.063E-15:8 1.604E-04:9 1.103E-06:a -1.568E-04:b 
-4.664E-06:c -1.289E-04:d -1.936E-06:e 1.149E-04:f 1.599E-05:10 -7.462E-04:11 -2.401E-06:12 7.753E-04:13 -2.672E-05:14 
#C 1.5845429134E-08 20
3.300E00:1 3.300E00:2 3.300E00:3 3.300E00:4 3.300E00:5 3.235E00:6 4.634E-01:7 5.621E-15:8 1.603E-04:9 1.103E-06:a -1.568E-04:b 
-4.664E-06:c -1.289E-04:d -1.937E-06:e 1.148E-04:f 1.599E-05:10 -7.460E-04:11 -2.402E-06:12 7.751E-04:13 -2.672E-05:14 
#C 1.6000000001E-08 20
3.300E00:1 3.300E00:2 3.300E00:3 3.300E00:4 3.300E00:5 3.235E00:6 4.634E-01:7 4.126E-15:8 1.602E-04:9 1.103E-06:a -1.567E-04:b 
-4.664E-06:c -1.288E-04:d -1.937E-06:e 1.147E-04:f 1.599E-05:10 -7.457E-04:11 -2.402E-06:12 7.748E-04:13 -2.672E-05:14 
#C 1.6022847672E-08 20
3.300E00:1 3.300E00:2 3.300E00:3 3.300E00:4 3.300E00:5 3.235E00:6 4.634E-01:7 3.942E-15:8 1.600E-04:9 2.338E-06:a -1.577E-04:b 
-4.596E-06:c -1.287E-04:d -1.937E-06:e 1.147E-04:f 1.599E-05:10 -7.457E-04:11 -2.402E-06:12 7.748E-04:13 -2.672E-05:14 
#C 1.6068540686E-08 20
3.300E00:1 3.300E00:2 3.300E00:3 3.300E00:4 3.300E00:5 3.235E00:6 4.634E-01:7 3.598E-15:8 1.606E-04:9 6.251E-07:a -1.567E-04:b 
-4.589E-06:c -1.287E-04:d -1.937E-06:e 1.147E-04:f 1.599E-05:10 -7.456E-04:11 -2.402E-06:12 7.747E-04:13 -2.672E-05:14 
#C 1.6159926714E-08 20
3.300E00:1 3.300E00:2 3.300E00:3 3.300E00:4 3.300E00:5 3.235E00:6 4.633E-01:7 2.997E-15:8 1.604E-04:9 1.310E-06:a -1.571E-04:b 
-4.592E-06:c -1.287E-04:d -1.937E-06:e 1.146E-04:f 1.599E-05:10 -7.454E-04:11 -2.402E-06:12 7.745E-04:13 -2.672E-05:14 
#C 1.6342698769E-08 20
3.300E00:1 3.300E00:2 3.300E00:3 3.300E00:4 3.300E00:5 3.235E00:6 4.633E-01:7 2.079E-15:8 1.600E-04:9 1.492E-06:a -1.569E-04:b 
-4.553E-06:c -1.285E-04:d -1.937E-06:e 1.145E-04:f 1.599E-05:10 -7.451E-04:11 -2.402E-06:12 7.742E-04:13 -2.672E-05:14 
#C 1.6708242879E-08 20
3.300E00:1 3.300E00:2 3.300E00:3 3.300E00:4 3.300E00:5 3.235E00:6 4.632E-01:7 1.001E-15:8 1.597E-04:9 1.413E-06:a -1.566E-04:b 
-4.502E-06:c -1.283E-04:d -1.937E-06:e 1.143E-04:f 1.599E-05:10 -7.448E-04:11 3.051E-06:12 7.752E-04:13 -3.339E-05:14 
#C 1.7439331100E-08 20
3.300E00:1 3.300E00:2 3.300E00:3 3.300E00:4 3.300E00:5 3.235E00:6 4.629E-01:7 2.316E-16:8 1.580E-04:9 1.829E-06:a -1.555E-04:b 
-4.408E-06:c -1.279E-04:d -1.937E-06:e 1.138E-04:f 1.599E-05:10 -7.455E-04:11 8.698E-07:12 7.754E-04:13 -3.072E-05:14 
#C 1.8901507543E-08 20
3.300E00:1 3.300E00:2 3.300E00:3 3.300E00:4 3.300E00:5 3.235E00:6 4.624E-01:7 1.214E-17:8 1.564E-04:9 1.542E-06:a -1.537E-04:b 
-4.207E-06:c -1.253E-04:d -1.437E-06:e 1.148E-04:f 1.192E-05:10 -7.450E-04:11 -3.376E-07:12 7.764E-04:13 -3.106E-05:14 
#C 1.9000000001E-08 20
3.300E00:1 3.300E00:2 3.300E00:3 3.300E00:4 3.300E00:5 3.235E00:6 4.624E-01:7 1.041E-17:8 1.565E-04:9 1.489E-06:a -1.538E-04:b 
-4.189E-06:c -1.260E-04:d -1.637E-06:e 1.141E-04:f 1.355E-05:10 -7.453E-04:11 1.453E-07:12 7.761E-04:13 -3.093E-05:14 
#C 1.9100000001E-08 20
3.300E00:1 3.300E00:2 3.300E00:3 3.300E00:4 3.300E00:5 3.235E00:6 4.623E-01:7 8.674E-18:8 1.563E-04:9 1.590E-06:a -1.537E-04:b 
-4.177E-06:c -1.259E-04:d -1.637E-06:e 1.140E-04:f 1.355E-05:10 -7.453E-04:11 1.453E-07:12 7.761E-04:13 -3.093E-05:14 
#C 1.9276089817E-08 20
3.300E00:1 3.300E00:2 3.300E00:3 3.300E00:4 3.300E00:5 3.235E00:6 4.623E-01:7 6.072E-18:8 1.561E-04:9 1.590E-06:a -1.535E-04:b 
-4.177E-06:c -1.258E-04:d -1.637E-06:e 1.139E-04:f 1.355E-05:10 -7.453E-04:11 1.453E-07:12 7.761E-04:13 -3.093E-05:14 
#C 1.9628269448E-08 20
3.300E00:1 3.300E00:2 3.300E00:3 3.300E00:4 3.300E00:5 3.235E00:6 4.621E-01:7 3.469E-18:8 1.557E-04:9 1.590E-06:a -1.532E-04:b 
-4.176E-06:c -1.257E-04:d -1.637E-06:e 1.137E-04:f 1.355E-05:10 -7.454E-04:11 1.453E-07:12 7.762E-04:13 -3.093E-05:14 
#C 2.0000000001E-08 20
3.300E00:1 3.300E00:2 3.300E00:3 3.300E00:4 3.300E00:5 3.235E00:6 4.620E-01:7 0.000E00:8 1.553E-04:9 1.590E-06:a -1.528E-04:b 
-4.176E-06:c -1.255E-04:d -1.637E-06:e 1.135E-04:f 1.355E-05:10 -7.454E-04:11 1.453E-07:12 7.762E-04:13 -3.093E-05:14 
#C 2.0070435927E-08 20
3.300E00:1 3.300E00:2 3.300E00:3 3.300E00:4 3.300E00:5 3.235E00:6 4.620E-01:7 0.000E00:8 1.549E-04:9 1.437E-06:a -1.523E-04:b 
-4.052E-06:c -1.254E-04:d -1.637E-06:e 1.135E-04:f 1.355E-05:10 -7.455E-04:11 1.453E-07:12 7.762E-04:13 -3.093E-05:14 
#C 2.0211298467E-08 20
3.300E00:1 3.300E00:2 3.300E00:3 3.300E00:4 3.300E00:5 3.235E00:6 4.619E-01:7 0.000E00:8 1.549E-04:9 1.842E-06:a -1.527E-04:b 
-4.026E-06:c -1.253E-04:d -1.637E-06:e 1.134E-04:f 1.355E-05:10 -7.455E-04:11 1.453E-07:12 7.763E-04:13 -3.093E-05:14 
#C 2.0493023546E-08 20
3.300E00:1 3.300E00:2 3.300E00:3 3.300E00:4 3.300E00:5 3.235E00:6 4.618E-01:7 0.000E00:8 1.546E-04:9 1.507E-06:a -1.521E-04:b 
-3.990E-06:c -1.252E-04:d -1.637E-06:e 1.133E-04:f 1.355E-05:10 -7.455E-04:11 1.453E-07:12 7.763E-04:13 -3.093E-05:14 
#C 2.1056473703E-08 20
3.300E00:1 3.300E00:2 3.300E00:3 3.300E00:4 3.300E00:5 3.235E00:6 4.617E-01:7 0.000E00:8 1.542E-04:9 1.604E-06:a -1.518E-04:b 
-3.911E-06:c -1.249E-04:d -1.637E-06:e 1.130E-04:f 1.355E-05:10 -7.456E-04:11 1.453E-07:12 7.764E-04:13 -3.093E-05:14 
#C 2.2183374018E-08 20
3.300E00:1 3.300E00:2 3.300E00:3 3.300E00:4 3.300E00:5 3.235E00:6 4.613E-01:7 0.000E00:8 1.534E-04:9 1.593E-06:a -1.510E-04:b 
-3.950E-06:c -1.243E-04:d -1.637E-06:e 1.124E-04:f 1.355E-05:10 -7.458E-04:11 1.453E-07:12 7.765E-04:13 -3.093E-05:14 
#C 2.4437174649E-08 20
3.300E00:1 3.300E00:2 3.300E00:3 3.300E00:4 3.300E00:5 3.235E00:6 4.605E-01:7 0.000E00:8 1.524E-04:9 1.798E-06:a -1.508E-04:b 
-3.413E-06:c -1.216E-04:d -1.167E-06:e 1.131E-04:f 9.620E-06:10 -7.449E-04:11 -6.796E-07:12 7.764E-04:13 -3.079E-05:14 
#C 2.8944775910E-08 20
3.300E00:1 3.300E00:2 3.300E00:3 3.300E00:4 3.300E00:5 3.235E00:6 4.589E-01:7 0.000E00:8 1.502E-04:9 1.623E-06:a -1.490E-04:b 
-2.799E-06:c -1.191E-04:d -8.908E-07:e 1.126E-04:f 7.389E-06:10 -7.451E-04:11 8.952E-08:12 7.761E-04:13 -3.105E-05:14 
#C 3.5000000001E-08 20
3.300E00:1 3.300E00:2 3.300E00:3 3.300E00:4 3.300E00:5 3.235E00:6 4.568E-01:7 0.000E00:8 1.476E-04:9 1.662E-06:a -1.461E-04:b 
-3.131E-06:c -1.165E-04:d -5.927E-07:e 1.122E-04:f 4.919E-06:10 -7.449E-04:11 -8.620E-08:12 7.760E-04:13 -3.097E-05:14 
#C 3.5100000001E-08 20
3.300E00:1 3.300E00:2 3.300E00:3 3.300E00:4 3.300E00:5 3.235E00:6 4.568E-01:7 0.000E00:8 1.476E-04:9 1.662E-06:a -1.461E-04:b 
-3.131E-06:c -1.172E-04:d -7.691E-07:e 1.116E-04:f 6.373E-06:10 -7.449E-04:11 -8.620E-08:12 7.760E-04:13 -3.097E-05:14 
#C 3.5300001524E-08 20
3.300E00:1 3.300E00:2 3.300E00:3 3.300E00:4 3.300E00:5 3.235E00:6 4.567E-01:7 0.000E00:8 1.475E-04:9 1.662E-06:a -1.460E-04:b 
-3.131E-06:c -1.171E-04:d -7.691E-07:e 1.115E-04:f 6.373E-06:10 -7.449E-04:11 -8.620E-08:12 7.760E-04:13 -3.097E-05:14 
#C 3.5350001905E-08 20
3.300E00:1 3.300E00:2 3.300E00:3 3.300E00:4 3.300E00:5 3.235E00:6 4.567E-01:7 0.000E00:8 1.475E-04:9 1.662E-06:a -1.460E-04:b 
-3.131E-06:c -1.171E-04:d -7.691E-07:e 1.115E-04:f 6.373E-06:10 -7.449E-04:11 -8.621E-08:12 7.760E-04:13 -3.097E-05:14 
#C 3.5450002666E-08 20
3.300E00:1 3.300E00:2 3.300E00:3 3.300E00:4 3.300E00:5 3.235E00:6 4.567E-01:7 0.000E00:8 1.474E-04:9 1.662E-06:a -1.459E-04:b 
-3.131E-06:c -1.171E-04:d -7.691E-07:e 1.115E-04:f 6.373E-06:10 -7.449E-04:11 -8.621E-08:12 7.760E-04:13 -3.097E-05:14 
#C 3.5475002856E-08 20
3.300E00:1 3.300E00:2 3.300E00:3 3.300E00:4 3.300E00:5 3.235E00:6 4.567E-01:7 0.000E00:8 1.474E-04:9 1.662E-06:a -1.459E-04:b 
-3.131E-06:c -1.171E-04:d -7.691E-07:e 1.115E-04:f 6.373E-06:10 -7.449E-04:11 -8.621E-08:12 7.760E-04:13 -3.097E-05:14 
#C 3.5525003237E-08 20
3.300E00:1 3.300E00:2 3.300E00:3 3.300E00:4 3.300E00:5 3.235E00:6 4.566E-01:7 0.000E00:8 1.474E-04:9 1.662E-06:a -1.459E-04:b 
-3.131E-06:c -1.171E-04:d -7.691E-07:e 1.115E-04:f 6.373E-06:10 -7.449E-04:11 -8.621E-08:12 7.760E-04:13 -3.097E-05:14 
#C 3.5625003999E-08 20
3.300E00:1 3.300E00:2 3.300E00:3 3.300E00:4 3.300E00:5 3.235E00:6 4.566E-01:7 0.000E00:8 1.473E-04:9 1.662E-06:a -1.459E-04:b 
-3.131E-06:c -1.170E-04:d -7.691E-07:e 1.114E-04:f 6.373E-06:10 -7.449E-04:11 -8.621E-08:12 7.760E-04:13 -3.097E-05:14 
#C 3.5650004189E-08 20
3.300E00:1 3.300E00:2 3.300E00:3 3.300E00:4 3.300E00:5 3.235E00:6 4.566E-01:7 0.000E00:8 1.473E-04:9 1.662E-06:a -1.459E-04:b 
-3.131E-06:c -1.170E-04:d -7.691E-07:e 1.114E-04:f 6.373E-06:10 -7.449E-04:11 -8.621E-08:12 7.760E-04:13 -3.097E-05:14 
#C 3.5700004570E-08 20
3.300E00:1 3.300E00:2 3.300E00:3 3.300E00:4 3.300E00:5 3.235E00:6 4.566E-01:7 0.000E00:8 1.473E-04:9 1.662E-06:a -1.458E-04:b 
-3.131E-06:c -1.170E-04:d -7.691E-07:e 1.114E-04:f 6.373E-06:10 -7.449E-04:11 -8.621E-08:12 7.760E-04:13 -3.097E-05:14 
#C 3.5800005331E-08 20
3.300E00:1 3.300E00:2 3.300E00:3 3.300E00:4 3.300E00:5 3.235E00:6 4.566E-01:7 0.000E00:8 1.473E-04:9 1.662E-06:a -1.458E-04:b 
-3.131E-06:c -1.170E-04:d -7.691E-07:e 1.114E-04:f 6.373E-06:10 -7.449E-04:11 -8.621E-08:12 7.760E-04:13 -3.097E-05:14 
#C 3.6000000001E-08 20
3.300E00:1 3.300E00:2 3.300E00:3 3.300E00:4 3.300E00:5 3.235E00:6 4.565E-01:7 0.000E00:8 1.472E-04:9 1.662E-06:a -1.457E-04:b 
-3.131E-06:c -1.169E-04:d -7.691E-07:e 1.113E-04:f 6.373E-06:10 -7.449E-04:11 -8.621E-08:12 7.759E-04:13 -3.097E-05:14 
#C 3.6020000153E-08 20
