#H
SOURCE='PSPICE' VERSION='PSpice 16.0.0 (July 2006)'
TITLE='**** 05/18/10 12:08:24 ******* PSpice 16.0.0 (July 2006) ****** ID# 0 ********'
SUBTITLE=''
TIME='16:01:44' DATE='05/30/10' TEMPERATURE='2.700E01'
ANALYSIS='Transient Analysis' SERIALNO='61413'
ALLVALUES='NO' COMPLEXVALUES='NO' NODES='19'
SWEEPVAR='Time' SWEEPMODE='VAR_STEP'
XBEGIN='0.000E00' XEND='5.000E-08'
FORMAT='0 VOLTSorAMPS;EFLOAT : NODEorBRANCH;NODE  '
DGTLDATA='NO' 
#N 
'V(C_F_D_LSB)' 'V(C_F_D_2SB)' 'V(C_F_D_3SB)' 'V(C_F_D_4SB)' 'V(C_F_D_5SB)' 'V(C_F_D_MSB)' 'V(C_F_C2_NDPOS)' 'ID(M_C_F_C2_M4)' 
'IB(M_C_F_C2_M4)' 'IS(M_C_F_C2_M4)' 'IG(M_C_F_C2_M4)' 'ID(M_C_F_C2_M2)' 'IB(M_C_F_C2_M2)' 'IS(M_C_F_C2_M2)' 'IG(M_C_F_C2_M2)' 
'ID(M_C_F_C2_M12)' 'IB(M_C_F_C2_M12)' 'IS(M_C_F_C2_M12)' 'IG(M_C_F_C2_M12)' 
#C 0.0000000000E00 19
3.300E00:1 3.209E-07:2 3.300E00:3 3.300E00:4 3.300E00:5 3.229E00:6 3.985E00:7 3.857E-03:8 -3.191E-03:9 -6.661E-04:a 0.000E00:b 
1.430E-04:c -4.432E-12:d -1.430E-04:e 0.000E00:f -3.310E-12:10 3.310E-12:11 1.816E-19:12 0.000E00:13 
#C 1.0000000000E-11 19
3.300E00:1 3.209E-07:2 3.300E00:3 3.300E00:4 3.300E00:5 3.229E00:6 3.985E00:7 3.857E-03:8 -3.191E-03:9 -6.661E-04:a -7.682E-12:b 
1.430E-04:c -1.350E-11:d -1.430E-04:e -3.775E-15:f -2.706E-12:10 5.131E-11:11 6.400E-13:12 -4.924E-11:13 
#C 2.0000000000E-11 19
3.300E00:1 3.209E-07:2 3.300E00:3 3.300E00:4 3.300E00:5 3.229E00:6 3.985E00:7 3.857E-03:8 -3.191E-03:9 -6.661E-04:a -7.682E-12:b 
1.430E-04:c -1.350E-11:d -1.430E-04:e -3.775E-15:f -2.706E-12:10 5.131E-11:11 6.400E-13:12 -4.924E-11:13 
#C 4.0000152290E-11 19
3.300E00:1 3.209E-07:2 3.300E00:3 3.300E00:4 3.300E00:5 3.229E00:6 3.985E00:7 3.857E-03:8 -3.191E-03:9 -6.661E-04:a 0.000E00:b 
1.430E-04:c -4.432E-12:d -1.430E-04:e 0.000E00:f -3.310E-12:10 3.310E-12:11 1.816E-19:12 0.000E00:13 
#C 8.0000456870E-11 19
3.300E00:1 3.209E-07:2 3.300E00:3 3.300E00:4 3.300E00:5 3.229E00:6 3.985E00:7 3.857E-03:8 -3.191E-03:9 -6.661E-04:a 0.000E00:b 
1.430E-04:c -4.432E-12:d -1.430E-04:e 0.000E00:f -3.310E-12:10 3.310E-12:11 1.816E-19:12 0.000E00:13 
#C 1.6000106603E-10 19
3.300E00:1 3.209E-07:2 3.300E00:3 3.300E00:4 3.300E00:5 3.229E00:6 3.985E00:7 3.857E-03:8 -3.191E-03:9 -6.661E-04:a 0.000E00:b 
1.430E-04:c -4.432E-12:d -1.430E-04:e 0.000E00:f -3.310E-12:10 3.310E-12:11 1.816E-19:12 0.000E00:13 
#C 3.2000228435E-10 19
3.300E00:1 3.209E-07:2 3.300E00:3 3.300E00:4 3.300E00:5 3.229E00:6 3.985E00:7 3.857E-03:8 -3.191E-03:9 -6.661E-04:a 0.000E00:b 
1.430E-04:c -4.432E-12:d -1.430E-04:e 0.000E00:f -3.310E-12:10 3.310E-12:11 1.816E-19:12 0.000E00:13 
#C 6.4000472099E-10 19
3.300E00:1 3.209E-07:2 3.300E00:3 3.300E00:4 3.300E00:5 3.229E00:6 3.985E00:7 3.857E-03:8 -3.191E-03:9 -6.661E-04:a 0.000E00:b 
1.430E-04:c -4.432E-12:d -1.430E-04:e 0.000E00:f -3.310E-12:10 3.310E-12:11 1.816E-19:12 0.000E00:13 
#C 1.2800095943E-09 19
3.300E00:1 3.209E-07:2 3.300E00:3 3.300E00:4 3.300E00:5 3.229E00:6 3.985E00:7 3.857E-03:8 -3.191E-03:9 -6.661E-04:a 0.000E00:b 
1.430E-04:c -4.432E-12:d -1.430E-04:e 0.000E00:f -3.310E-12:10 3.310E-12:11 1.816E-19:12 0.000E00:13 
#C 2.0000000001E-09 19
3.300E00:1 3.209E-07:2 3.300E00:3 3.300E00:4 3.300E00:5 3.229E00:6 3.985E00:7 3.857E-03:8 -3.191E-03:9 -6.661E-04:a 0.000E00:b 
1.430E-04:c -4.432E-12:d -1.430E-04:e 0.000E00:f -3.310E-12:10 3.310E-12:11 1.816E-19:12 0.000E00:13 
#C 2.0200000001E-09 19
3.300E00:1 3.119E-07:2 3.300E00:3 3.300E00:4 3.300E00:5 3.229E00:6 3.984E00:7 3.682E-03:8 -3.097E-03:9 -7.364E-04:a 1.521E-04:b 
1.430E-04:c -4.432E-12:d -1.430E-04:e 0.000E00:f 2.167E-05:10 1.720E-03:11 2.295E-05:12 -1.765E-03:13 
#C 2.0600003047E-09 19
3.300E00:1 3.212E-07:2 3.300E00:3 3.300E00:4 3.300E00:5 3.229E00:6 3.982E00:7 3.321E-03:8 -2.794E-03:9 -7.811E-04:a 2.532E-04:b 
1.351E-04:c 4.227E-06:d -1.393E-04:e 5.845E-09:f 3.503E-05:10 2.839E-03:11 3.796E-05:12 -2.912E-03:13 
#C 2.1400009138E-09 19
3.300E00:1 3.248E-07:2 3.300E00:3 3.300E00:4 3.300E00:5 3.229E00:6 3.976E00:7 2.792E-03:8 -2.267E-03:9 -7.745E-04:a 2.498E-04:b 
1.350E-04:c 4.227E-06:d -1.393E-04:e 5.995E-09:f 3.503E-05:10 2.813E-03:11 3.796E-05:12 -2.886E-03:13 
#C 2.2000000001E-09 19
3.300E00:1 3.151E-07:2 3.300E00:3 3.300E00:4 3.300E00:5 3.229E00:6 3.972E00:7 2.486E-03:8 -1.951E-03:9 -7.585E-04:a 2.233E-04:b 
1.445E-04:c -1.355E-06:d -1.431E-04:e 2.028E-08:f 3.503E-05:10 2.808E-03:11 3.796E-05:12 -2.881E-03:13 
#C 2.2160001219E-09 19
3.300E00:1 3.211E-07:2 3.300E00:3 3.300E00:4 3.300E00:5 3.229E00:6 3.971E00:7 2.403E-03:8 -1.871E-03:9 -7.588E-04:a 2.263E-04:b 
1.397E-04:c 1.436E-06:d -1.412E-04:e 1.315E-08:f 3.503E-05:10 2.802E-03:11 3.796E-05:12 -2.875E-03:13 
#C 2.2480026939E-09 19
3.300E00:1 3.217E-07:2 3.300E00:3 3.300E00:4 3.300E00:5 3.229E00:6 3.969E00:7 2.297E-03:8 -1.749E-03:9 -7.422E-04:a 1.940E-04:b 
1.397E-04:c 1.436E-06:d -1.412E-04:e 1.315E-08:f 3.503E-05:10 2.797E-03:11 3.796E-05:12 -2.870E-03:13 
#C 2.3120078378E-09 19
3.300E00:1 3.201E-07:2 3.300E00:3 3.300E00:4 3.300E00:5 3.229E00:6 3.966E00:7 2.053E-03:8 -1.524E-03:9 -7.524E-04:a 2.228E-04:b 
1.397E-04:c 1.436E-06:d -1.411E-04:e 1.317E-08:f 1.991E-05:10 1.345E-03:11 1.839E-05:12 -1.384E-03:13 
#C 2.4400181257E-09 19
3.300E00:1 3.198E-07:2 3.300E00:3 3.300E00:4 3.300E00:5 3.229E00:6 3.962E00:7 1.951E-03:8 -1.330E-03:9 -6.666E-04:a 4.578E-05:b 
1.397E-04:c 1.436E-06:d -1.411E-04:e 1.319E-08:f 6.323E-06:10 5.353E-04:11 7.374E-06:12 -5.490E-04:13 
#C 2.6960387015E-09 19
3.300E00:1 3.195E-07:2 3.300E00:3 3.300E00:4 3.300E00:5 3.229E00:6 3.961E00:7 1.934E-03:8 -1.270E-03:9 -6.260E-04:a -3.837E-05:b 
1.441E-04:c -8.329E-07:d -1.433E-04:e 3.149E-08:f -5.465E-06:10 -4.536E-04:11 -6.186E-06:12 4.652E-04:13 
#C 3.2080798530E-09 19
3.300E00:1 3.223E-07:2 3.300E00:3 3.300E00:4 3.300E00:5 3.229E00:6 3.970E00:7 2.439E-03:8 -1.749E-03:9 -6.178E-04:a -7.244E-05:b 
1.448E-04:c -1.052E-06:d -1.438E-04:e 1.432E-08:f -1.192E-05:10 -9.510E-04:11 -1.296E-05:12 9.758E-04:13 
#C 4.2081340336E-09 19
3.300E00:1 3.209E-07:2 3.300E00:3 3.300E00:4 3.300E00:5 3.229E00:6 3.982E00:7 3.456E-03:8 -2.776E-03:9 -6.469E-04:a -3.339E-05:b 
1.437E-04:c -3.323E-07:d -1.433E-04:e -5.673E-09:f -4.280E-06:10 -3.348E-04:11 -4.440E-06:12 3.435E-04:13 
#C 5.2081882143E-09 19
3.300E00:1 3.209E-07:2 3.300E00:3 3.300E00:4 3.300E00:5 3.229E00:6 3.985E00:7 3.882E-03:8 -3.220E-03:9 -6.694E-04:a 7.404E-06:b 
1.431E-04:c 2.146E-08:d -1.431E-04:e -1.052E-08:f 3.604E-07:10 3.248E-05:11 4.005E-07:12 -3.324E-05:13 
#C 6.2082423949E-09 19
3.300E00:1 3.209E-07:2 3.300E00:3 3.300E00:4 3.300E00:5 3.229E00:6 3.985E00:7 3.849E-03:8 -3.181E-03:9 -6.633E-04:a -5.051E-06:b 
1.428E-04:c 1.692E-07:d -1.429E-04:e -6.788E-09:f -3.288E-07:10 -2.280E-05:11 -2.715E-07:12 2.340E-05:13 
#C 7.2082965755E-09 19
3.300E00:1 3.209E-07:2 3.300E00:3 3.300E00:4 3.300E00:5 3.229E00:6 3.985E00:7 3.850E-03:8 -3.182E-03:9 -6.642E-04:a -3.333E-06:b 
1.428E-04:c 1.692E-07:d -1.429E-04:e -6.788E-09:f -3.288E-07:10 -2.280E-05:11 -2.715E-07:12 2.340E-05:13 
#C 8.2083507561E-09 19
3.300E00:1 3.209E-07:2 3.300E00:3 3.300E00:4 3.300E00:5 3.229E00:6 3.985E00:7 3.875E-03:8 -3.212E-03:9 -6.685E-04:a 5.507E-06:b 
1.433E-04:c -1.692E-07:d -1.431E-04:e 6.788E-09:f 3.288E-07:10 2.280E-05:11 2.715E-07:12 -2.340E-05:13 
#C 9.2084049367E-09 19
3.300E00:1 3.209E-07:2 3.300E00:3 3.300E00:4 3.300E00:5 3.229E00:6 3.985E00:7 3.862E-03:8 -3.196E-03:9 -6.658E-04:a 1.055E-07:b 
1.430E-04:c -4.432E-12:d -1.430E-04:e 0.000E00:f -3.310E-12:10 3.310E-12:11 -2.421E-18:12 -8.674E-19:13 
#C 1.0208459117E-08 19
3.300E00:1 3.209E-07:2 3.300E00:3 3.300E00:4 3.300E00:5 3.229E00:6 3.985E00:7 3.862E-03:8 -3.196E-03:9 -6.658E-04:a 9.566E-09:b 
1.430E-04:c -4.432E-12:d -1.430E-04:e 0.000E00:f -3.310E-12:10 3.310E-12:11 -2.421E-18:12 -8.674E-19:13 
#C 1.1208513298E-08 19
3.300E00:1 3.209E-07:2 3.300E00:3 3.300E00:4 3.300E00:5 3.229E00:6 3.985E00:7 3.862E-03:8 -3.196E-03:9 -6.658E-04:a 9.566E-09:b 
1.430E-04:c -4.432E-12:d -1.430E-04:e 0.000E00:f -3.310E-12:10 3.310E-12:11 -2.421E-18:12 -8.674E-19:13 
#C 1.2208567479E-08 19
3.300E00:1 3.209E-07:2 3.300E00:3 3.300E00:4 3.300E00:5 3.229E00:6 3.985E00:7 3.862E-03:8 -3.196E-03:9 -6.658E-04:a 9.566E-09:b 
1.430E-04:c -4.432E-12:d -1.430E-04:e 0.000E00:f -3.310E-12:10 3.310E-12:11 -2.421E-18:12 -8.674E-19:13 
#C 1.3208621659E-08 19
3.300E00:1 3.209E-07:2 3.300E00:3 3.300E00:4 3.300E00:5 3.229E00:6 3.985E00:7 3.862E-03:8 -3.196E-03:9 -6.658E-04:a 9.566E-09:b 
1.430E-04:c -4.432E-12:d -1.430E-04:e 0.000E00:f -3.310E-12:10 3.310E-12:11 -2.421E-18:12 -8.674E-19:13 
#C 1.4208675840E-08 19
3.300E00:1 3.209E-07:2 3.300E00:3 3.300E00:4 3.300E00:5 3.229E00:6 3.985E00:7 3.862E-03:8 -3.196E-03:9 -6.658E-04:a 9.566E-09:b 
1.430E-04:c -4.432E-12:d -1.430E-04:e 0.000E00:f -3.310E-12:10 3.310E-12:11 -2.421E-18:12 -8.674E-19:13 
#C 1.5000000000E-08 19
3.300E00:1 3.209E-07:2 3.300E00:3 3.300E00:4 3.300E00:5 3.229E00:6 3.985E00:7 3.862E-03:8 -3.196E-03:9 -6.657E-04:a -9.566E-09:b 
1.430E-04:c -4.432E-12:d -1.430E-04:e 0.000E00:f -3.310E-12:10 3.310E-12:11 2.783E-18:12 8.674E-19:13 
#C 1.5100000000E-08 19
3.300E00:1 2.513E-05:2 3.300E00:3 3.300E00:4 3.300E00:5 3.229E00:6 3.985E00:7 3.868E-03:8 -3.202E-03:9 -6.653E-04:a -9.686E-07:b 
1.430E-04:c -4.432E-12:d -1.430E-04:e 0.000E00:f -3.310E-12:10 3.310E-12:11 1.809E-19:12 0.000E00:13 
#C 1.5125000190E-08 19
3.300E00:1 1.140E-05:2 3.300E00:3 3.300E00:4 3.300E00:5 3.229E00:6 3.985E00:7 3.870E-03:8 -3.203E-03:9 -6.653E-04:a -9.687E-07:b 
1.430E-04:c -4.432E-12:d -1.430E-04:e 0.000E00:f -3.310E-12:10 3.310E-12:11 1.809E-19:12 0.000E00:13 
#C 1.5175000571E-08 19
3.300E00:1 -2.033E-04:2 3.300E00:3 3.300E00:4 3.300E00:5 3.229E00:6 3.985E00:7 3.873E-03:8 -3.206E-03:9 -6.654E-04:a -9.689E-07:b 
1.430E-04:c -4.432E-12:d -1.430E-04:e 0.000E00:f -3.310E-12:10 3.310E-12:11 1.809E-19:12 0.000E00:13 
#C 1.5275001333E-08 19
3.300E00:1 -1.681E-03:2 3.300E00:3 3.300E00:4 3.300E00:5 3.229E00:6 3.985E00:7 3.869E-03:8 -3.203E-03:9 -6.653E-04:a -9.761E-07:b 
1.430E-04:c -4.432E-12:d -1.430E-04:e 2.776E-17:f -3.310E-12:10 3.310E-12:11 1.059E-17:12 -2.776E-17:13 
#C 1.5300001523E-08 19
3.300E00:1 -1.798E-03:2 3.300E00:3 3.300E00:4 3.300E00:5 3.229E00:6 3.985E00:7 3.868E-03:8 -3.202E-03:9 -6.653E-04:a -9.732E-07:b 
1.430E-04:c -4.432E-12:d -1.430E-04:e 1.388E-17:f -3.310E-12:10 3.310E-12:11 3.574E-17:12 3.816E-17:13 
#C 1.5350001904E-08 19
3.300E00:1 -2.168E-03:2 3.300E00:3 3.300E00:4 3.300E00:5 3.229E00:6 3.985E00:7 3.871E-03:8 -3.204E-03:9 -6.650E-04:a -1.666E-06:b 
1.430E-04:c -4.432E-12:d -1.430E-04:e 1.110E-16:f -3.310E-12:10 3.310E-12:11 8.345E-17:12 0.000E00:13 
#C 1.5450002665E-08 19
3.300E00:1 -4.946E-03:2 3.300E00:3 3.300E00:4 3.300E00:5 3.229E00:6 3.985E00:7 3.869E-03:8 -3.203E-03:9 -6.658E-04:a 1.005E-07:b 
1.430E-04:c -4.432E-12:d -1.430E-04:e 2.776E-17:f -3.310E-12:10 3.310E-12:11 1.059E-17:12 -2.776E-17:13 
#C 1.5475002856E-08 19
3.300E00:1 -5.207E-03:2 3.300E00:3 3.300E00:4 3.300E00:5 3.229E00:6 3.985E00:7 3.869E-03:8 -3.203E-03:9 -6.656E-04:a -4.954E-07:b 
1.430E-04:c -4.432E-12:d -1.430E-04:e 1.388E-17:f -3.310E-12:10 3.310E-12:11 3.574E-17:12 3.816E-17:13 
#C 1.5525003236E-08 19
3.300E00:1 -1.792E-03:2 3.300E00:3 3.300E00:4 3.300E00:5 3.229E00:6 3.985E00:7 3.869E-03:8 -3.202E-03:9 -6.656E-04:a -4.954E-07:b 
1.430E-04:c -4.432E-12:d -1.430E-04:e 1.110E-16:f -3.310E-12:10 3.310E-12:11 8.345E-17:12 0.000E00:13 
#C 1.5537503331E-08 19
3.300E00:1 -9.708E-04:2 3.300E00:3 3.300E00:4 3.300E00:5 3.229E00:6 3.985E00:7 3.868E-03:8 -3.202E-03:9 -6.656E-04:a -4.954E-07:b 
1.430E-04:c -4.432E-12:d -1.430E-04:e -1.041E-16:f -3.310E-12:10 3.310E-12:11 -1.543E-17:12 4.857E-17:13 
#C 1.5562503522E-08 19
3.300E00:1 -2.076E-04:2 3.300E00:3 3.300E00:4 3.300E00:5 3.229E00:6 3.985E00:7 3.868E-03:8 -3.202E-03:9 -6.656E-04:a -4.954E-07:b 
1.430E-04:c -4.432E-12:d -1.430E-04:e -1.110E-16:f -3.310E-12:10 3.310E-12:11 -1.108E-16:12 1.110E-16:13 
#C 1.5568753569E-08 19
3.300E00:1 -1.860E-04:2 3.300E00:3 3.300E00:4 3.300E00:5 3.229E00:6 3.985E00:7 3.868E-03:8 -3.202E-03:9 -6.656E-04:a -4.954E-07:b 
1.430E-04:c -4.432E-12:d -1.430E-04:e -1.388E-16:f -3.310E-12:10 3.310E-12:11 -1.421E-16:12 2.220E-16:13 
#C 1.5581253665E-08 19
3.300E00:1 -2.084E-04:2 3.300E00:3 3.300E00:4 3.300E00:5 3.229E00:6 3.985E00:7 3.868E-03:8 -3.202E-03:9 -6.656E-04:a -4.954E-07:b 
1.430E-04:c -4.432E-12:d -1.430E-04:e 0.000E00:f -3.310E-12:10 3.309E-12:11 1.390E-16:12 4.441E-16:13 
#C 1.5606253855E-08 19
3.300E00:1 -2.476E-04:2 3.300E00:3 3.300E00:4 3.300E00:5 3.229E00:6 3.985E00:7 3.868E-03:8 -3.202E-03:9 -6.656E-04:a -4.954E-07:b 
1.430E-04:c -4.432E-12:d -1.430E-04:e -1.110E-16:f -3.310E-12:10 3.310E-12:11 1.406E-17:12 2.220E-16:13 
#C 1.5656254236E-08 19
3.300E00:1 -2.315E-04:2 3.300E00:3 3.300E00:4 3.300E00:5 3.229E00:6 3.985E00:7 3.867E-03:8 -3.201E-03:9 -6.656E-04:a -4.954E-07:b 
1.430E-04:c -4.432E-12:d -1.430E-04:e 0.000E00:f -3.310E-12:10 3.310E-12:11 -4.145E-17:12 -5.551E-17:13 
#C 1.5731330477E-08 19
3.300E00:1 -1.799E-04:2 3.300E00:3 3.300E00:4 3.300E00:5 3.229E00:6 3.985E00:7 3.867E-03:8 -3.201E-03:9 -6.656E-04:a -4.954E-07:b 
1.430E-04:c -4.432E-12:d -1.430E-04:e 0.000E00:f -3.310E-12:10 3.310E-12:11 -2.757E-17:12 2.776E-17:13 
#C 1.5845219586E-08 19
3.300E00:1 -1.211E-04:2 3.300E00:3 3.300E00:4 3.300E00:5 3.229E00:6 3.985E00:7 3.866E-03:8 -3.200E-03:9 -6.656E-04:a -4.954E-07:b 
1.430E-04:c -4.432E-12:d -1.430E-04:e 2.776E-17:f -3.310E-12:10 3.310E-12:11 -3.451E-17:12 -4.163E-17:13 
#C 1.6000000000E-08 19
3.300E00:1 -1.962E-05:2 3.300E00:3 3.300E00:4 3.300E00:5 3.229E00:6 3.985E00:7 3.868E-03:8 -3.202E-03:9 -6.663E-04:a 1.000E-06:b 
1.430E-04:c -4.432E-12:d -1.430E-04:e -1.388E-17:f -3.310E-12:10 3.310E-12:11 1.809E-19:12 1.388E-17:13 
#C 1.6022777822E-08 19
3.300E00:1 -8.922E-05:2 3.300E00:3 3.300E00:4 3.300E00:5 3.229E00:6 3.985E00:7 3.868E-03:8 -3.203E-03:9 -6.660E-04:a 4.535E-07:b 
1.430E-04:c -4.432E-12:d -1.430E-04:e 0.000E00:f -3.310E-12:10 3.310E-12:11 1.809E-19:12 0.000E00:13 
#C 1.6068331137E-08 19
3.300E00:1 4.433E-06:2 3.300E00:3 3.300E00:4 3.300E00:5 3.229E00:6 3.985E00:7 3.869E-03:8 -3.203E-03:9 -6.660E-04:a 4.535E-07:b 
1.430E-04:c -4.432E-12:d -1.430E-04:e -5.551E-17:f -3.310E-12:10 3.310E-12:11 -4.145E-17:12 5.551E-17:13 
#C 1.6159437768E-08 19
3.300E00:1 2.115E-05:2 3.300E00:3 3.300E00:4 3.300E00:5 3.229E00:6 3.985E00:7 3.870E-03:8 -3.205E-03:9 -6.660E-04:a 4.535E-07:b 
1.430E-04:c -4.432E-12:d -1.430E-04:e -2.776E-17:f -3.310E-12:10 3.310E-12:11 -8.309E-17:12 8.327E-17:13 
#C 1.6341651030E-08 19
3.300E00:1 1.655E-06:2 3.300E00:3 3.300E00:4 3.300E00:5 3.229E00:6 3.985E00:7 3.868E-03:8 -3.202E-03:9 -6.660E-04:a 3.632E-07:b 
1.430E-04:c -4.432E-12:d -1.430E-04:e -1.388E-17:f -3.310E-12:10 3.310E-12:11 -4.145E-17:12 4.163E-17:13 
#C 1.6706077553E-08 19
3.300E00:1 6.270E-07:2 3.300E00:3 3.300E00:4 3.300E00:5 3.229E00:6 3.985E00:7 3.866E-03:8 -3.200E-03:9 -6.659E-04:a 2.561E-07:b 
1.430E-04:c -4.432E-12:d -1.430E-04:e -6.939E-18:f -3.310E-12:10 3.310E-12:11 -2.064E-17:12 2.082E-17:13 
#C 1.7434930600E-08 19
3.300E00:1 -1.310E-07:2 3.300E00:3 3.300E00:4 3.300E00:5 3.229E00:6 3.985E00:7 3.861E-03:8 -3.196E-03:9 -6.659E-04:a 3.134E-07:b 
1.430E-04:c -4.432E-12:d -1.430E-04:e 6.939E-18:f -3.310E-12:10 3.310E-12:11 1.048E-18:12 0.000E00:13 
#C 1.8434984781E-08 19
3.300E00:1 3.767E-08:2 3.300E00:3 3.300E00:4 3.300E00:5 3.229E00:6 3.985E00:7 3.862E-03:8 -3.196E-03:9 -6.657E-04:a -2.877E-08:b 
1.430E-04:c -4.432E-12:d -1.430E-04:e 3.469E-18:f -3.310E-12:10 3.310E-12:11 -5.457E-18:12 1.735E-18:13 
#C 1.9000000000E-08 19
3.300E00:1 2.626E-07:2 3.300E00:3 3.300E00:4 3.300E00:5 3.229E00:6 3.985E00:7 3.862E-03:8 -3.196E-03:9 -6.658E-04:a 9.661E-08:b 
1.430E-04:c -4.432E-12:d -1.430E-04:e -3.469E-18:f -3.310E-12:10 3.310E-12:11 1.809E-19:12 4.337E-18:13 
#C 1.9100000000E-08 19
3.300E00:1 9.055E-06:2 3.300E00:3 3.300E00:4 3.300E00:5 3.229E00:6 3.985E00:7 3.868E-03:8 -3.202E-03:9 -6.652E-04:a -1.315E-06:b 
1.430E-04:c -4.432E-12:d -1.430E-04:e 0.000E00:f -3.310E-12:10 3.310E-12:11 1.809E-19:12 0.000E00:13 
#C 1.9300001523E-08 19
3.300E00:1 1.286E-04:2 3.300E00:3 3.300E00:4 3.300E00:5 3.229E00:6 3.985E00:7 3.866E-03:8 -3.200E-03:9 -6.657E-04:a -2.302E-07:b 
1.430E-04:c -4.432E-12:d -1.430E-04:e 0.000E00:f -3.310E-12:10 3.310E-12:11 1.809E-19:12 0.000E00:13 
#C 1.9700004569E-08 19
3.300E00:1 2.237E-03:2 3.300E00:3 3.300E00:4 3.300E00:5 3.229E00:6 3.985E00:7 3.862E-03:8 -3.196E-03:9 -6.656E-04:a -2.302E-07:b 
1.430E-04:c -4.432E-12:d -1.430E-04:e 6.939E-18:f -3.310E-12:10 3.310E-12:11 -1.023E-17:12 -6.939E-18:13 
#C 2.0000000000E-08 19
3.300E00:1 1.260E-03:2 3.300E00:3 3.300E00:4 3.300E00:5 3.229E00:6 3.985E00:7 3.866E-03:8 -3.200E-03:9 -6.658E-04:a 4.194E-08:b 
1.430E-04:c -4.432E-12:d -1.430E-04:e 6.939E-18:f -3.310E-12:10 3.310E-12:11 8.855E-18:12 -1.041E-17:13 
#C 2.0065006316E-08 19
3.300E00:1 3.367E-04:2 3.300E00:3 3.300E00:4 3.300E00:5 3.229E00:6 3.985E00:7 3.866E-03:8 -3.201E-03:9 -6.658E-04:a -3.971E-08:b 
1.430E-04:c -4.432E-12:d -1.430E-04:e 0.000E00:f -3.310E-12:10 3.310E-12:11 1.809E-19:12 0.000E00:13 
#C 2.0195018947E-08 19
3.300E00:1 -1.479E-04:2 3.300E00:3 3.300E00:4 3.300E00:5 3.229E00:6 3.985E00:7 3.868E-03:8 -3.202E-03:9 -6.658E-04:a -3.972E-08:b 
1.430E-04:c -4.432E-12:d -1.430E-04:e 0.000E00:f -3.310E-12:10 3.310E-12:11 -2.757E-17:12 0.000E00:13 
#C 2.0455044210E-08 19
3.300E00:1 -4.244E-05:2 3.300E00:3 3.300E00:4 3.300E00:5 3.229E00:6 3.985E00:7 3.867E-03:8 -3.201E-03:9 -6.657E-04:a -7.279E-08:b 
1.430E-04:c -4.432E-12:d -1.430E-04:e 1.388E-17:f -3.310E-12:10 3.310E-12:11 -2.584E-17:12 1.388E-17:13 
#C 2.0975094736E-08 19
3.300E00:1 4.572E-06:2 3.300E00:3 3.300E00:4 3.300E00:5 3.229E00:6 3.985E00:7 3.864E-03:8 -3.198E-03:9 -6.657E-04:a -5.957E-08:b 
1.430E-04:c -4.432E-12:d -1.430E-04:e 0.000E00:f -3.310E-12:10 3.310E-12:11 1.809E-19:12 6.939E-18:13 
#C 2.1975148916E-08 19
3.300E00:1 6.756E-07:2 3.300E00:3 3.300E00:4 3.300E00:5 3.229E00:6 3.985E00:7 3.862E-03:8 -3.196E-03:9 -6.658E-04:a 1.457E-07:b 
1.430E-04:c -4.432E-12:d -1.430E-04:e 3.469E-18:f -3.310E-12:10 3.310E-12:11 -3.289E-18:12 0.000E00:13 
#C 2.2975203097E-08 19
3.300E00:1 3.432E-07:2 3.300E00:3 3.300E00:4 3.300E00:5 3.229E00:6 3.985E00:7 3.862E-03:8 -3.196E-03:9 -6.658E-04:a 1.457E-07:b 
1.430E-04:c -4.432E-12:d -1.430E-04:e 3.469E-18:f -3.310E-12:10 3.310E-12:11 -3.289E-18:12 0.000E00:13 
#C 2.3975257278E-08 19
3.300E00:1 4.406E-07:2 3.300E00:3 3.300E00:4 3.300E00:5 3.229E00:6 3.985E00:7 3.862E-03:8 -3.196E-03:9 -6.658E-04:a 1.457E-07:b 
1.430E-04:c -4.432E-12:d -1.430E-04:e 3.469E-18:f -3.310E-12:10 3.310E-12:11 -3.289E-18:12 0.000E00:13 
#C 2.4975311458E-08 19
3.300E00:1 3.957E-07:2 3.300E00:3 3.300E00:4 3.300E00:5 3.229E00:6 3.985E00:7 3.862E-03:8 -3.196E-03:9 -6.658E-04:a 1.457E-07:b 
1.430E-04:c -4.432E-12:d -1.430E-04:e 3.469E-18:f -3.310E-12:10 3.310E-12:11 -3.289E-18:12 0.000E00:13 
#C 2.5975365639E-08 19
3.300E00:1 3.991E-07:2 3.300E00:3 3.300E00:4 3.300E00:5 3.229E00:6 3.985E00:7 3.862E-03:8 -3.196E-03:9 -6.658E-04:a 1.457E-07:b 
1.430E-04:c -4.432E-12:d -1.430E-04:e 3.469E-18:f -3.310E-12:10 3.310E-12:11 -3.289E-18:12 0.000E00:13 
#C 2.6975419819E-08 19
3.300E00:1 4.007E-07:2 3.300E00:3 3.300E00:4 3.300E00:5 3.229E00:6 3.985E00:7 3.862E-03:8 -3.196E-03:9 -6.658E-04:a 1.457E-07:b 
1.430E-04:c -4.432E-12:d -1.430E-04:e 3.469E-18:f -3.310E-12:10 3.310E-12:11 -3.289E-18:12 0.000E00:13 
#C 2.7975474000E-08 19
3.300E00:1 4.007E-07:2 3.300E00:3 3.300E00:4 3.300E00:5 3.229E00:6 3.985E00:7 3.862E-03:8 -3.196E-03:9 -6.658E-04:a 1.457E-07:b 
1.430E-04:c -4.432E-12:d -1.430E-04:e 3.469E-18:f -3.310E-12:10 3.310E-12:11 -3.289E-18:12 0.000E00:13 
#C 2.8975528181E-08 19
3.300E00:1 4.007E-07:2 3.300E00:3 3.300E00:4 3.300E00:5 3.229E00:6 3.985E00:7 3.862E-03:8 -3.196E-03:9 -6.658E-04:a 1.457E-07:b 
