#H
SOURCE='PSPICE' VERSION='PSpice 16.0.0 (July 2006)'
TITLE='**** 05/18/10 12:08:24 ******* PSpice 16.0.0 (July 2006) ****** ID# 0 ********'
SUBTITLE=''
TIME='16:03:39' DATE='05/30/10' TEMPERATURE='2.700E01'
ANALYSIS='Transient Analysis' SERIALNO='61413'
ALLVALUES='NO' COMPLEXVALUES='NO' NODES='19'
SWEEPVAR='Time' SWEEPMODE='VAR_STEP'
XBEGIN='0.000E00' XEND='5.000E-08'
FORMAT='0 VOLTSorAMPS;EFLOAT : NODEorBRANCH;NODE  '
DGTLDATA='NO' 
#N 
'V(C_F_D_LSB)' 'V(C_F_D_2SB)' 'V(C_F_D_3SB)' 'V(C_F_D_4SB)' 'V(C_F_D_5SB)' 'V(C_F_D_MSB)' 'V(C_F_C58_NDNEG)' 'ID(M_C_F_C58_M4)' 
'IB(M_C_F_C58_M4)' 'IS(M_C_F_C58_M4)' 'IG(M_C_F_C58_M4)' 'ID(M_C_F_C58_M3)' 'IB(M_C_F_C58_M3)' 'IS(M_C_F_C58_M3)' 'IG(M_C_F_C58_M3)' 
'ID(M_C_F_C58_M1)' 'IB(M_C_F_C58_M1)' 'IS(M_C_F_C58_M1)' 'IG(M_C_F_C58_M1)' 
#C 0.0000000000E00 19
3.300E00:1 3.300E00:2 3.300E00:3 3.300E00:4 3.300E00:5 3.229E00:6 3.989E00:7 -2.948E-12:8 2.948E-12:9 2.819E-20:a 0.000E00:b 
3.764E-03:c -3.764E-03:d -1.001E-08:e 0.000E00:f 2.360E-04:10 -4.371E-12:11 -2.360E-04:12 0.000E00:13 
#C 1.0000000000E-11 19
3.300E00:1 3.300E00:2 3.300E00:3 3.300E00:4 3.300E00:5 3.229E00:6 3.989E00:7 -2.950E-12:8 4.009E-12:9 1.411E-14:a -1.073E-12:b 
3.764E-03:c -3.764E-03:d -1.001E-08:e -2.687E-13:f 2.360E-04:10 -4.490E-12:11 -2.360E-04:12 -7.505E-13:13 
#C 2.0000000000E-11 19
3.300E00:1 3.300E00:2 3.300E00:3 3.300E00:4 3.300E00:5 3.229E00:6 3.989E00:7 -2.950E-12:8 4.009E-12:9 1.411E-14:a -1.073E-12:b 
3.764E-03:c -3.764E-03:d -1.001E-08:e -2.687E-13:f 2.360E-04:10 -4.490E-12:11 -2.360E-04:12 -7.505E-13:13 
#C 4.0000152290E-11 19
3.300E00:1 3.300E00:2 3.300E00:3 3.300E00:4 3.300E00:5 3.229E00:6 3.989E00:7 -2.948E-12:8 2.948E-12:9 2.819E-20:a 0.000E00:b 
3.764E-03:c -3.764E-03:d -1.001E-08:e 0.000E00:f 2.360E-04:10 -4.371E-12:11 -2.360E-04:12 0.000E00:13 
#C 8.0000456870E-11 19
3.300E00:1 3.300E00:2 3.300E00:3 3.300E00:4 3.300E00:5 3.229E00:6 3.989E00:7 -2.948E-12:8 2.948E-12:9 2.819E-20:a 0.000E00:b 
3.764E-03:c -3.764E-03:d -1.001E-08:e 0.000E00:f 2.360E-04:10 -4.371E-12:11 -2.360E-04:12 0.000E00:13 
#C 1.6000106603E-10 19
3.300E00:1 3.300E00:2 3.300E00:3 3.300E00:4 3.300E00:5 3.229E00:6 3.989E00:7 -2.948E-12:8 2.948E-12:9 2.819E-20:a 0.000E00:b 
3.764E-03:c -3.764E-03:d -1.001E-08:e 0.000E00:f 2.360E-04:10 -4.371E-12:11 -2.360E-04:12 0.000E00:13 
#C 3.2000228435E-10 19
3.300E00:1 3.300E00:2 3.300E00:3 3.300E00:4 3.300E00:5 3.229E00:6 3.989E00:7 -2.948E-12:8 2.948E-12:9 2.819E-20:a 0.000E00:b 
3.764E-03:c -3.764E-03:d -1.001E-08:e 0.000E00:f 2.360E-04:10 -4.371E-12:11 -2.360E-04:12 0.000E00:13 
#C 6.4000472099E-10 19
3.300E00:1 3.300E00:2 3.300E00:3 3.300E00:4 3.300E00:5 3.229E00:6 3.989E00:7 -2.948E-12:8 2.948E-12:9 2.819E-20:a 0.000E00:b 
3.764E-03:c -3.764E-03:d -1.001E-08:e 0.000E00:f 2.360E-04:10 -4.371E-12:11 -2.360E-04:12 0.000E00:13 
#C 1.2800095943E-09 19
3.300E00:1 3.300E00:2 3.300E00:3 3.300E00:4 3.300E00:5 3.229E00:6 3.989E00:7 -2.948E-12:8 2.948E-12:9 2.819E-20:a 0.000E00:b 
3.764E-03:c -3.764E-03:d -1.001E-08:e 0.000E00:f 2.360E-04:10 -4.371E-12:11 -2.360E-04:12 0.000E00:13 
#C 2.0000000001E-09 19
3.300E00:1 3.300E00:2 3.300E00:3 3.300E00:4 3.300E00:5 3.229E00:6 3.989E00:7 -2.948E-12:8 2.948E-12:9 2.819E-20:a 0.000E00:b 
3.764E-03:c -3.764E-03:d -1.001E-08:e 0.000E00:f 2.360E-04:10 -4.371E-12:11 -2.360E-04:12 0.000E00:13 
#C 2.0200000001E-09 19
3.300E00:1 3.300E00:2 3.300E00:3 3.300E00:4 3.300E00:5 3.229E00:6 3.986E00:7 1.530E-05:8 1.155E-03:9 1.536E-05:a -1.186E-03:b 
3.337E-03:c -3.054E-03:d 1.545E-05:e -2.978E-04:f 2.177E-04:10 3.413E-06:11 -2.341E-04:12 1.289E-05:13 
#C 2.0600003047E-09 19
3.300E00:1 3.300E00:2 3.300E00:3 3.300E00:4 3.300E00:5 3.229E00:6 3.978E00:7 2.141E-05:8 1.603E-03:9 2.146E-05:a -1.646E-03:b 
2.395E-03:c -2.005E-03:d 2.126E-05:e -4.120E-04:f 2.177E-04:10 3.413E-06:11 -2.340E-04:12 1.289E-05:13 
#C 2.1400009138E-09 19
3.300E00:1 3.300E00:2 3.300E00:3 3.300E00:4 3.300E00:5 3.229E00:6 3.963E00:7 1.603E-05:8 1.156E-03:9 1.597E-05:a -1.188E-03:b 
1.344E-03:c -1.046E-03:d 1.581E-05:e -3.146E-04:f 2.008E-04:10 6.717E-06:11 -2.340E-04:12 2.651E-05:13 
#C 2.2000000001E-09 19
3.300E00:1 3.300E00:2 3.300E00:3 3.300E00:4 3.300E00:5 3.229E00:6 3.954E00:7 1.258E-05:8 9.222E-04:9 1.259E-05:a -9.474E-04:b 
9.652E-04:c -7.301E-04:d 1.255E-05:e -2.477E-04:f 2.404E-04:10 -1.267E-06:11 -2.309E-04:12 -8.192E-06:13 
#C 2.2160001219E-09 19
3.300E00:1 3.300E00:2 3.300E00:3 3.300E00:4 3.300E00:5 3.229E00:6 3.952E00:7 1.430E-05:8 1.033E-03:9 1.428E-05:a -1.062E-03:b 
9.037E-04:c -7.034E-04:d 1.058E-05:e -2.108E-04:f 2.205E-04:10 2.725E-06:11 -2.324E-04:12 9.159E-06:13 
#C 2.2480026939E-09 19
3.300E00:1 3.300E00:2 3.300E00:3 3.300E00:4 3.300E00:5 3.229E00:6 3.950E00:7 6.813E-06:8 4.910E-04:9 6.805E-06:a -5.046E-04:b 
8.123E-04:c -6.499E-04:d 8.556E-06:e -1.709E-04:f 2.205E-04:10 2.725E-06:11 -2.324E-04:12 9.159E-06:13 
#C 2.3120078378E-09 19
3.300E00:1 3.300E00:2 3.300E00:3 3.300E00:4 3.300E00:5 3.229E00:6 3.947E00:7 2.173E-06:8 1.551E-04:9 2.167E-06:a -1.594E-04:b 
7.353E-04:c -7.169E-04:d 9.440E-07:e -1.935E-05:f 2.508E-04:10 -3.174E-06:11 -2.327E-04:12 -1.491E-05:13 
#C 2.4400181257E-09 19
3.300E00:1 3.300E00:2 3.300E00:3 3.300E00:4 3.300E00:5 3.229E00:6 3.949E00:7 -5.458E-06:8 -3.940E-04:9 -5.476E-06:a 4.049E-04:b 
7.934E-04:c -8.923E-04:d -5.213E-06:e 1.041E-04:f 2.386E-04:10 -8.144E-07:11 -2.325E-04:12 -5.284E-06:13 
#C 2.6960387015E-09 19
3.300E00:1 3.300E00:2 3.300E00:3 3.300E00:4 3.300E00:5 3.229E00:6 3.966E00:7 -7.660E-06:8 -5.608E-04:9 -7.658E-06:a 5.761E-04:b 
1.531E-03:c -1.680E-03:d -7.996E-06:e 1.574E-04:f 2.560E-04:10 -3.857E-06:11 -2.370E-04:12 -1.511E-05:13 
#C 3.2080798530E-09 19
3.300E00:1 3.300E00:2 3.300E00:3 3.300E00:4 3.300E00:5 3.229E00:6 3.986E00:7 -1.025E-08:8 -7.480E-06:9 -6.751E-10:a 7.491E-06:b 
3.251E-03:c -3.241E-03:d 4.207E-07:e -1.021E-05:f 2.241E-04:10 2.382E-06:11 -2.369E-04:12 1.044E-05:13 
#C 3.8671768391E-09 19
3.300E00:1 3.300E00:2 3.300E00:3 3.300E00:4 3.300E00:5 3.229E00:6 3.988E00:7 -6.347E-07:8 -4.108E-05:9 -6.457E-07:a 4.236E-05:b 
3.547E-03:c -3.569E-03:d -1.119E-06:e 2.330E-05:f 2.463E-04:10 -2.001E-06:11 -2.363E-04:12 -8.024E-06:13 
#C 4.8672310197E-09 19
3.300E00:1 3.300E00:2 3.300E00:3 3.300E00:4 3.300E00:5 3.229E00:6 3.989E00:7 -4.007E-08:8 -2.924E-06:9 -3.843E-08:a 3.003E-06:b 
3.742E-03:c -3.743E-03:d -2.555E-08:e 2.926E-07:f 2.354E-04:10 1.906E-07:11 -2.368E-04:12 1.208E-06:13 
#C 5.8672852003E-09 19
3.300E00:1 3.300E00:2 3.300E00:3 3.300E00:4 3.300E00:5 3.229E00:6 3.989E00:7 5.431E-08:8 4.088E-06:9 5.432E-08:a -4.197E-06:b 
3.770E-03:c -3.770E-03:d 2.982E-08:e -7.672E-07:f 2.354E-04:10 1.906E-07:11 -2.368E-04:12 1.208E-06:13 
#C 6.8673393809E-09 19
3.300E00:1 3.300E00:2 3.300E00:3 3.300E00:4 3.300E00:5 3.229E00:6 3.989E00:7 5.431E-08:8 4.088E-06:9 5.432E-08:a -4.197E-06:b 
3.767E-03:c -3.768E-03:d -4.580E-08:e 6.894E-07:f 2.354E-04:10 1.906E-07:11 -2.368E-04:12 1.208E-06:13 
#C 7.8673935616E-09 19
3.300E00:1 3.300E00:2 3.300E00:3 3.300E00:4 3.300E00:5 3.229E00:6 3.989E00:7 5.431E-08:8 4.088E-06:9 5.432E-08:a -4.197E-06:b 
3.767E-03:c -3.768E-03:d -4.580E-08:e 6.894E-07:f 2.354E-04:10 1.906E-07:11 -2.368E-04:12 1.208E-06:13 
#C 8.8674477422E-09 19
3.300E00:1 3.300E00:2 3.300E00:3 3.300E00:4 3.300E00:5 3.229E00:6 3.989E00:7 5.431E-08:8 4.088E-06:9 5.432E-08:a -4.197E-06:b 
3.767E-03:c -3.768E-03:d -4.580E-08:e 6.894E-07:f 2.354E-04:10 1.906E-07:11 -2.368E-04:12 1.208E-06:13 
#C 9.8675019228E-09 19
3.300E00:1 3.300E00:2 3.300E00:3 3.300E00:4 3.300E00:5 3.229E00:6 3.989E00:7 5.431E-08:8 4.088E-06:9 5.432E-08:a -4.197E-06:b 
3.767E-03:c -3.768E-03:d -4.580E-08:e 6.894E-07:f 2.354E-04:10 1.906E-07:11 -2.368E-04:12 1.208E-06:13 
#C 1.0867556103E-08 19
3.300E00:1 3.300E00:2 3.300E00:3 3.300E00:4 3.300E00:5 3.229E00:6 3.989E00:7 5.431E-08:8 4.088E-06:9 5.432E-08:a -4.197E-06:b 
3.767E-03:c -3.768E-03:d -4.580E-08:e 6.894E-07:f 2.354E-04:10 1.906E-07:11 -2.368E-04:12 1.208E-06:13 
#C 1.1867610284E-08 19
3.300E00:1 3.300E00:2 3.300E00:3 3.300E00:4 3.300E00:5 3.229E00:6 3.989E00:7 5.431E-08:8 4.088E-06:9 5.432E-08:a -4.197E-06:b 
3.767E-03:c -3.768E-03:d -4.580E-08:e 6.894E-07:f 2.354E-04:10 1.906E-07:11 -2.368E-04:12 1.208E-06:13 
#C 1.2867664465E-08 19
3.300E00:1 3.300E00:2 3.300E00:3 3.300E00:4 3.300E00:5 3.229E00:6 3.989E00:7 5.431E-08:8 4.088E-06:9 5.432E-08:a -4.197E-06:b 
3.767E-03:c -3.768E-03:d -4.580E-08:e 6.894E-07:f 2.354E-04:10 1.906E-07:11 -2.368E-04:12 1.208E-06:13 
#C 1.3867718645E-08 19
3.300E00:1 3.300E00:2 3.300E00:3 3.300E00:4 3.300E00:5 3.229E00:6 3.989E00:7 5.431E-08:8 4.088E-06:9 5.432E-08:a -4.197E-06:b 
3.767E-03:c -3.768E-03:d -4.580E-08:e 6.894E-07:f 2.354E-04:10 1.906E-07:11 -2.368E-04:12 1.208E-06:13 
#C 1.4867772826E-08 19
3.300E00:1 3.300E00:2 3.300E00:3 3.300E00:4 3.300E00:5 3.229E00:6 3.989E00:7 5.431E-08:8 4.088E-06:9 5.432E-08:a -4.197E-06:b 
3.767E-03:c -3.768E-03:d -4.580E-08:e 6.894E-07:f 2.354E-04:10 1.906E-07:11 -2.368E-04:12 1.208E-06:13 
#C 1.5000000000E-08 19
3.300E00:1 3.300E00:2 3.300E00:3 3.300E00:4 3.300E00:5 3.229E00:6 3.989E00:7 -5.432E-08:8 -4.088E-06:9 -5.432E-08:a 4.197E-06:b 
3.764E-03:c -3.762E-03:d 6.523E-08:e -1.448E-06:f 2.368E-04:10 -1.906E-07:11 -2.354E-04:12 -1.208E-06:13 
#C 1.5100000000E-08 19
3.300E00:1 3.300E00:2 3.300E00:3 3.300E00:4 3.300E00:5 3.229E00:6 3.989E00:7 -2.948E-12:8 2.948E-12:9 2.815E-20:a 0.000E00:b 
3.765E-03:c -3.765E-03:d -2.053E-08:e 2.023E-07:f 2.361E-04:10 -4.371E-12:11 -2.361E-04:12 0.000E00:13 
#C 1.5264587982E-08 19
3.300E00:1 3.300E00:2 3.300E00:3 3.300E00:4 3.300E00:5 3.229E00:6 3.989E00:7 -2.948E-12:8 2.948E-12:9 2.815E-20:a 0.000E00:b 
3.768E-03:c -3.768E-03:d -2.053E-08:e 2.023E-07:f 2.361E-04:10 -4.371E-12:11 -2.361E-04:12 0.000E00:13 
#C 1.5305734978E-08 19
3.300E00:1 3.300E00:2 3.300E00:3 3.300E00:4 3.300E00:5 3.229E00:6 3.989E00:7 -2.948E-12:8 2.948E-12:9 2.815E-20:a 0.000E00:b 
3.768E-03:c -3.769E-03:d -2.053E-08:e 2.023E-07:f 2.361E-04:10 -4.371E-12:11 -2.361E-04:12 0.000E00:13 
#C 1.5388028969E-08 19
3.300E00:1 3.300E00:2 3.300E00:3 3.300E00:4 3.300E00:5 3.229E00:6 3.989E00:7 -2.948E-12:8 2.948E-12:9 -1.707E-18:a 6.939E-18:b 
3.770E-03:c -3.770E-03:d -2.053E-08:e 2.023E-07:f 2.361E-04:10 -4.371E-12:11 -2.361E-04:12 -1.110E-16:13 
#C 1.5408602466E-08 19
3.300E00:1 3.300E00:2 3.300E00:3 3.300E00:4 3.300E00:5 3.229E00:6 3.989E00:7 -2.948E-12:8 2.948E-12:9 1.466E-17:a -3.296E-17:b 
3.770E-03:c -3.770E-03:d -2.053E-08:e 2.023E-07:f 2.361E-04:10 -4.371E-12:11 -2.361E-04:12 1.388E-16:13 
#C 1.5449749462E-08 19
3.300E00:1 3.300E00:2 3.300E00:3 3.300E00:4 3.300E00:5 3.229E00:6 3.989E00:7 -2.948E-12:8 2.948E-12:9 -1.707E-18:a 1.388E-17:b 
3.771E-03:c -3.771E-03:d -2.053E-08:e 2.023E-07:f 2.361E-04:10 -4.371E-12:11 -2.361E-04:12 -1.110E-16:13 
#C 1.5532043453E-08 19
3.300E00:1 3.300E00:2 3.300E00:3 3.300E00:4 3.300E00:5 3.229E00:6 3.989E00:7 -2.948E-12:8 2.948E-12:9 -7.778E-18:a 1.388E-17:b 
3.767E-03:c -3.766E-03:d 5.113E-08:e -1.176E-06:f 2.361E-04:10 -4.371E-12:11 -2.361E-04:12 -5.551E-17:13 
#C 1.5552616951E-08 19
3.300E00:1 3.300E00:2 3.300E00:3 3.300E00:4 3.300E00:5 3.229E00:6 3.989E00:7 -2.948E-12:8 2.948E-12:9 1.466E-17:a -3.296E-17:b 
3.766E-03:c -3.765E-03:d 2.247E-08:e -6.247E-07:f 2.361E-04:10 -4.371E-12:11 -2.361E-04:12 1.388E-16:13 
#C 1.5593763946E-08 19
3.300E00:1 3.300E00:2 3.300E00:3 3.300E00:4 3.300E00:5 3.229E00:6 3.989E00:7 -2.948E-12:8 2.948E-12:9 -1.707E-18:a 1.388E-17:b 
3.764E-03:c -3.763E-03:d 2.247E-08:e -6.247E-07:f 2.361E-04:10 -4.371E-12:11 -2.361E-04:12 -1.110E-16:13 
#C 1.5676057937E-08 19
3.300E00:1 3.300E00:2 3.300E00:3 3.300E00:4 3.300E00:5 3.229E00:6 3.989E00:7 -2.948E-12:8 2.948E-12:9 -7.778E-18:a 1.388E-17:b 
3.766E-03:c -3.767E-03:d -5.837E-08:e 9.303E-07:f 2.361E-04:10 -4.371E-12:11 -2.361E-04:12 -5.551E-17:13 
#C 1.5753311145E-08 19
3.300E00:1 3.300E00:2 3.300E00:3 3.300E00:4 3.300E00:5 3.229E00:6 3.989E00:7 -2.948E-12:8 2.948E-12:9 9.135E-18:a -8.674E-18:b 
3.767E-03:c -3.768E-03:d -2.604E-08:e 3.083E-07:f 2.361E-04:10 -4.371E-12:11 -2.361E-04:12 2.776E-17:13 
#C 1.5907817560E-08 19
3.300E00:1 3.300E00:2 3.300E00:3 3.300E00:4 3.300E00:5 3.229E00:6 3.989E00:7 -2.948E-12:8 2.948E-12:9 8.955E-19:a -6.939E-18:b 
3.766E-03:c -3.765E-03:d 1.374E-08:e -4.568E-07:f 2.361E-04:10 -4.371E-12:11 -2.361E-04:12 2.776E-17:13 
#C 1.6000000000E-08 19
3.300E00:1 3.300E00:2 3.300E00:3 3.300E00:4 3.300E00:5 3.229E00:6 3.989E00:7 -2.948E-12:8 2.948E-12:9 -1.381E-18:a -2.602E-18:b 
3.765E-03:c -3.764E-03:d -2.169E-09:e -1.508E-07:f 2.361E-04:10 -4.371E-12:11 -2.361E-04:12 -3.469E-17:13 
#C 1.6023380853E-08 19
3.300E00:1 3.300E00:2 3.300E00:3 3.300E00:4 3.300E00:5 3.229E00:6 3.989E00:7 -2.948E-12:8 2.948E-12:9 2.815E-20:a 0.000E00:b 
3.764E-03:c -3.764E-03:d -2.169E-09:e -1.508E-07:f 2.361E-04:10 -4.371E-12:11 -2.361E-04:12 0.000E00:13 
#C 1.6070144888E-08 19
3.300E00:1 3.300E00:2 3.300E00:3 3.300E00:4 3.300E00:5 3.229E00:6 3.989E00:7 -2.948E-12:8 2.948E-12:9 2.815E-20:a 0.000E00:b 
3.764E-03:c -3.764E-03:d -2.169E-09:e -1.508E-07:f 2.361E-04:10 -4.371E-12:11 -2.361E-04:12 0.000E00:13 
#C 1.6163672958E-08 19
3.300E00:1 3.300E00:2 3.300E00:3 3.300E00:4 3.300E00:5 3.229E00:6 3.989E00:7 -2.948E-12:8 2.948E-12:9 -1.707E-18:a 1.388E-17:b 
3.763E-03:c -3.763E-03:d -2.169E-09:e -1.508E-07:f 2.361E-04:10 -4.371E-12:11 -2.361E-04:12 -2.776E-17:13 
#C 1.6350729097E-08 19
3.300E00:1 3.300E00:2 3.300E00:3 3.300E00:4 3.300E00:5 3.229E00:6 3.989E00:7 -2.948E-12:8 2.948E-12:9 3.931E-18:a 0.000E00:b 
3.765E-03:c -3.765E-03:d -2.870E-08:e 3.595E-07:f 2.361E-04:10 -4.371E-12:11 -2.361E-04:12 2.776E-17:13 
#C 1.6724841375E-08 19
3.300E00:1 3.300E00:2 3.300E00:3 3.300E00:4 3.300E00:5 3.229E00:6 3.989E00:7 -2.948E-12:8 2.948E-12:9 -3.441E-18:a 1.735E-18:b 
3.765E-03:c -3.765E-03:d -3.901E-09:e -1.175E-07:f 2.361E-04:10 -4.371E-12:11 -2.361E-04:12 1.388E-17:13 
#C 1.7473065931E-08 19
3.300E00:1 3.300E00:2 3.300E00:3 3.300E00:4 3.300E00:5 3.229E00:6 3.989E00:7 -2.948E-12:8 2.948E-12:9 -1.887E-19:a 0.000E00:b 
3.764E-03:c -3.764E-03:d -9.575E-09:e -8.326E-09:f 2.361E-04:10 -4.371E-12:11 -2.361E-04:12 -1.041E-17:13 
#C 1.8473120112E-08 19
3.300E00:1 3.300E00:2 3.300E00:3 3.300E00:4 3.300E00:5 3.229E00:6 3.989E00:7 -2.948E-12:8 2.948E-12:9 3.534E-19:a 0.000E00:b 
3.764E-03:c -3.764E-03:d -9.575E-09:e -8.326E-09:f 2.361E-04:10 -4.371E-12:11 -2.361E-04:12 -1.735E-18:13 
#C 1.9000000000E-08 19
3.300E00:1 3.300E00:2 3.300E00:3 3.300E00:4 3.300E00:5 3.229E00:6 3.989E00:7 -2.948E-12:8 2.948E-12:9 -1.345E-19:a -5.421E-19:b 
3.763E-03:c -3.763E-03:d -9.575E-09:e -8.326E-09:f 2.361E-04:10 -4.371E-12:11 -2.361E-04:12 6.072E-18:13 
#C 1.9100000000E-08 19
3.300E00:1 3.300E00:2 3.300E00:3 3.300E00:4 3.300E00:5 3.229E00:6 3.989E00:7 -2.948E-12:8 2.948E-12:9 2.815E-20:a 0.000E00:b 
3.763E-03:c -3.763E-03:d -9.575E-09:e -8.326E-09:f 2.361E-04:10 -4.371E-12:11 -2.361E-04:12 0.000E00:13 
#C 1.9300001523E-08 19
3.300E00:1 3.300E00:2 3.300E00:3 3.300E00:4 3.300E00:5 3.229E00:6 3.989E00:7 -2.948E-12:8 2.948E-12:9 2.815E-20:a 0.000E00:b 
3.763E-03:c -3.763E-03:d -9.575E-09:e -8.326E-09:f 2.361E-04:10 -4.371E-12:11 -2.361E-04:12 0.000E00:13 
#C 1.9700004569E-08 19
3.300E00:1 3.300E00:2 3.300E00:3 3.300E00:4 3.300E00:5 3.229E00:6 3.989E00:7 -2.948E-12:8 2.948E-12:9 1.980E-18:a -3.469E-18:b 
3.763E-03:c -3.763E-03:d -9.575E-09:e -8.326E-09:f 2.361E-04:10 -4.371E-12:11 -2.361E-04:12 6.939E-18:13 
#C 2.0000000000E-08 19
3.300E00:1 3.300E00:2 3.300E00:3 3.300E00:4 3.300E00:5 3.229E00:6 3.989E00:7 -2.948E-12:8 2.948E-12:9 -7.308E-19:a -4.337E-19:b 
3.763E-03:c -3.763E-03:d -9.575E-09:e -8.326E-09:f 2.361E-04:10 -4.371E-12:11 -2.361E-04:12 -6.939E-18:13 
#C 2.0065015629E-08 19
3.300E00:1 3.300E00:2 3.300E00:3 3.300E00:4 3.300E00:5 3.229E00:6 3.989E00:7 -2.948E-12:8 2.948E-12:9 2.815E-20:a 0.000E00:b 
3.763E-03:c -3.763E-03:d -9.575E-09:e -8.326E-09:f 2.361E-04:10 -4.371E-12:11 -2.361E-04:12 0.000E00:13 
#C 2.0195051544E-08 19
3.300E00:1 3.300E00:2 3.300E00:3 3.300E00:4 3.300E00:5 3.229E00:6 3.989E00:7 -2.948E-12:8 2.948E-12:9 2.815E-20:a 0.000E00:b 
3.763E-03:c -3.762E-03:d -9.575E-09:e -8.326E-09:f 2.361E-04:10 -4.371E-12:11 -2.361E-04:12 0.000E00:13 
#C 2.0455123372E-08 19
3.300E00:1 3.300E00:2 3.300E00:3 3.300E00:4 3.300E00:5 3.229E00:6 3.989E00:7 -2.948E-12:8 2.948E-12:9 2.450E-19:a 0.000E00:b 
3.762E-03:c -3.762E-03:d -9.575E-09:e -8.326E-09:f 2.361E-04:10 -4.371E-12:11 -2.361E-04:12 0.000E00:13 
#C 2.0975267030E-08 19
3.300E00:1 3.300E00:2 3.300E00:3 3.300E00:4 3.300E00:5 3.229E00:6 3.989E00:7 -2.948E-12:8 2.948E-12:9 2.450E-19:a -1.735E-18:b 
3.762E-03:c -3.762E-03:d -9.575E-09:e -8.326E-09:f 2.361E-04:10 -4.371E-12:11 -2.361E-04:12 6.939E-18:13 
#C 2.1975321211E-08 19
3.300E00:1 3.300E00:2 3.300E00:3 3.300E00:4 3.300E00:5 3.229E00:6 3.989E00:7 -2.948E-12:8 2.948E-12:9 -2.971E-19:a 0.000E00:b 
3.761E-03:c -3.761E-03:d -9.574E-09:e -8.326E-09:f 2.361E-04:10 -4.371E-12:11 -2.361E-04:12 0.000E00:13 
#C 2.2975375392E-08 19
3.300E00:1 3.300E00:2 3.300E00:3 3.300E00:4 3.300E00:5 3.229E00:6 3.989E00:7 -2.948E-12:8 2.948E-12:9 -2.971E-19:a 0.000E00:b 
3.761E-03:c -3.761E-03:d -9.574E-09:e -8.326E-09:f 2.361E-04:10 -4.371E-12:11 -2.361E-04:12 0.000E00:13 
#C 2.3975429572E-08 19
3.300E00:1 3.300E00:2 3.300E00:3 3.300E00:4 3.300E00:5 3.229E00:6 3.989E00:7 -2.948E-12:8 2.948E-12:9 -2.971E-19:a 0.000E00:b 
3.761E-03:c -3.761E-03:d -9.574E-09:e -8.326E-09:f 2.361E-04:10 -4.371E-12:11 -2.361E-04:12 0.000E00:13 
#C 2.4975483753E-08 19
3.300E00:1 3.300E00:2 3.300E00:3 3.300E00:4 3.300E00:5 3.229E00:6 3.989E00:7 -2.948E-12:8 2.948E-12:9 -2.971E-19:a 0.000E00:b 
3.761E-03:c -3.761E-03:d -9.574E-09:e -8.326E-09:f 2.361E-04:10 -4.371E-12:11 -2.361E-04:12 0.000E00:13 
#C 2.5975537934E-08 19
3.300E00:1 3.300E00:2 3.300E00:3 3.300E00:4 3.300E00:5 3.229E00:6 3.989E00:7 -2.948E-12:8 2.948E-12:9 -2.971E-19:a 0.000E00:b 
3.761E-03:c -3.761E-03:d -9.574E-09:e -8.326E-09:f 2.361E-04:10 -4.371E-12:11 -2.361E-04:12 0.000E00:13 
#C 2.6975592114E-08 19
3.300E00:1 3.300E00:2 3.300E00:3 3.300E00:4 3.300E00:5 3.229E00:6 3.989E00:7 -2.948E-12:8 2.948E-12:9 -2.971E-19:a 0.000E00:b 
3.761E-03:c -3.761E-03:d -9.574E-09:e -8.326E-09:f 2.361E-04:10 -4.371E-12:11 -2.361E-04:12 0.000E00:13 
#C 2.7975646295E-08 19
3.300E00:1 3.300E00:2 3.300E00:3 3.300E00:4 3.300E00:5 3.229E00:6 3.989E00:7 -2.948E-12:8 2.948E-12:9 -2.971E-19:a 0.000E00:b 
3.761E-03:c -3.761E-03:d -9.574E-09:e -8.326E-09:f 2.361E-04:10 -4.371E-12:11 -2.361E-04:12 0.000E00:13 
#C 2.8975700475E-08 19
3.300E00:1 3.300E00:2 3.300E00:3 3.300E00:4 3.300E00:5 3.229E00:6 3.989E00:7 -2.948E-12:8 2.948E-12:9 -2.971E-19:a 0.000E00:b 
3.761E-03:c -3.761E-03:d -9.574E-09:e -8.326E-09:f 2.361E-04:10 -4.371E-12:11 -2.361E-04:12 0.000E00:13 
#C 2.9975754656E-08 19
3.300E00:1 3.300E00:2 3.300E00:3 3.300E00:4 3.300E00:5 3.229E00:6 3.989E00:7 -2.948E-12:8 2.948E-12:9 -1.345E-19:a 0.000E00:b 
3.761E-03:c -3.761E-03:d -1.001E-08:e -4.337E-19:f 2.361E-04:10 -4.371E-12:11 -2.361E-04:12 3.469E-18:13 
#C 3.0975808837E-08 19
3.300E00:1 3.300E00:2 3.300E00:3 3.300E00:4 3.300E00:5 3.229E00:6 3.989E00:7 -2.948E-12:8 2.948E-12:9 3.534E-19:a -6.505E-19:b 
3.761E-03:c -3.761E-03:d -1.001E-08:e -1.735E-18:f 2.361E-04:10 -4.371E-12:11 -2.361E-04:12 5.204E-18:13 
#C 3.1975863017E-08 19
3.300E00:1 3.300E00:2 3.300E00:3 3.300E00:4 3.300E00:5 3.229E00:6 3.989E00:7 -2.948E-12:8 2.948E-12:9 3.534E-19:a -6.505E-19:b 
3.761E-03:c -3.761E-03:d -1.001E-08:e -1.735E-18:f 2.361E-04:10 -4.371E-12:11 -2.361E-04:12 5.204E-18:13 
#C 3.2975917198E-08 19
3.300E00:1 3.300E00:2 3.300E00:3 3.300E00:4 3.300E00:5 3.229E00:6 3.989E00:7 -2.948E-12:8 2.948E-12:9 3.534E-19:a -6.505E-19:b 
3.761E-03:c -3.761E-03:d -1.001E-08:e -1.735E-18:f 2.361E-04:10 -4.371E-12:11 -2.361E-04:12 5.204E-18:13 
#C 3.3975971378E-08 19
