#H
SOURCE='PSPICE' VERSION='PSpice 16.0.0 (July 2006)'
TITLE='**** 05/18/10 12:08:24 ******* PSpice 16.0.0 (July 2006) ****** ID# 0 ********'
SUBTITLE=''
TIME='16:02:51' DATE='05/30/10' TEMPERATURE='2.700E01'
ANALYSIS='Transient Analysis' SERIALNO='61413'
ALLVALUES='NO' COMPLEXVALUES='NO' NODES='19'
SWEEPVAR='Time' SWEEPMODE='VAR_STEP'
XBEGIN='0.000E00' XEND='5.000E-08'
FORMAT='0 VOLTSorAMPS;EFLOAT : NODEorBRANCH;NODE  '
DGTLDATA='NO' 
#N 
'V(C_F_D_LSB)' 'V(C_F_D_2SB)' 'V(C_F_D_3SB)' 'V(C_F_D_4SB)' 'V(C_F_D_5SB)' 'V(C_F_D_MSB)' 'V(C_F_C61_NDPOS)' 'ID(M_C_F_C61_M4)' 
'IB(M_C_F_C61_M4)' 'IS(M_C_F_C61_M4)' 'IG(M_C_F_C61_M4)' 'ID(M_C_F_C61_M2)' 'IB(M_C_F_C61_M2)' 'IS(M_C_F_C61_M2)' 'IG(M_C_F_C61_M2)' 
'ID(M_C_F_C61_M12)' 'IB(M_C_F_C61_M12)' 'IS(M_C_F_C61_M12)' 'IG(M_C_F_C61_M12)' 
#C 0.0000000000E00 19
3.300E00:1 3.300E00:2 3.300E00:3 3.300E00:4 3.300E00:5 3.229E00:6 3.988E00:7 3.719E-03:8 -3.575E-03:9 -1.446E-04:a 0.000E00:b 
2.805E-04:c -4.873E-12:d -2.805E-04:e 0.000E00:f -3.310E-12:10 3.310E-12:11 1.656E-19:12 0.000E00:13 
#C 1.0000000000E-11 19
3.300E00:1 3.300E00:2 3.300E00:3 3.300E00:4 3.300E00:5 3.229E00:6 3.988E00:7 3.719E-03:8 -3.575E-03:9 -1.446E-04:a -1.998E-15:b 
2.805E-04:c -4.850E-12:d -2.805E-04:e 1.110E-15:f -3.310E-12:10 3.290E-12:11 -3.884E-16:12 2.065E-14:13 
#C 2.0000000000E-11 19
3.300E00:1 3.300E00:2 3.300E00:3 3.300E00:4 3.300E00:5 3.229E00:6 3.988E00:7 3.719E-03:8 -3.575E-03:9 -1.446E-04:a -1.998E-15:b 
2.805E-04:c -4.850E-12:d -2.805E-04:e 1.110E-15:f -3.310E-12:10 3.290E-12:11 -3.884E-16:12 2.065E-14:13 
#C 4.0000152290E-11 19
3.300E00:1 3.300E00:2 3.300E00:3 3.300E00:4 3.300E00:5 3.229E00:6 3.988E00:7 3.719E-03:8 -3.575E-03:9 -1.446E-04:a 0.000E00:b 
2.805E-04:c -4.873E-12:d -2.805E-04:e 0.000E00:f -3.310E-12:10 3.310E-12:11 1.656E-19:12 0.000E00:13 
#C 8.0000456870E-11 19
3.300E00:1 3.300E00:2 3.300E00:3 3.300E00:4 3.300E00:5 3.229E00:6 3.988E00:7 3.719E-03:8 -3.575E-03:9 -1.446E-04:a 0.000E00:b 
2.805E-04:c -4.873E-12:d -2.805E-04:e 0.000E00:f -3.310E-12:10 3.310E-12:11 1.656E-19:12 0.000E00:13 
#C 1.6000106603E-10 19
3.300E00:1 3.300E00:2 3.300E00:3 3.300E00:4 3.300E00:5 3.229E00:6 3.988E00:7 3.719E-03:8 -3.575E-03:9 -1.446E-04:a 0.000E00:b 
2.805E-04:c -4.873E-12:d -2.805E-04:e 0.000E00:f -3.310E-12:10 3.310E-12:11 1.656E-19:12 0.000E00:13 
#C 3.2000228435E-10 19
3.300E00:1 3.300E00:2 3.300E00:3 3.300E00:4 3.300E00:5 3.229E00:6 3.988E00:7 3.719E-03:8 -3.575E-03:9 -1.446E-04:a 0.000E00:b 
2.805E-04:c -4.873E-12:d -2.805E-04:e 0.000E00:f -3.310E-12:10 3.310E-12:11 1.656E-19:12 0.000E00:13 
#C 6.4000472099E-10 19
3.300E00:1 3.300E00:2 3.300E00:3 3.300E00:4 3.300E00:5 3.229E00:6 3.988E00:7 3.719E-03:8 -3.575E-03:9 -1.446E-04:a 0.000E00:b 
2.805E-04:c -4.873E-12:d -2.805E-04:e 0.000E00:f -3.310E-12:10 3.310E-12:11 1.656E-19:12 0.000E00:13 
#C 1.2800095943E-09 19
3.300E00:1 3.300E00:2 3.300E00:3 3.300E00:4 3.300E00:5 3.229E00:6 3.988E00:7 3.719E-03:8 -3.575E-03:9 -1.446E-04:a 0.000E00:b 
2.805E-04:c -4.873E-12:d -2.805E-04:e 0.000E00:f -3.310E-12:10 3.310E-12:11 1.656E-19:12 0.000E00:13 
#C 2.0000000001E-09 19
3.300E00:1 3.300E00:2 3.300E00:3 3.300E00:4 3.300E00:5 3.229E00:6 3.988E00:7 3.719E-03:8 -3.575E-03:9 -1.446E-04:a 0.000E00:b 
2.805E-04:c -4.873E-12:d -2.805E-04:e 0.000E00:f -3.310E-12:10 3.310E-12:11 1.656E-19:12 0.000E00:13 
#C 2.0200000001E-09 19
3.300E00:1 3.300E00:2 3.300E00:3 3.300E00:4 3.300E00:5 3.229E00:6 3.987E00:7 3.515E-03:8 -3.413E-03:9 -2.353E-04:a 1.329E-04:b 
2.805E-04:c -4.873E-12:d -2.805E-04:e 0.000E00:f 2.123E-05:10 1.691E-03:11 2.248E-05:12 -1.735E-03:13 
#C 2.0600003047E-09 19
3.300E00:1 3.300E00:2 3.300E00:3 3.300E00:4 3.300E00:5 3.229E00:6 3.985E00:7 3.117E-03:8 -3.043E-03:9 -2.937E-04:a 2.196E-04:b 
2.698E-04:c 1.026E-05:d -2.801E-04:e 1.864E-08:f 3.407E-05:10 2.771E-03:11 3.692E-05:12 -2.842E-03:13 
#C 2.1400009138E-09 19
3.300E00:1 3.300E00:2 3.300E00:3 3.300E00:4 3.300E00:5 3.229E00:6 3.979E00:7 2.544E-03:8 -2.468E-03:9 -2.896E-04:a 2.136E-04:b 
2.698E-04:c 1.026E-05:d -2.801E-04:e 1.911E-08:f 3.407E-05:10 2.746E-03:11 3.692E-05:12 -2.817E-03:13 
#C 2.2000000001E-09 19
3.300E00:1 3.300E00:2 3.300E00:3 3.300E00:4 3.300E00:5 3.229E00:6 3.976E00:7 2.212E-03:8 -2.128E-03:9 -2.750E-04:a 1.909E-04:b 
2.823E-04:c -1.726E-06:d -2.806E-04:e 6.737E-08:f 3.407E-05:10 2.742E-03:11 3.692E-05:12 -2.813E-03:13 
#C 2.2160001219E-09 19
3.300E00:1 3.300E00:2 3.300E00:3 3.300E00:4 3.300E00:5 3.229E00:6 3.975E00:7 2.108E-03:8 -2.028E-03:9 -2.882E-04:a 2.085E-04:b 
2.761E-04:c 4.266E-06:d -2.804E-04:e 4.326E-08:f 3.407E-05:10 2.736E-03:11 3.692E-05:12 -2.807E-03:13 
#C 2.2480026939E-09 19
3.300E00:1 3.300E00:2 3.300E00:3 3.300E00:4 3.300E00:5 3.229E00:6 3.973E00:7 2.005E-03:8 -1.921E-03:9 -2.607E-04:a 1.763E-04:b 
2.761E-04:c 4.266E-06:d -2.804E-04:e 4.328E-08:f 2.506E-05:10 1.859E-03:11 2.513E-05:12 -1.909E-03:13 
#C 2.3120078378E-09 19
3.300E00:1 3.300E00:2 3.300E00:3 3.300E00:4 3.300E00:5 3.229E00:6 3.971E00:7 1.891E-03:8 -1.776E-03:9 -2.016E-04:a 8.689E-05:b 
2.761E-04:c 4.267E-06:d -2.804E-04:e 4.333E-08:f 2.506E-05:10 1.852E-03:11 2.513E-05:12 -1.902E-03:13 
#C 2.4400181257E-09 19
3.300E00:1 3.300E00:2 3.300E00:3 3.300E00:4 3.300E00:5 3.229E00:6 3.967E00:7 1.670E-03:8 -1.552E-03:9 -1.879E-04:a 6.928E-05:b 
2.760E-04:c 4.267E-06:d -2.804E-04:e 4.342E-08:f 3.724E-06:10 4.079E-04:11 5.601E-06:12 -4.172E-04:13 
#C 2.6960387015E-09 19
3.300E00:1 3.300E00:2 3.300E00:3 3.300E00:4 3.300E00:5 3.229E00:6 3.966E00:7 1.720E-03:8 -1.566E-03:9 -1.062E-04:a -4.815E-05:b 
2.829E-04:c -2.399E-06:d -2.806E-04:e 1.166E-07:f -6.145E-06:10 -5.382E-04:11 -7.312E-06:12 5.516E-04:13 
#C 3.2080798530E-09 19
3.300E00:1 3.300E00:2 3.300E00:3 3.300E00:4 3.300E00:5 3.229E00:6 3.975E00:7 2.340E-03:8 -2.179E-03:9 -9.870E-05:a -6.215E-05:b 
2.824E-04:c -1.865E-06:d -2.806E-04:e 6.674E-08:f -1.179E-05:10 -9.125E-04:11 -1.235E-05:12 9.366E-04:13 
#C 4.2081340336E-09 19
3.300E00:1 3.300E00:2 3.300E00:3 3.300E00:4 3.300E00:5 3.229E00:6 3.987E00:7 3.594E-03:8 -3.444E-03:9 -1.324E-04:a -1.748E-05:b 
2.815E-04:c -1.002E-06:d -2.805E-04:e 1.540E-09:f -6.316E-07:10 -7.388E-05:11 -8.611E-07:12 7.537E-05:13 
#C 5.2081882143E-09 19
3.300E00:1 3.300E00:2 3.300E00:3 3.300E00:4 3.300E00:5 3.229E00:6 3.988E00:7 3.721E-03:8 -3.579E-03:9 -1.516E-04:a 1.040E-05:b 
2.801E-04:c 4.384E-07:d -2.805E-04:e -1.116E-08:f -3.429E-07:10 4.681E-06:11 -5.897E-08:12 -4.279E-06:13 
#C 6.2082423949E-09 19
3.300E00:1 3.300E00:2 3.300E00:3 3.300E00:4 3.300E00:5 3.229E00:6 3.988E00:7 3.736E-03:8 -3.591E-03:9 -1.455E-04:a 1.302E-06:b 
2.801E-04:c 4.384E-07:d -2.805E-04:e -1.116E-08:f 1.428E-07:10 1.338E-05:11 1.779E-07:12 -1.370E-05:13 
#C 7.2082965755E-09 19
3.300E00:1 3.300E00:2 3.300E00:3 3.300E00:4 3.300E00:5 3.229E00:6 3.988E00:7 3.734E-03:8 -3.590E-03:9 -1.451E-04:a 1.042E-06:b 
2.801E-04:c 4.384E-07:d -2.805E-04:e -1.116E-08:f 1.428E-07:10 1.338E-05:11 1.779E-07:12 -1.370E-05:13 
#C 8.2083507561E-09 19
3.300E00:1 3.300E00:2 3.300E00:3 3.300E00:4 3.300E00:5 3.229E00:6 3.988E00:7 3.717E-03:8 -3.573E-03:9 -1.446E-04:a -2.708E-07:b 
2.810E-04:c -4.384E-07:d -2.805E-04:e 1.116E-08:f -1.429E-07:10 -1.338E-05:11 -1.779E-07:12 1.370E-05:13 
#C 9.2084049367E-09 19
3.300E00:1 3.300E00:2 3.300E00:3 3.300E00:4 3.300E00:5 3.229E00:6 3.988E00:7 3.725E-03:8 -3.581E-03:9 -1.445E-04:a 9.986E-08:b 
2.805E-04:c -4.875E-12:d -2.805E-04:e 5.204E-18:f -3.310E-12:10 3.310E-12:11 -2.654E-18:12 -1.735E-18:13 
#C 1.0208459117E-08 19
3.300E00:1 3.300E00:2 3.300E00:3 3.300E00:4 3.300E00:5 3.229E00:6 3.988E00:7 3.725E-03:8 -3.580E-03:9 -1.446E-04:a 4.485E-08:b 
2.805E-04:c -4.875E-12:d -2.805E-04:e 5.204E-18:f -3.310E-12:10 3.310E-12:11 -2.654E-18:12 -1.735E-18:13 
#C 1.1208513298E-08 19
3.300E00:1 3.300E00:2 3.300E00:3 3.300E00:4 3.300E00:5 3.229E00:6 3.988E00:7 3.725E-03:8 -3.580E-03:9 -1.446E-04:a 4.485E-08:b 
2.805E-04:c -4.875E-12:d -2.805E-04:e 5.204E-18:f -3.310E-12:10 3.310E-12:11 -2.654E-18:12 -1.735E-18:13 
#C 1.2208567479E-08 19
3.300E00:1 3.300E00:2 3.300E00:3 3.300E00:4 3.300E00:5 3.229E00:6 3.988E00:7 3.725E-03:8 -3.580E-03:9 -1.446E-04:a 4.485E-08:b 
2.805E-04:c -4.875E-12:d -2.805E-04:e 5.204E-18:f -3.310E-12:10 3.310E-12:11 -2.654E-18:12 -1.735E-18:13 
#C 1.3208621659E-08 19
3.300E00:1 3.300E00:2 3.300E00:3 3.300E00:4 3.300E00:5 3.229E00:6 3.988E00:7 3.725E-03:8 -3.580E-03:9 -1.446E-04:a 4.485E-08:b 
2.805E-04:c -4.875E-12:d -2.805E-04:e 5.204E-18:f -3.310E-12:10 3.310E-12:11 -2.654E-18:12 -1.735E-18:13 
#C 1.4208675840E-08 19
3.300E00:1 3.300E00:2 3.300E00:3 3.300E00:4 3.300E00:5 3.229E00:6 3.988E00:7 3.725E-03:8 -3.580E-03:9 -1.446E-04:a 4.485E-08:b 
2.805E-04:c -4.875E-12:d -2.805E-04:e 5.204E-18:f -3.310E-12:10 3.310E-12:11 -2.654E-18:12 -1.735E-18:13 
#C 1.5000000000E-08 19
3.300E00:1 3.300E00:2 3.300E00:3 3.300E00:4 3.300E00:5 3.229E00:6 3.988E00:7 3.725E-03:8 -3.581E-03:9 -1.445E-04:a -4.485E-08:b 
2.805E-04:c -4.875E-12:d -2.805E-04:e -5.204E-18:f -3.310E-12:10 3.310E-12:11 2.984E-18:12 1.735E-18:13 
#C 1.5100000000E-08 19
3.300E00:1 3.300E00:2 3.300E00:3 3.300E00:4 3.300E00:5 3.229E00:6 3.988E00:7 3.733E-03:8 -3.588E-03:9 -1.435E-04:a -1.511E-06:b 
2.805E-04:c -4.875E-12:d -2.805E-04:e 0.000E00:f -3.310E-12:10 3.310E-12:11 1.650E-19:12 0.000E00:13 
#C 1.5300001523E-08 19
3.300E00:1 3.300E00:2 3.300E00:3 3.300E00:4 3.300E00:5 3.229E00:6 3.988E00:7 3.730E-03:8 -3.585E-03:9 -1.445E-04:a -2.783E-07:b 
2.805E-04:c -4.875E-12:d -2.805E-04:e 0.000E00:f -3.310E-12:10 3.310E-12:11 1.650E-19:12 0.000E00:13 
#C 1.5350001904E-08 19
3.300E00:1 3.300E00:2 3.300E00:3 3.300E00:4 3.300E00:5 3.229E00:6 3.988E00:7 3.739E-03:8 -3.592E-03:9 -1.405E-04:a -6.465E-06:b 
2.805E-04:c -4.875E-12:d -2.805E-04:e 0.000E00:f -3.310E-12:10 3.310E-12:11 1.650E-19:12 0.000E00:13 
#C 1.5450002665E-08 19
3.300E00:1 3.300E00:2 3.300E00:3 3.300E00:4 3.300E00:5 3.229E00:6 3.988E00:7 3.732E-03:8 -3.590E-03:9 -1.473E-04:a 5.116E-06:b 
2.805E-04:c -4.875E-12:d -2.805E-04:e 0.000E00:f -3.310E-12:10 3.310E-12:11 7.104E-18:12 0.000E00:13 
#C 1.5475002856E-08 19
3.300E00:1 3.300E00:2 3.300E00:3 3.300E00:4 3.300E00:5 3.229E00:6 3.988E00:7 3.733E-03:8 -3.590E-03:9 -1.453E-04:a 1.721E-06:b 
2.805E-04:c -4.875E-12:d -2.805E-04:e 5.551E-17:f -3.310E-12:10 3.310E-12:11 5.369E-18:12 -6.939E-18:13 
#C 1.5525003236E-08 19
3.300E00:1 3.300E00:2 3.300E00:3 3.300E00:4 3.300E00:5 3.229E00:6 3.988E00:7 3.733E-03:8 -3.589E-03:9 -1.453E-04:a 1.721E-06:b 
2.805E-04:c -4.875E-12:d -2.805E-04:e 0.000E00:f -3.310E-12:10 3.310E-12:11 6.955E-17:12 -5.551E-17:13 
#C 1.5537503331E-08 19
3.300E00:1 3.300E00:2 3.300E00:3 3.300E00:4 3.300E00:5 3.229E00:6 3.988E00:7 3.733E-03:8 -3.589E-03:9 -1.453E-04:a 1.721E-06:b 
2.805E-04:c -4.875E-12:d -2.805E-04:e 4.163E-17:f -3.310E-12:10 3.310E-12:11 -6.749E-17:12 -6.939E-18:13 
#C 1.5562503522E-08 19
3.300E00:1 3.300E00:2 3.300E00:3 3.300E00:4 3.300E00:5 3.229E00:6 3.988E00:7 3.733E-03:8 -3.589E-03:9 -1.453E-04:a 1.721E-06:b 
2.805E-04:c -4.875E-12:d -2.805E-04:e 0.000E00:f -3.310E-12:10 3.310E-12:11 2.792E-17:12 1.110E-16:13 
#C 1.5568753569E-08 19
3.300E00:1 3.300E00:2 3.300E00:3 3.300E00:4 3.300E00:5 3.229E00:6 3.988E00:7 3.733E-03:8 -3.589E-03:9 -1.453E-04:a 1.721E-06:b 
2.805E-04:c -4.875E-12:d -2.805E-04:e -1.388E-16:f -3.310E-12:10 3.310E-12:11 -2.531E-16:12 -2.776E-17:13 
#C 1.5581253665E-08 19
3.300E00:1 3.300E00:2 3.300E00:3 3.300E00:4 3.300E00:5 3.229E00:6 3.988E00:7 3.733E-03:8 -3.589E-03:9 -1.453E-04:a 1.721E-06:b 
2.805E-04:c -4.874E-12:d -2.805E-04:e -8.882E-16:f -3.310E-12:10 3.310E-12:11 -3.051E-16:12 2.220E-16:13 
#C 1.5606253855E-08 19
3.300E00:1 3.300E00:2 3.300E00:3 3.300E00:4 3.300E00:5 3.229E00:6 3.988E00:7 3.732E-03:8 -3.589E-03:9 -1.453E-04:a 1.721E-06:b 
2.805E-04:c -4.875E-12:d -2.805E-04:e 0.000E00:f -3.310E-12:10 3.310E-12:11 1.112E-16:12 1.110E-16:13 
#C 1.5656254236E-08 19
3.300E00:1 3.300E00:2 3.300E00:3 3.300E00:4 3.300E00:5 3.229E00:6 3.988E00:7 3.732E-03:8 -3.589E-03:9 -1.453E-04:a 1.721E-06:b 
2.805E-04:c -4.875E-12:d -2.805E-04:e 1.110E-16:f -3.310E-12:10 3.310E-12:11 2.098E-17:12 -5.551E-17:13 
#C 1.5731854346E-08 19
3.300E00:1 3.300E00:2 3.300E00:3 3.300E00:4 3.300E00:5 3.229E00:6 3.988E00:7 3.732E-03:8 -3.588E-03:9 -1.453E-04:a 1.721E-06:b 
2.805E-04:c -4.875E-12:d -2.805E-04:e 8.327E-17:f -3.310E-12:10 3.310E-12:11 3.634E-18:12 0.000E00:13 
#C 1.5843461715E-08 19
3.300E00:1 3.300E00:2 3.300E00:3 3.300E00:4 3.300E00:5 3.229E00:6 3.988E00:7 3.731E-03:8 -3.587E-03:9 -1.453E-04:a 1.721E-06:b 
2.805E-04:c -4.875E-12:d -2.805E-04:e -2.776E-17:f -3.310E-12:10 3.310E-12:11 -2.065E-17:12 1.388E-17:13 
#C 1.6000000000E-08 19
3.300E00:1 3.300E00:2 3.300E00:3 3.300E00:4 3.300E00:5 3.229E00:6 3.988E00:7 3.730E-03:8 -3.586E-03:9 -1.453E-04:a 1.721E-06:b 
2.805E-04:c -4.875E-12:d -2.805E-04:e -2.776E-17:f -3.310E-12:10 3.310E-12:11 -4.320E-17:12 2.776E-17:13 
#C 1.6022321474E-08 19
3.300E00:1 3.300E00:2 3.300E00:3 3.300E00:4 3.300E00:5 3.229E00:6 3.988E00:7 3.738E-03:8 -3.594E-03:9 -1.424E-04:a -1.798E-06:b 
2.805E-04:c -4.875E-12:d -2.805E-04:e 0.000E00:f -3.310E-12:10 3.310E-12:11 1.650E-19:12 0.000E00:13 
#C 1.6066966750E-08 19
3.300E00:1 3.300E00:2 3.300E00:3 3.300E00:4 3.300E00:5 3.229E00:6 3.988E00:7 3.735E-03:8 -3.590E-03:9 -1.446E-04:a -5.983E-08:b 
2.805E-04:c -4.875E-12:d -2.805E-04:e 0.000E00:f -3.310E-12:10 3.310E-12:11 1.650E-19:12 0.000E00:13 
#C 1.6156257302E-08 19
3.300E00:1 3.300E00:2 3.300E00:3 3.300E00:4 3.300E00:5 3.229E00:6 3.988E00:7 3.733E-03:8 -3.588E-03:9 -1.446E-04:a -5.983E-08:b 
2.805E-04:c -4.875E-12:d -2.805E-04:e 0.000E00:f -3.310E-12:10 3.310E-12:11 -2.065E-17:12 -2.776E-17:13 
#C 1.6334838405E-08 19
3.300E00:1 3.300E00:2 3.300E00:3 3.300E00:4 3.300E00:5 3.229E00:6 3.988E00:7 3.730E-03:8 -3.585E-03:9 -1.446E-04:a -5.983E-08:b 
2.805E-04:c -4.875E-12:d -2.805E-04:e 0.000E00:f -3.310E-12:10 3.310E-12:11 -1.024E-17:12 -1.388E-17:13 
#C 1.6692000613E-08 19
3.300E00:1 3.300E00:2 3.300E00:3 3.300E00:4 3.300E00:5 3.229E00:6 3.988E00:7 3.730E-03:8 -3.586E-03:9 -1.449E-04:a 1.162E-06:b 
2.805E-04:c -4.875E-12:d -2.805E-04:e 1.388E-17:f -3.310E-12:10 3.310E-12:11 -5.039E-18:12 -6.939E-18:13 
#C 1.7406325027E-08 19
3.300E00:1 3.300E00:2 3.300E00:3 3.300E00:4 3.300E00:5 3.229E00:6 3.988E00:7 3.730E-03:8 -3.586E-03:9 -1.448E-04:a 6.730E-07:b 
2.805E-04:c -4.875E-12:d -2.805E-04:e 6.939E-18:f -3.310E-12:10 3.310E-12:11 5.369E-18:12 -3.469E-18:13 
#C 1.8406379208E-08 19
3.300E00:1 3.300E00:2 3.300E00:3 3.300E00:4 3.300E00:5 3.229E00:6 3.988E00:7 3.725E-03:8 -3.581E-03:9 -1.446E-04:a 3.692E-08:b 
2.805E-04:c -4.875E-12:d -2.805E-04:e -1.735E-18:f -3.310E-12:10 3.310E-12:11 1.683E-18:12 3.469E-18:13 
#C 1.9000000000E-08 19
3.300E00:1 3.300E00:2 3.300E00:3 3.300E00:4 3.300E00:5 3.229E00:6 3.988E00:7 3.727E-03:8 -3.582E-03:9 -1.443E-04:a -2.882E-07:b 
2.805E-04:c -4.875E-12:d -2.805E-04:e -6.072E-18:f -3.310E-12:10 3.310E-12:11 -5.473E-18:12 6.939E-18:13 
#C 1.9100000000E-08 19
3.300E00:1 3.300E00:2 3.300E00:3 3.300E00:4 3.300E00:5 3.229E00:6 3.988E00:7 3.733E-03:8 -3.589E-03:9 -1.439E-04:a -5.897E-07:b 
2.805E-04:c -4.875E-12:d -2.805E-04:e 0.000E00:f -3.310E-12:10 3.310E-12:11 1.650E-19:12 0.000E00:13 
#C 1.9300001523E-08 19
3.300E00:1 3.300E00:2 3.300E00:3 3.300E00:4 3.300E00:5 3.229E00:6 3.988E00:7 3.730E-03:8 -3.585E-03:9 -1.446E-04:a 1.885E-07:b 
2.805E-04:c -4.875E-12:d -2.805E-04:e 0.000E00:f -3.310E-12:10 3.310E-12:11 1.650E-19:12 0.000E00:13 
#C 1.9700004569E-08 19
3.300E00:1 3.300E00:2 3.300E00:3 3.300E00:4 3.300E00:5 3.229E00:6 3.988E00:7 3.729E-03:8 -3.585E-03:9 -1.447E-04:a 5.326E-07:b 
2.805E-04:c -4.875E-12:d -2.805E-04:e -1.388E-17:f -3.310E-12:10 3.310E-12:11 -1.892E-17:12 0.000E00:13 
#C 2.0000000000E-08 19
3.300E00:1 3.300E00:2 3.300E00:3 3.300E00:4 3.300E00:5 3.229E00:6 3.988E00:7 3.729E-03:8 -3.584E-03:9 -1.447E-04:a 3.949E-07:b 
2.805E-04:c -4.875E-12:d -2.805E-04:e 0.000E00:f -3.310E-12:10 3.310E-12:11 1.032E-18:12 -6.939E-18:13 
#C 2.0065006316E-08 19
3.300E00:1 3.300E00:2 3.300E00:3 3.300E00:4 3.300E00:5 3.229E00:6 3.988E00:7 3.734E-03:8 -3.590E-03:9 -1.446E-04:a 1.395E-06:b 
2.805E-04:c -4.875E-12:d -2.805E-04:e 0.000E00:f -3.310E-12:10 3.310E-12:11 1.650E-19:12 0.000E00:13 
#C 2.0195018947E-08 19
3.300E00:1 3.300E00:2 3.300E00:3 3.300E00:4 3.300E00:5 3.229E00:6 3.988E00:7 3.733E-03:8 -3.588E-03:9 -1.453E-04:a 1.066E-06:b 
2.805E-04:c -4.875E-12:d -2.805E-04:e 2.776E-17:f -3.310E-12:10 3.310E-12:11 7.104E-18:12 -2.776E-17:13 
#C 2.0455044210E-08 19
3.300E00:1 3.300E00:2 3.300E00:3 3.300E00:4 3.300E00:5 3.229E00:6 3.988E00:7 3.732E-03:8 -3.588E-03:9 -1.450E-04:a 1.198E-06:b 
2.805E-04:c -4.875E-12:d -2.805E-04:e -1.388E-17:f -3.310E-12:10 3.310E-12:11 -1.570E-18:12 1.388E-17:13 
#C 2.0975094736E-08 19
3.300E00:1 3.300E00:2 3.300E00:3 3.300E00:4 3.300E00:5 3.229E00:6 3.988E00:7 3.731E-03:8 -3.587E-03:9 -1.450E-04:a 1.198E-06:b 
2.805E-04:c -4.875E-12:d -2.805E-04:e 0.000E00:f -3.310E-12:10 3.310E-12:11 1.032E-18:12 -6.939E-18:13 
#C 2.1975148916E-08 19
3.300E00:1 3.300E00:2 3.300E00:3 3.300E00:4 3.300E00:5 3.229E00:6 3.988E00:7 3.725E-03:8 -3.581E-03:9 -1.446E-04:a 3.021E-07:b 
2.805E-04:c -4.875E-12:d -2.805E-04:e 3.469E-18:f -3.310E-12:10 3.310E-12:11 5.987E-19:12 0.000E00:13 
#C 2.2975203097E-08 19
3.300E00:1 3.300E00:2 3.300E00:3 3.300E00:4 3.300E00:5 3.229E00:6 3.988E00:7 3.725E-03:8 -3.581E-03:9 -1.444E-04:a 1.214E-07:b 
2.805E-04:c -4.875E-12:d -2.805E-04:e 3.469E-18:f -3.310E-12:10 3.310E-12:11 5.987E-19:12 0.000E00:13 
#C 2.3975257278E-08 19
3.300E00:1 3.300E00:2 3.300E00:3 3.300E00:4 3.300E00:5 3.229E00:6 3.988E00:7 3.725E-03:8 -3.581E-03:9 -1.444E-04:a 1.214E-07:b 
2.805E-04:c -4.875E-12:d -2.805E-04:e 3.469E-18:f -3.310E-12:10 3.310E-12:11 5.987E-19:12 0.000E00:13 
#C 2.4975311458E-08 19
3.300E00:1 3.300E00:2 3.300E00:3 3.300E00:4 3.300E00:5 3.229E00:6 3.988E00:7 3.725E-03:8 -3.581E-03:9 -1.444E-04:a 1.214E-07:b 
2.805E-04:c -4.875E-12:d -2.805E-04:e 3.469E-18:f -3.310E-12:10 3.310E-12:11 5.987E-19:12 0.000E00:13 
#C 2.5975365639E-08 19
3.300E00:1 3.300E00:2 3.300E00:3 3.300E00:4 3.300E00:5 3.229E00:6 3.988E00:7 3.725E-03:8 -3.581E-03:9 -1.444E-04:a 1.214E-07:b 
2.805E-04:c -4.875E-12:d -2.805E-04:e 3.469E-18:f -3.310E-12:10 3.310E-12:11 5.987E-19:12 0.000E00:13 
#C 2.6975419819E-08 19
3.300E00:1 3.300E00:2 3.300E00:3 3.300E00:4 3.300E00:5 3.229E00:6 3.988E00:7 3.725E-03:8 -3.581E-03:9 -1.444E-04:a 1.214E-07:b 
2.805E-04:c -4.875E-12:d -2.805E-04:e 3.469E-18:f -3.310E-12:10 3.310E-12:11 5.987E-19:12 0.000E00:13 
#C 2.7975474000E-08 19
3.300E00:1 3.300E00:2 3.300E00:3 3.300E00:4 3.300E00:5 3.229E00:6 3.988E00:7 3.725E-03:8 -3.581E-03:9 -1.444E-04:a 1.214E-07:b 
2.805E-04:c -4.875E-12:d -2.805E-04:e 3.469E-18:f -3.310E-12:10 3.310E-12:11 5.987E-19:12 0.000E00:13 
#C 2.8975528181E-08 19
3.300E00:1 3.300E00:2 3.300E00:3 3.300E00:4 3.300E00:5 3.229E00:6 3.988E00:7 3.725E-03:8 -3.581E-03:9 -1.444E-04:a 1.214E-07:b 
2.805E-04:c -4.875E-12:d -2.805E-04:e 3.469E-18:f -3.310E-12:10 3.310E-12:11 5.987E-19:12 0.000E00:13 
#C 2.9975582361E-08 19
3.300E00:1 3.300E00:2 3.300E00:3 3.300E00:4 3.300E00:5 3.229E00:6 3.988E00:7 3.725E-03:8 -3.581E-03:9 -1.444E-04:a 1.214E-07:b 
2.805E-04:c -4.875E-12:d -2.805E-04:e 3.469E-18:f -3.310E-12:10 3.310E-12:11 5.987E-19:12 0.000E00:13 
#C 3.0975636542E-08 19
3.300E00:1 3.300E00:2 3.300E00:3 3.300E00:4 3.300E00:5 3.229E00:6 3.988E00:7 3.725E-03:8 -3.581E-03:9 -1.444E-04:a 1.214E-07:b 
2.805E-04:c -4.875E-12:d -2.805E-04:e 3.469E-18:f -3.310E-12:10 3.310E-12:11 5.987E-19:12 0.000E00:13 
#C 3.1975690723E-08 19
3.300E00:1 3.300E00:2 3.300E00:3 3.300E00:4 3.300E00:5 3.229E00:6 3.988E00:7 3.725E-03:8 -3.581E-03:9 -1.444E-04:a 1.214E-07:b 
2.805E-04:c -4.875E-12:d -2.805E-04:e 3.469E-18:f -3.310E-12:10 3.310E-12:11 5.987E-19:12 0.000E00:13 
#C 3.2975744903E-08 19
